# vsim -sv_seed 2 -voptargs="+acc" -assertdebug -c testbench -do " log -r /*;run -all;" -l full_tx_fifo_test_2.log "+UVM_TESTNAME=full_tx_fifo_test" "+UVM_VERBOSITY=UVM_HIGH" 
# Start time: 10:34:34 on Aug 02,2026
# Loading /tmp/vannghia_1108@ictc-eda-ldap.ipa.test_dpi_22808/linux_x86_64_gcc-11/export_tramp.so
# ** Note: (vsim-3813) Design is being optimized due to module recompilation...
# //  Questa Sim-64
# //  Version 10.6d_1 linux_x86_64 Apr 11 2018
# //
# //  Copyright 1991-2018 Mentor Graphics Corporation
# //  All Rights Reserved.
# //
# //  QuestaSim and its associated documentation contain trade
# //  secrets and commercial or financial information that are the property of
# //  Mentor Graphics Corporation and are privileged, confidential,
# //  and exempt from disclosure under the Freedom of Information Act,
# //  5 U.S.C. Section 552. Furthermore, this information
# //  is prohibited from disclosure under the Trade Secrets Act,
# //  18 U.S.C. Section 1905.
# //
# Loading sv_std.std
# Loading work.uart_if(fast)
# Loading work.ahb_if(fast)
# Loading work.uvm_pkg(fast)
# Loading work.ahb_pkg(fast)
# ** Note: (vsim-8785) UVM-aware debugging capabilities will be disabled since no compiled "questa_uvm_pkg" can be found.
# This also means that later if you turn on UVM-aware debugging your debug simulations may have
# different random seeds from your non-debug simulations.
# Loading work.uart_pkg(fast)
# Loading work.seq_pkg(fast)
# Loading work.uart_register_pkg(fast)
# Loading work.uart_regmodel_pkg(fast)
# Loading work.env_pkg(fast)
# Loading work.test_pkg(fast)
# Loading work.testbench(fast)
# Loading work.ahb_if(fast)
# Loading work.uart_if(fast)
# Loading work.uart_top(fast)
# Loading work.cmsdk_ahb_to_apb(fast)
# Loading work.apb_decoder(fast)
# Loading work.uart_fifo(fast)
# Loading work.uart_transmitter(fast)
# Loading work.uart_receiver(fast)
# Loading work.uart_interrupt(fast)
# Loading work.baud_generator(fast)
# Compiling /tmp/vannghia_1108@ictc-eda-ldap.ipa.test_dpi_22808/linux_x86_64_gcc-5.3.0/exportwrapper.c
# Compiling /tmp/vannghia_1108@ictc-eda-ldap.ipa.test_dpi_22808/linux_x86_64_gcc-11/exportwrapper.c
# Loading /tmp/vannghia_1108@ictc-eda-ldap.ipa.test_dpi_22808/linux_x86_64_gcc-11/vsim_auto_compile.so
#  log -r /*
# run -all
# UVM_INFO /ictc/other/tools/QuestaDVA/questasim/verilog_src/uvm-1.2/src/base/uvm_root.svh(392) @ 0: reporter [UVM/RELNOTES] 
# ----------------------------------------------------------------
# UVM-1.2
# (C) 2007-2014 Mentor Graphics Corporation
# (C) 2007-2014 Cadence Design Systems, Inc.
# (C) 2006-2014 Synopsys, Inc.
# (C) 2011-2013 Cypress Semiconductor Corp.
# (C) 2013-2014 NVIDIA Corporation
# ----------------------------------------------------------------
# 
#   ***********       IMPORTANT RELEASE NOTES         ************
# 
#   You are using a version of the UVM library that has been compiled
#   with `UVM_NO_DEPRECATED undefined.
#   See http://www.eda.org/svdb/view.php?id=3313 for more details.
# 
#   You are using a version of the UVM library that has been compiled
#   with `UVM_OBJECT_DO_NOT_NEED_CONSTRUCTOR undefined.
#   See http://www.eda.org/svdb/view.php?id=3770 for more details.
# 
#       (Specify +UVM_NO_RELNOTES to turn off this notice)
# 
# UVM_INFO /ictc/other/tools/QuestaDVA/questasim/verilog_src/uvm-1.2/src/base/uvm_root.svh(453) @ 0: reporter [NO_DPI_TSTNAME] UVM_NO_DPI defined--getting UVM_TESTNAME directly, without DPI
# UVM_INFO @ 0: reporter [RNTST] Running test full_tx_fifo_test...
# UVM_INFO ./../testcases/uart_base_test.sv(19) @ 0: uvm_test_top [build_phase] Entered...
# UVM_INFO ./../testcases/uart_base_test.sv(34) @ 0: uvm_test_top [build_phase] Exiting...
# UVM_INFO ./../tb/uart_environment.sv(21) @ 0: uvm_test_top.env [build phase] Entered...
# UVM_INFO ./../tb/uart_environment.sv(45) @ 0: uvm_test_top.env [build_phase] Exiting...
# UVM_INFO ./../vip/ahb_vip/ahb_agent.sv(16) @ 0: uvm_test_top.env.ahb_agt [build_phase] Entered...
# UVM_INFO ./../vip/ahb_vip/ahb_agent.sv(21) @ 0: uvm_test_top.env.ahb_agt [ahb_agent] Active agent is configued
# UVM_INFO ./../vip/ahb_vip/ahb_agent.sv(31) @ 0: uvm_test_top.env.ahb_agt [build_phase] Exiting...
# UVM_INFO ./../vip/ahb_vip/ahb_driver.sv(12) @ 0: uvm_test_top.env.ahb_agt.drv [build_phase] Entered...
# UVM_INFO ./../vip/ahb_vip/ahb_driver.sv(17) @ 0: uvm_test_top.env.ahb_agt.drv [build_phase] Exiting...
# UVM_INFO ./../vip/ahb_vip/ahb_monitor.sv(16) @ 0: uvm_test_top.env.ahb_agt.mnt [build_phase] Entered...
# UVM_INFO ./../vip/ahb_vip/ahb_monitor.sv(21) @ 0: uvm_test_top.env.ahb_agt.mnt [build_phase] Exiting...
# UVM_INFO ./../tb/uart_scoreboard.sv(46) @ 0: uvm_test_top.env.scb [build_phase] Entered...
# UVM_INFO ./../tb/uart_scoreboard.sv(53) @ 0: uvm_test_top.env.scb [build_phase] Exiting...
# UVM_INFO ./../vip/uart_vip/uart_agent.sv(17) @ 0: uvm_test_top.env.uart_agt [build_phase] Entered...
# UVM_INFO ./../vip/uart_vip/uart_agent.sv(28) @ 0: uvm_test_top.env.uart_agt [uart_agent] Active agent is configured
# UVM_INFO ./../vip/uart_vip/uart_agent.sv(43) @ 0: uvm_test_top.env.uart_agt [build_phase] Exiting...
# UVM_INFO ./../vip/uart_vip/uart_driver.sv(19) @ 0: uvm_test_top.env.uart_agt.drv [build_phase] Entered...
# UVM_INFO ./../vip/uart_vip/uart_driver.sv(30) @ 0: uvm_test_top.env.uart_agt.drv [build_phase] Exiting...
# UVM_INFO ./../vip/uart_vip/uart_monitor.sv(20) @ 0: uvm_test_top.env.uart_agt.mnt [build_phase] Entered...
# UVM_INFO ./../vip/uart_vip/uart_monitor.sv(31) @ 0: uvm_test_top.env.uart_agt.mnt [build_phase] Exiting...
# UVM_INFO /ictc/other/tools/QuestaDVA/questasim/verilog_src/uvm-1.2/src/base/uvm_root.svh(579) @ 0: reporter [UVMTOP] UVM testbench topology:
# --------------------------------------------------------------------------------
# Name                           Type                                  Size  Value
# --------------------------------------------------------------------------------
# uvm_test_top                   full_tx_fifo_test                     -     @347 
#   env                          uart_environment                      -     @364 
#     ahb_agt                    ahb_agent                             -     @399 
#       drv                      ahb_driver                            -     @511 
#         rsp_port               uvm_analysis_port                     -     @530 
#         seq_item_port          uvm_seq_item_pull_port                -     @520 
#       mnt                      ahb_monitor                           -     @677 
#         ahb_observed_port      uvm_analysis_port                     -     @686 
#       seq                      ahb_sequencer                         -     @540 
#         rsp_export             uvm_analysis_export                   -     @549 
#         seq_item_export        uvm_seq_item_pull_imp                 -     @667 
#         arbitration_queue      array                                 0     -    
#         lock_queue             array                                 0     -    
#         num_last_reqs          integral                              32    'd1  
#         num_last_rsps          integral                              32    'd1  
#     ahb_predictor              uvm_reg_predictor #(ahb_transaction)  -     @417 
#       bus_in                   uvm_analysis_imp                      -     @426 
#       reg_ap                   uvm_analysis_port                     -     @436 
#     scb                        uart_scoreboard                       -     @408 
#       ahb_export               uvm_analysis_imp_ahb                  -     @738 
#       uart_rx_export           uvm_analysis_imp_rx                   -     @728 
#       uart_tx_export           uvm_analysis_imp_tx                   -     @718 
#     uart_agt                   uart_agent                            -     @390 
#       drv                      uart_driver                           -     @896 
#         item_observed_port     uvm_analysis_port                     -     @925 
#         rsp_port               uvm_analysis_port                     -     @915 
#         seq_item_port          uvm_seq_item_pull_port                -     @905 
#       mnt                      uart_monitor                          -     @935 
#         uart_observed_port_rx  uvm_analysis_port                     -     @954 
#         uart_observed_port_tx  uvm_analysis_port                     -     @944 
#       seq                      uart_sequencer                        -     @759 
#         rsp_export             uvm_analysis_export                   -     @768 
#         seq_item_export        uvm_seq_item_pull_imp                 -     @886 
#         arbitration_queue      array                                 0     -    
#         lock_queue             array                                 0     -    
#         num_last_reqs          integral                              32    'd1  
#         num_last_rsps          integral                              32    'd1  
# --------------------------------------------------------------------------------
# 
# UVM_INFO /ictc/other/tools/QuestaDVA/questasim/verilog_src/uvm-1.2/src/base/uvm_traversal.svh(279) @ 0: reporter [UVM/COMP/NAMECHECK] This implementation of the component name checks requires DPI to be enabled
# UVM_INFO ./../vip/uart_vip/uart_monitor.sv(35) @ 0: uvm_test_top.env.uart_agt.mnt [run_phase] Entered...
# UVM_INFO ./../vip/uart_vip/uart_driver.sv(34) @ 0: uvm_test_top.env.uart_agt.drv [run_phase] Entered...
# UVM_INFO ./../vip/ahb_vip/ahb_monitor.sv(25) @ 0: uvm_test_top.env.ahb_agt.mnt [run_phase] Entered...
# UVM_INFO ./../vip/ahb_vip/ahb_driver.sv(22) @ 0: uvm_test_top.env.ahb_agt.drv [run_phase] Entered...
# ============================================================================================================================
# =================================================  ### FULL TX FIFO  ###  ==================================================
# ============================================================================================================================
# UVM_INFO ./../testcases/full_tx_fifo_test.sv(32) @ 10000: uvm_test_top [run_phase] Configuration randomize is: 
# -------------------------------------------------------
# Name               Type                 Size  Value    
# -------------------------------------------------------
# cfg                uart_configuration   -     @373     
#   parity_mode      parity_mode_config   2     EVEN     
#   data_width       integral             32    'd7      
#   num_of_stop_bit  integral             32    'd2      
#   baud_rate        integral             32    'd1634790
#   ovsmpl           ovs_config           1     X13      
#   parity_error     parity_error_config  1     NORMAL   
#   uart_mode        mode_config          1     RX       
# -------------------------------------------------------
# 
# UVM_INFO ./../regmodel/uart_reg2ahb_adapter.sv(27) @ 10000: reporter [uart_reg2ahb_adapter] reg2bus: addr = 0x0, data = 0x1, kind = WRITE
# UVM_INFO ./../vip/ahb_vip/ahb_driver.sv(65) @ 10000: uvm_test_top.env.ahb_agt.drv [ahb_driver] WRITE! addr = 0, data = 1
# UVM_INFO ./../vip/ahb_vip/ahb_monitor.sv(45) @ 10000: uvm_test_top.env.ahb_agt.mnt [ahb_monitor] Observed transaction: 
# ----------------------------------------------
# Name          Type             Size  Value    
# ----------------------------------------------
# trans         ahb_transaction  -     @1026    
#   xact_type   xact_type_enum   1     WRITE    
#   xfer_size   xfer_size_enum   3     SIZE_8BIT
#   burst_type  burst_type_enum  3     SINGLE   
#   addr        integral         10    'h0      
#   data        integral         32    'h1      
#   prot        integral         4     'h0      
#   lock        integral         1     'h0      
# ----------------------------------------------
# 
# UVM_INFO ./../regmodel/uart_reg2ahb_adapter.sv(42) @ 10000: reporter [uart_reg2ahb_adapter] bus2reg: addr = 0x0, data = 0x1, kind = UVM_WRITE, status = UVM_IS_OK
# UVM_INFO /ictc/other/tools/QuestaDVA/questasim/verilog_src/uvm-1.2/src/reg/uvm_reg_predictor.svh(221) @ 10000: uvm_test_top.env.ahb_predictor [REG_PREDICT] Observed WRITE transaction to register regmodel.MDR: value='h1 : updated value = 'h1
# UVM_INFO ./../regmodel/uart_reg2ahb_adapter.sv(42) @ 10000: reporter [uart_reg2ahb_adapter] bus2reg: addr = 0x0, data = 0x1, kind = UVM_WRITE, status = UVM_IS_OK
# UVM_INFO @ 10000: reporter [RegModel] Wrote register via map regmodel.ahb_map: regmodel.MDR=0x1
# UVM_INFO ./../regmodel/uart_reg2ahb_adapter.sv(27) @ 10000: reporter [uart_reg2ahb_adapter] reg2bus: addr = 0xc, data = 0x0, kind = WRITE
# UVM_INFO ./../vip/ahb_vip/ahb_driver.sv(65) @ 10000: uvm_test_top.env.ahb_agt.drv [ahb_driver] WRITE! addr = c, data = 0
# UVM_INFO ./../vip/ahb_vip/ahb_monitor.sv(45) @ 10000: uvm_test_top.env.ahb_agt.mnt [ahb_monitor] Observed transaction: 
# ----------------------------------------------
# Name          Type             Size  Value    
# ----------------------------------------------
# trans         ahb_transaction  -     @1113    
#   xact_type   xact_type_enum   1     WRITE    
#   xfer_size   xfer_size_enum   3     SIZE_8BIT
#   burst_type  burst_type_enum  3     SINGLE   
#   addr        integral         10    'hc      
#   data        integral         32    'h0      
#   prot        integral         4     'h0      
#   lock        integral         1     'h0      
# ----------------------------------------------
# 
# UVM_INFO ./../regmodel/uart_reg2ahb_adapter.sv(42) @ 10000: reporter [uart_reg2ahb_adapter] bus2reg: addr = 0xc, data = 0x0, kind = UVM_WRITE, status = UVM_IS_OK
# UVM_INFO /ictc/other/tools/QuestaDVA/questasim/verilog_src/uvm-1.2/src/reg/uvm_reg_predictor.svh(221) @ 10000: uvm_test_top.env.ahb_predictor [REG_PREDICT] Observed WRITE transaction to register regmodel.LCR: value='h0 : updated value = 'h0
# UVM_INFO ./../regmodel/uart_reg2ahb_adapter.sv(42) @ 10000: reporter [uart_reg2ahb_adapter] bus2reg: addr = 0xc, data = 0x0, kind = UVM_WRITE, status = UVM_IS_OK
# UVM_INFO @ 10000: reporter [RegModel] Wrote register via map regmodel.ahb_map: regmodel.LCR=0x0
# UVM_INFO ./../regmodel/uart_reg2ahb_adapter.sv(27) @ 10000: reporter [uart_reg2ahb_adapter] reg2bus: addr = 0x4, data = 0x4, kind = WRITE
# UVM_INFO ./../vip/ahb_vip/ahb_driver.sv(65) @ 10000: uvm_test_top.env.ahb_agt.drv [ahb_driver] WRITE! addr = 4, data = 4
# UVM_INFO ./../vip/ahb_vip/ahb_monitor.sv(45) @ 10000: uvm_test_top.env.ahb_agt.mnt [ahb_monitor] Observed transaction: 
# ----------------------------------------------
# Name          Type             Size  Value    
# ----------------------------------------------
# trans         ahb_transaction  -     @1153    
#   xact_type   xact_type_enum   1     WRITE    
#   xfer_size   xfer_size_enum   3     SIZE_8BIT
#   burst_type  burst_type_enum  3     SINGLE   
#   addr        integral         10    'h4      
#   data        integral         32    'h4      
#   prot        integral         4     'h0      
#   lock        integral         1     'h0      
# ----------------------------------------------
# 
# UVM_INFO ./../regmodel/uart_reg2ahb_adapter.sv(42) @ 10000: reporter [uart_reg2ahb_adapter] bus2reg: addr = 0x4, data = 0x4, kind = UVM_WRITE, status = UVM_IS_OK
# UVM_INFO /ictc/other/tools/QuestaDVA/questasim/verilog_src/uvm-1.2/src/reg/uvm_reg_predictor.svh(221) @ 10000: uvm_test_top.env.ahb_predictor [REG_PREDICT] Observed WRITE transaction to register regmodel.DLL: value='h4 : updated value = 'h4
# UVM_INFO ./../regmodel/uart_reg2ahb_adapter.sv(42) @ 10000: reporter [uart_reg2ahb_adapter] bus2reg: addr = 0x4, data = 0x4, kind = UVM_WRITE, status = UVM_IS_OK
# UVM_INFO @ 10000: reporter [RegModel] Wrote register via map regmodel.ahb_map: regmodel.DLL=0x4
# UVM_INFO ./../regmodel/uart_reg2ahb_adapter.sv(27) @ 10000: reporter [uart_reg2ahb_adapter] reg2bus: addr = 0x8, data = 0x0, kind = WRITE
# UVM_INFO ./../vip/ahb_vip/ahb_driver.sv(65) @ 10000: uvm_test_top.env.ahb_agt.drv [ahb_driver] WRITE! addr = 8, data = 0
# UVM_INFO ./../vip/ahb_vip/ahb_monitor.sv(45) @ 10000: uvm_test_top.env.ahb_agt.mnt [ahb_monitor] Observed transaction: 
# ----------------------------------------------
# Name          Type             Size  Value    
# ----------------------------------------------
# trans         ahb_transaction  -     @1193    
#   xact_type   xact_type_enum   1     WRITE    
#   xfer_size   xfer_size_enum   3     SIZE_8BIT
#   burst_type  burst_type_enum  3     SINGLE   
#   addr        integral         10    'h8      
#   data        integral         32    'h0      
#   prot        integral         4     'h0      
#   lock        integral         1     'h0      
# ----------------------------------------------
# 
# UVM_INFO ./../regmodel/uart_reg2ahb_adapter.sv(42) @ 10000: reporter [uart_reg2ahb_adapter] bus2reg: addr = 0x8, data = 0x0, kind = UVM_WRITE, status = UVM_IS_OK
# UVM_INFO /ictc/other/tools/QuestaDVA/questasim/verilog_src/uvm-1.2/src/reg/uvm_reg_predictor.svh(221) @ 10000: uvm_test_top.env.ahb_predictor [REG_PREDICT] Observed WRITE transaction to register regmodel.DLH: value='h0 : updated value = 'h0
# UVM_INFO ./../regmodel/uart_reg2ahb_adapter.sv(42) @ 10000: reporter [uart_reg2ahb_adapter] bus2reg: addr = 0x8, data = 0x0, kind = UVM_WRITE, status = UVM_IS_OK
# UVM_INFO @ 10000: reporter [RegModel] Wrote register via map regmodel.ahb_map: regmodel.DLH=0x0
# UVM_INFO ./../regmodel/uart_reg2ahb_adapter.sv(27) @ 10000: reporter [uart_reg2ahb_adapter] reg2bus: addr = 0xc, data = 0x3e, kind = WRITE
# UVM_INFO ./../vip/ahb_vip/ahb_driver.sv(65) @ 10000: uvm_test_top.env.ahb_agt.drv [ahb_driver] WRITE! addr = c, data = 3e
# UVM_INFO ./../vip/ahb_vip/ahb_monitor.sv(45) @ 10000: uvm_test_top.env.ahb_agt.mnt [ahb_monitor] Observed transaction: 
# ----------------------------------------------
# Name          Type             Size  Value    
# ----------------------------------------------
# trans         ahb_transaction  -     @1233    
#   xact_type   xact_type_enum   1     WRITE    
#   xfer_size   xfer_size_enum   3     SIZE_8BIT
#   burst_type  burst_type_enum  3     SINGLE   
#   addr        integral         10    'hc      
#   data        integral         32    'h3e     
#   prot        integral         4     'h0      
#   lock        integral         1     'h0      
# ----------------------------------------------
# 
# UVM_INFO ./../regmodel/uart_reg2ahb_adapter.sv(42) @ 10000: reporter [uart_reg2ahb_adapter] bus2reg: addr = 0xc, data = 0x3e, kind = UVM_WRITE, status = UVM_IS_OK
# UVM_INFO /ictc/other/tools/QuestaDVA/questasim/verilog_src/uvm-1.2/src/reg/uvm_reg_predictor.svh(221) @ 10000: uvm_test_top.env.ahb_predictor [REG_PREDICT] Observed WRITE transaction to register regmodel.LCR: value='h3e : updated value = 'h3e
# UVM_INFO ./../regmodel/uart_reg2ahb_adapter.sv(42) @ 10000: reporter [uart_reg2ahb_adapter] bus2reg: addr = 0xc, data = 0x3e, kind = UVM_WRITE, status = UVM_IS_OK
# UVM_INFO @ 10000: reporter [RegModel] Wrote register via map regmodel.ahb_map: regmodel.LCR=0x3e
# UVM_INFO ./../regmodel/uart_reg2ahb_adapter.sv(27) @ 10000: reporter [uart_reg2ahb_adapter] reg2bus: addr = 0x14, data = 0x0, kind = READ
# UVM_INFO ./../vip/ahb_vip/ahb_driver.sv(63) @ 10000: uvm_test_top.env.ahb_agt.drv [ahb_driver] READ! addr = 14, data = 0
# UVM_INFO ./../vip/ahb_vip/ahb_monitor.sv(45) @ 10000: uvm_test_top.env.ahb_agt.mnt [ahb_monitor] Observed transaction: 
# ----------------------------------------------
# Name          Type             Size  Value    
# ----------------------------------------------
# trans         ahb_transaction  -     @1273    
#   xact_type   xact_type_enum   1     READ     
#   xfer_size   xfer_size_enum   3     SIZE_8BIT
#   burst_type  burst_type_enum  3     SINGLE   
#   addr        integral         10    'h14     
#   data        integral         32    'ha      
#   prot        integral         4     'h0      
#   lock        integral         1     'h0      
# ----------------------------------------------
# 
# UVM_INFO ./../regmodel/uart_reg2ahb_adapter.sv(42) @ 10000: reporter [uart_reg2ahb_adapter] bus2reg: addr = 0x14, data = 0xa, kind = UVM_READ, status = UVM_IS_OK
# UVM_INFO /ictc/other/tools/QuestaDVA/questasim/verilog_src/uvm-1.2/src/reg/uvm_reg_predictor.svh(225) @ 10000: uvm_test_top.env.ahb_predictor [REG_PREDICT] Observed READ transaction to register regmodel.FSR: value='ha
# UVM_INFO ./../tb/uart_scoreboard.sv(148) @ 10000: uvm_test_top.env.scb [full_tx_fifo_compare] FULL TX FIFO COMPARATIVE
# ============================================================================================================================
# UVM_INFO ./../tb/uart_scoreboard.sv(155) @ 10000: uvm_test_top.env.scb [uart_scoreboard] PASSED! Parity error status is correct. Exp: 0, Act: 0
# ============================================================================================================================
# UVM_INFO ./../regmodel/uart_reg2ahb_adapter.sv(42) @ 10000: reporter [uart_reg2ahb_adapter] bus2reg: addr = 0x14, data = 0xa, kind = UVM_READ, status = UVM_IS_OK
# UVM_INFO @ 10000: reporter [RegModel] Read  register via map regmodel.ahb_map: regmodel.FSR=a
# UVM_INFO ./../regmodel/uart_reg2ahb_adapter.sv(27) @ 1010000: reporter [uart_reg2ahb_adapter] reg2bus: addr = 0x18, data = 0x25, kind = WRITE
# UVM_INFO ./../vip/ahb_vip/ahb_driver.sv(65) @ 1010000: uvm_test_top.env.ahb_agt.drv [ahb_driver] WRITE! addr = 18, data = 25
# UVM_INFO ./../vip/ahb_vip/ahb_monitor.sv(45) @ 1010000: uvm_test_top.env.ahb_agt.mnt [ahb_monitor] Observed transaction: 
# ----------------------------------------------
# Name          Type             Size  Value    
# ----------------------------------------------
# trans         ahb_transaction  -     @1317    
#   xact_type   xact_type_enum   1     WRITE    
#   xfer_size   xfer_size_enum   3     SIZE_8BIT
#   burst_type  burst_type_enum  3     SINGLE   
#   addr        integral         10    'h18     
#   data        integral         32    'h25     
#   prot        integral         4     'h0      
#   lock        integral         1     'h0      
# ----------------------------------------------
# 
# UVM_INFO ./../regmodel/uart_reg2ahb_adapter.sv(42) @ 1010000: reporter [uart_reg2ahb_adapter] bus2reg: addr = 0x18, data = 0x25, kind = UVM_WRITE, status = UVM_IS_OK
# UVM_INFO /ictc/other/tools/QuestaDVA/questasim/verilog_src/uvm-1.2/src/reg/uvm_reg_predictor.svh(221) @ 1010000: uvm_test_top.env.ahb_predictor [REG_PREDICT] Observed WRITE transaction to register regmodel.TBR: value='h25 : updated value = 'h25
# UVM_INFO ./../tb/uart_scoreboard.sv(80) @ 1010000: uvm_test_top.env.scb [write_rx] Add AHB's drive trans into queue
# UVM_INFO ./../regmodel/uart_reg2ahb_adapter.sv(42) @ 1010000: reporter [uart_reg2ahb_adapter] bus2reg: addr = 0x18, data = 0x25, kind = UVM_WRITE, status = UVM_IS_OK
# UVM_INFO @ 1010000: reporter [RegModel] Wrote register via map regmodel.ahb_map: regmodel.TBR=0x25
# UVM_INFO ./../regmodel/uart_reg2ahb_adapter.sv(27) @ 1010000: reporter [uart_reg2ahb_adapter] reg2bus: addr = 0x14, data = 0x0, kind = READ
# UVM_INFO ./../vip/ahb_vip/ahb_driver.sv(63) @ 1010000: uvm_test_top.env.ahb_agt.drv [ahb_driver] READ! addr = 14, data = 0
# UVM_INFO ./../vip/ahb_vip/ahb_monitor.sv(45) @ 1010000: uvm_test_top.env.ahb_agt.mnt [ahb_monitor] Observed transaction: 
# ----------------------------------------------
# Name          Type             Size  Value    
# ----------------------------------------------
# trans         ahb_transaction  -     @1359    
#   xact_type   xact_type_enum   1     READ     
#   xfer_size   xfer_size_enum   3     SIZE_8BIT
#   burst_type  burst_type_enum  3     SINGLE   
#   addr        integral         10    'h14     
#   data        integral         32    'ha      
#   prot        integral         4     'h0      
#   lock        integral         1     'h0      
# ----------------------------------------------
# 
# UVM_INFO ./../regmodel/uart_reg2ahb_adapter.sv(42) @ 1010000: reporter [uart_reg2ahb_adapter] bus2reg: addr = 0x14, data = 0xa, kind = UVM_READ, status = UVM_IS_OK
# UVM_INFO /ictc/other/tools/QuestaDVA/questasim/verilog_src/uvm-1.2/src/reg/uvm_reg_predictor.svh(225) @ 1010000: uvm_test_top.env.ahb_predictor [REG_PREDICT] Observed READ transaction to register regmodel.FSR: value='ha
# UVM_INFO ./../tb/uart_scoreboard.sv(148) @ 1010000: uvm_test_top.env.scb [full_tx_fifo_compare] FULL TX FIFO COMPARATIVE
# ============================================================================================================================
# UVM_INFO ./../tb/uart_scoreboard.sv(155) @ 1010000: uvm_test_top.env.scb [uart_scoreboard] PASSED! Parity error status is correct. Exp: 0, Act: 0
# ============================================================================================================================
# UVM_INFO ./../regmodel/uart_reg2ahb_adapter.sv(42) @ 1010000: reporter [uart_reg2ahb_adapter] bus2reg: addr = 0x14, data = 0xa, kind = UVM_READ, status = UVM_IS_OK
# UVM_INFO @ 1010000: reporter [RegModel] Read  register via map regmodel.ahb_map: regmodel.FSR=a
# UVM_INFO ./../testcases/full_tx_fifo_test.sv(135) @ 1010000: uvm_test_top [full_tx_fifo_test] i = 1
# UVM_INFO ./../regmodel/uart_reg2ahb_adapter.sv(27) @ 1010000: reporter [uart_reg2ahb_adapter] reg2bus: addr = 0x18, data = 0x62, kind = WRITE
# UVM_INFO ./../vip/ahb_vip/ahb_driver.sv(65) @ 1010000: uvm_test_top.env.ahb_agt.drv [ahb_driver] WRITE! addr = 18, data = 62
# UVM_INFO ./../vip/ahb_vip/ahb_monitor.sv(45) @ 1010000: uvm_test_top.env.ahb_agt.mnt [ahb_monitor] Observed transaction: 
# ----------------------------------------------
# Name          Type             Size  Value    
# ----------------------------------------------
# trans         ahb_transaction  -     @1403    
#   xact_type   xact_type_enum   1     WRITE    
#   xfer_size   xfer_size_enum   3     SIZE_8BIT
#   burst_type  burst_type_enum  3     SINGLE   
#   addr        integral         10    'h18     
#   data        integral         32    'h62     
#   prot        integral         4     'h0      
#   lock        integral         1     'h0      
# ----------------------------------------------
# 
# UVM_INFO ./../regmodel/uart_reg2ahb_adapter.sv(42) @ 1010000: reporter [uart_reg2ahb_adapter] bus2reg: addr = 0x18, data = 0x62, kind = UVM_WRITE, status = UVM_IS_OK
# UVM_INFO /ictc/other/tools/QuestaDVA/questasim/verilog_src/uvm-1.2/src/reg/uvm_reg_predictor.svh(221) @ 1010000: uvm_test_top.env.ahb_predictor [REG_PREDICT] Observed WRITE transaction to register regmodel.TBR: value='h62 : updated value = 'h62
# UVM_INFO ./../tb/uart_scoreboard.sv(80) @ 1010000: uvm_test_top.env.scb [write_rx] Add AHB's drive trans into queue
# UVM_INFO ./../regmodel/uart_reg2ahb_adapter.sv(42) @ 1010000: reporter [uart_reg2ahb_adapter] bus2reg: addr = 0x18, data = 0x62, kind = UVM_WRITE, status = UVM_IS_OK
# UVM_INFO @ 1010000: reporter [RegModel] Wrote register via map regmodel.ahb_map: regmodel.TBR=0x62
# UVM_INFO ./../regmodel/uart_reg2ahb_adapter.sv(27) @ 1010000: reporter [uart_reg2ahb_adapter] reg2bus: addr = 0x14, data = 0x0, kind = READ
# UVM_INFO ./../vip/ahb_vip/ahb_driver.sv(63) @ 1011000: uvm_test_top.env.ahb_agt.drv [ahb_driver] READ! addr = 14, data = 0
# UVM_INFO ./../vip/ahb_vip/ahb_monitor.sv(45) @ 1011000: uvm_test_top.env.ahb_agt.mnt [ahb_monitor] Observed transaction: 
# ----------------------------------------------
# Name          Type             Size  Value    
# ----------------------------------------------
# trans         ahb_transaction  -     @1447    
#   xact_type   xact_type_enum   1     READ     
#   xfer_size   xfer_size_enum   3     SIZE_8BIT
#   burst_type  burst_type_enum  3     SINGLE   
#   addr        integral         10    'h14     
#   data        integral         32    'h8      
#   prot        integral         4     'h0      
#   lock        integral         1     'h0      
# ----------------------------------------------
# 
# UVM_INFO ./../regmodel/uart_reg2ahb_adapter.sv(42) @ 1011000: reporter [uart_reg2ahb_adapter] bus2reg: addr = 0x14, data = 0x8, kind = UVM_READ, status = UVM_IS_OK
# UVM_INFO /ictc/other/tools/QuestaDVA/questasim/verilog_src/uvm-1.2/src/reg/uvm_reg_predictor.svh(225) @ 1011000: uvm_test_top.env.ahb_predictor [REG_PREDICT] Observed READ transaction to register regmodel.FSR: value='h8
# UVM_INFO ./../tb/uart_scoreboard.sv(148) @ 1011000: uvm_test_top.env.scb [full_tx_fifo_compare] FULL TX FIFO COMPARATIVE
# ============================================================================================================================
# UVM_INFO ./../tb/uart_scoreboard.sv(155) @ 1011000: uvm_test_top.env.scb [uart_scoreboard] PASSED! Parity error status is correct. Exp: 0, Act: 0
# ============================================================================================================================
# UVM_INFO ./../regmodel/uart_reg2ahb_adapter.sv(42) @ 1011000: reporter [uart_reg2ahb_adapter] bus2reg: addr = 0x14, data = 0x8, kind = UVM_READ, status = UVM_IS_OK
# UVM_INFO @ 1011000: reporter [RegModel] Read  register via map regmodel.ahb_map: regmodel.FSR=8
# UVM_INFO ./../testcases/full_tx_fifo_test.sv(135) @ 1011000: uvm_test_top [full_tx_fifo_test] i = 2
# UVM_INFO ./../regmodel/uart_reg2ahb_adapter.sv(27) @ 1011000: reporter [uart_reg2ahb_adapter] reg2bus: addr = 0x18, data = 0x1a, kind = WRITE
# UVM_INFO ./../vip/ahb_vip/ahb_driver.sv(65) @ 1011000: uvm_test_top.env.ahb_agt.drv [ahb_driver] WRITE! addr = 18, data = 1a
# UVM_INFO ./../vip/ahb_vip/ahb_monitor.sv(45) @ 1011000: uvm_test_top.env.ahb_agt.mnt [ahb_monitor] Observed transaction: 
# ----------------------------------------------
# Name          Type             Size  Value    
# ----------------------------------------------
# trans         ahb_transaction  -     @1491    
#   xact_type   xact_type_enum   1     WRITE    
#   xfer_size   xfer_size_enum   3     SIZE_8BIT
#   burst_type  burst_type_enum  3     SINGLE   
#   addr        integral         10    'h18     
#   data        integral         32    'h1a     
#   prot        integral         4     'h0      
#   lock        integral         1     'h0      
# ----------------------------------------------
# 
# UVM_INFO ./../regmodel/uart_reg2ahb_adapter.sv(42) @ 1011000: reporter [uart_reg2ahb_adapter] bus2reg: addr = 0x18, data = 0x1a, kind = UVM_WRITE, status = UVM_IS_OK
# UVM_INFO /ictc/other/tools/QuestaDVA/questasim/verilog_src/uvm-1.2/src/reg/uvm_reg_predictor.svh(221) @ 1011000: uvm_test_top.env.ahb_predictor [REG_PREDICT] Observed WRITE transaction to register regmodel.TBR: value='h1a : updated value = 'h1a
# UVM_INFO ./../tb/uart_scoreboard.sv(80) @ 1011000: uvm_test_top.env.scb [write_rx] Add AHB's drive trans into queue
# UVM_INFO ./../regmodel/uart_reg2ahb_adapter.sv(42) @ 1011000: reporter [uart_reg2ahb_adapter] bus2reg: addr = 0x18, data = 0x1a, kind = UVM_WRITE, status = UVM_IS_OK
# UVM_INFO @ 1011000: reporter [RegModel] Wrote register via map regmodel.ahb_map: regmodel.TBR=0x1a
# UVM_INFO ./../regmodel/uart_reg2ahb_adapter.sv(27) @ 1011000: reporter [uart_reg2ahb_adapter] reg2bus: addr = 0x14, data = 0x0, kind = READ
# UVM_INFO ./../vip/ahb_vip/ahb_driver.sv(63) @ 1011000: uvm_test_top.env.ahb_agt.drv [ahb_driver] READ! addr = 14, data = 0
# UVM_INFO ./../vip/ahb_vip/ahb_monitor.sv(45) @ 1011000: uvm_test_top.env.ahb_agt.mnt [ahb_monitor] Observed transaction: 
# ----------------------------------------------
# Name          Type             Size  Value    
# ----------------------------------------------
# trans         ahb_transaction  -     @1535    
#   xact_type   xact_type_enum   1     READ     
#   xfer_size   xfer_size_enum   3     SIZE_8BIT
#   burst_type  burst_type_enum  3     SINGLE   
#   addr        integral         10    'h14     
#   data        integral         32    'h8      
#   prot        integral         4     'h0      
#   lock        integral         1     'h0      
# ----------------------------------------------
# 
# UVM_INFO ./../regmodel/uart_reg2ahb_adapter.sv(42) @ 1011000: reporter [uart_reg2ahb_adapter] bus2reg: addr = 0x14, data = 0x8, kind = UVM_READ, status = UVM_IS_OK
# UVM_INFO /ictc/other/tools/QuestaDVA/questasim/verilog_src/uvm-1.2/src/reg/uvm_reg_predictor.svh(225) @ 1011000: uvm_test_top.env.ahb_predictor [REG_PREDICT] Observed READ transaction to register regmodel.FSR: value='h8
# UVM_INFO ./../tb/uart_scoreboard.sv(148) @ 1011000: uvm_test_top.env.scb [full_tx_fifo_compare] FULL TX FIFO COMPARATIVE
# ============================================================================================================================
# UVM_INFO ./../tb/uart_scoreboard.sv(155) @ 1011000: uvm_test_top.env.scb [uart_scoreboard] PASSED! Parity error status is correct. Exp: 0, Act: 0
# ============================================================================================================================
# UVM_INFO ./../regmodel/uart_reg2ahb_adapter.sv(42) @ 1011000: reporter [uart_reg2ahb_adapter] bus2reg: addr = 0x14, data = 0x8, kind = UVM_READ, status = UVM_IS_OK
# UVM_INFO @ 1011000: reporter [RegModel] Read  register via map regmodel.ahb_map: regmodel.FSR=8
# UVM_INFO ./../testcases/full_tx_fifo_test.sv(135) @ 1011000: uvm_test_top [full_tx_fifo_test] i = 3
# UVM_INFO ./../regmodel/uart_reg2ahb_adapter.sv(27) @ 1011000: reporter [uart_reg2ahb_adapter] reg2bus: addr = 0x18, data = 0x13, kind = WRITE
# UVM_INFO ./../vip/ahb_vip/ahb_driver.sv(65) @ 1011000: uvm_test_top.env.ahb_agt.drv [ahb_driver] WRITE! addr = 18, data = 13
# UVM_INFO ./../vip/ahb_vip/ahb_monitor.sv(45) @ 1011000: uvm_test_top.env.ahb_agt.mnt [ahb_monitor] Observed transaction: 
# ----------------------------------------------
# Name          Type             Size  Value    
# ----------------------------------------------
# trans         ahb_transaction  -     @1579    
#   xact_type   xact_type_enum   1     WRITE    
#   xfer_size   xfer_size_enum   3     SIZE_8BIT
#   burst_type  burst_type_enum  3     SINGLE   
#   addr        integral         10    'h18     
#   data        integral         32    'h13     
#   prot        integral         4     'h0      
#   lock        integral         1     'h0      
# ----------------------------------------------
# 
# UVM_INFO ./../regmodel/uart_reg2ahb_adapter.sv(42) @ 1011000: reporter [uart_reg2ahb_adapter] bus2reg: addr = 0x18, data = 0x13, kind = UVM_WRITE, status = UVM_IS_OK
# UVM_INFO /ictc/other/tools/QuestaDVA/questasim/verilog_src/uvm-1.2/src/reg/uvm_reg_predictor.svh(221) @ 1011000: uvm_test_top.env.ahb_predictor [REG_PREDICT] Observed WRITE transaction to register regmodel.TBR: value='h13 : updated value = 'h13
# UVM_INFO ./../tb/uart_scoreboard.sv(80) @ 1011000: uvm_test_top.env.scb [write_rx] Add AHB's drive trans into queue
# UVM_INFO ./../regmodel/uart_reg2ahb_adapter.sv(42) @ 1011000: reporter [uart_reg2ahb_adapter] bus2reg: addr = 0x18, data = 0x13, kind = UVM_WRITE, status = UVM_IS_OK
# UVM_INFO @ 1011000: reporter [RegModel] Wrote register via map regmodel.ahb_map: regmodel.TBR=0x13
# UVM_INFO ./../regmodel/uart_reg2ahb_adapter.sv(27) @ 1011000: reporter [uart_reg2ahb_adapter] reg2bus: addr = 0x14, data = 0x0, kind = READ
# UVM_INFO ./../vip/ahb_vip/ahb_driver.sv(63) @ 1011000: uvm_test_top.env.ahb_agt.drv [ahb_driver] READ! addr = 14, data = 0
# UVM_INFO ./../vip/ahb_vip/ahb_monitor.sv(45) @ 1011000: uvm_test_top.env.ahb_agt.mnt [ahb_monitor] Observed transaction: 
# ----------------------------------------------
# Name          Type             Size  Value    
# ----------------------------------------------
# trans         ahb_transaction  -     @1623    
#   xact_type   xact_type_enum   1     READ     
#   xfer_size   xfer_size_enum   3     SIZE_8BIT
#   burst_type  burst_type_enum  3     SINGLE   
#   addr        integral         10    'h14     
#   data        integral         32    'h8      
#   prot        integral         4     'h0      
#   lock        integral         1     'h0      
# ----------------------------------------------
# 
# UVM_INFO ./../regmodel/uart_reg2ahb_adapter.sv(42) @ 1011000: reporter [uart_reg2ahb_adapter] bus2reg: addr = 0x14, data = 0x8, kind = UVM_READ, status = UVM_IS_OK
# UVM_INFO /ictc/other/tools/QuestaDVA/questasim/verilog_src/uvm-1.2/src/reg/uvm_reg_predictor.svh(225) @ 1011000: uvm_test_top.env.ahb_predictor [REG_PREDICT] Observed READ transaction to register regmodel.FSR: value='h8
# UVM_INFO ./../tb/uart_scoreboard.sv(148) @ 1011000: uvm_test_top.env.scb [full_tx_fifo_compare] FULL TX FIFO COMPARATIVE
# ============================================================================================================================
# UVM_INFO ./../tb/uart_scoreboard.sv(155) @ 1011000: uvm_test_top.env.scb [uart_scoreboard] PASSED! Parity error status is correct. Exp: 0, Act: 0
# ============================================================================================================================
# UVM_INFO ./../regmodel/uart_reg2ahb_adapter.sv(42) @ 1011000: reporter [uart_reg2ahb_adapter] bus2reg: addr = 0x14, data = 0x8, kind = UVM_READ, status = UVM_IS_OK
# UVM_INFO @ 1011000: reporter [RegModel] Read  register via map regmodel.ahb_map: regmodel.FSR=8
# UVM_INFO ./../testcases/full_tx_fifo_test.sv(135) @ 1011000: uvm_test_top [full_tx_fifo_test] i = 4
# UVM_INFO ./../regmodel/uart_reg2ahb_adapter.sv(27) @ 1011000: reporter [uart_reg2ahb_adapter] reg2bus: addr = 0x18, data = 0x17, kind = WRITE
# UVM_INFO ./../vip/ahb_vip/ahb_driver.sv(65) @ 1011000: uvm_test_top.env.ahb_agt.drv [ahb_driver] WRITE! addr = 18, data = 17
# UVM_INFO ./../vip/ahb_vip/ahb_monitor.sv(45) @ 1011000: uvm_test_top.env.ahb_agt.mnt [ahb_monitor] Observed transaction: 
# ----------------------------------------------
# Name          Type             Size  Value    
# ----------------------------------------------
# trans         ahb_transaction  -     @1667    
#   xact_type   xact_type_enum   1     WRITE    
#   xfer_size   xfer_size_enum   3     SIZE_8BIT
#   burst_type  burst_type_enum  3     SINGLE   
#   addr        integral         10    'h18     
#   data        integral         32    'h17     
#   prot        integral         4     'h0      
#   lock        integral         1     'h0      
# ----------------------------------------------
# 
# UVM_INFO ./../regmodel/uart_reg2ahb_adapter.sv(42) @ 1011000: reporter [uart_reg2ahb_adapter] bus2reg: addr = 0x18, data = 0x17, kind = UVM_WRITE, status = UVM_IS_OK
# UVM_INFO /ictc/other/tools/QuestaDVA/questasim/verilog_src/uvm-1.2/src/reg/uvm_reg_predictor.svh(221) @ 1011000: uvm_test_top.env.ahb_predictor [REG_PREDICT] Observed WRITE transaction to register regmodel.TBR: value='h17 : updated value = 'h17
# UVM_INFO ./../tb/uart_scoreboard.sv(80) @ 1011000: uvm_test_top.env.scb [write_rx] Add AHB's drive trans into queue
# UVM_INFO ./../regmodel/uart_reg2ahb_adapter.sv(42) @ 1011000: reporter [uart_reg2ahb_adapter] bus2reg: addr = 0x18, data = 0x17, kind = UVM_WRITE, status = UVM_IS_OK
# UVM_INFO @ 1011000: reporter [RegModel] Wrote register via map regmodel.ahb_map: regmodel.TBR=0x17
# UVM_INFO ./../regmodel/uart_reg2ahb_adapter.sv(27) @ 1011000: reporter [uart_reg2ahb_adapter] reg2bus: addr = 0x14, data = 0x0, kind = READ
# UVM_INFO ./../vip/ahb_vip/ahb_driver.sv(63) @ 1011000: uvm_test_top.env.ahb_agt.drv [ahb_driver] READ! addr = 14, data = 0
# UVM_INFO ./../vip/ahb_vip/ahb_monitor.sv(45) @ 1011000: uvm_test_top.env.ahb_agt.mnt [ahb_monitor] Observed transaction: 
# ----------------------------------------------
# Name          Type             Size  Value    
# ----------------------------------------------
# trans         ahb_transaction  -     @1711    
#   xact_type   xact_type_enum   1     READ     
#   xfer_size   xfer_size_enum   3     SIZE_8BIT
#   burst_type  burst_type_enum  3     SINGLE   
#   addr        integral         10    'h14     
#   data        integral         32    'h8      
#   prot        integral         4     'h0      
#   lock        integral         1     'h0      
# ----------------------------------------------
# 
# UVM_INFO ./../regmodel/uart_reg2ahb_adapter.sv(42) @ 1011000: reporter [uart_reg2ahb_adapter] bus2reg: addr = 0x14, data = 0x8, kind = UVM_READ, status = UVM_IS_OK
# UVM_INFO /ictc/other/tools/QuestaDVA/questasim/verilog_src/uvm-1.2/src/reg/uvm_reg_predictor.svh(225) @ 1011000: uvm_test_top.env.ahb_predictor [REG_PREDICT] Observed READ transaction to register regmodel.FSR: value='h8
# UVM_INFO ./../tb/uart_scoreboard.sv(148) @ 1011000: uvm_test_top.env.scb [full_tx_fifo_compare] FULL TX FIFO COMPARATIVE
# ============================================================================================================================
# UVM_INFO ./../tb/uart_scoreboard.sv(155) @ 1011000: uvm_test_top.env.scb [uart_scoreboard] PASSED! Parity error status is correct. Exp: 0, Act: 0
# ============================================================================================================================
# UVM_INFO ./../regmodel/uart_reg2ahb_adapter.sv(42) @ 1011000: reporter [uart_reg2ahb_adapter] bus2reg: addr = 0x14, data = 0x8, kind = UVM_READ, status = UVM_IS_OK
# UVM_INFO @ 1011000: reporter [RegModel] Read  register via map regmodel.ahb_map: regmodel.FSR=8
# UVM_INFO ./../testcases/full_tx_fifo_test.sv(135) @ 1011000: uvm_test_top [full_tx_fifo_test] i = 5
# UVM_INFO ./../regmodel/uart_reg2ahb_adapter.sv(27) @ 1011000: reporter [uart_reg2ahb_adapter] reg2bus: addr = 0x18, data = 0x75, kind = WRITE
# UVM_INFO ./../vip/ahb_vip/ahb_driver.sv(65) @ 1011000: uvm_test_top.env.ahb_agt.drv [ahb_driver] WRITE! addr = 18, data = 75
# UVM_INFO ./../vip/ahb_vip/ahb_monitor.sv(45) @ 1011000: uvm_test_top.env.ahb_agt.mnt [ahb_monitor] Observed transaction: 
# ----------------------------------------------
# Name          Type             Size  Value    
# ----------------------------------------------
# trans         ahb_transaction  -     @1755    
#   xact_type   xact_type_enum   1     WRITE    
#   xfer_size   xfer_size_enum   3     SIZE_8BIT
#   burst_type  burst_type_enum  3     SINGLE   
#   addr        integral         10    'h18     
#   data        integral         32    'h75     
#   prot        integral         4     'h0      
#   lock        integral         1     'h0      
# ----------------------------------------------
# 
# UVM_INFO ./../regmodel/uart_reg2ahb_adapter.sv(42) @ 1011000: reporter [uart_reg2ahb_adapter] bus2reg: addr = 0x18, data = 0x75, kind = UVM_WRITE, status = UVM_IS_OK
# UVM_INFO /ictc/other/tools/QuestaDVA/questasim/verilog_src/uvm-1.2/src/reg/uvm_reg_predictor.svh(221) @ 1011000: uvm_test_top.env.ahb_predictor [REG_PREDICT] Observed WRITE transaction to register regmodel.TBR: value='h75 : updated value = 'h75
# UVM_INFO ./../tb/uart_scoreboard.sv(80) @ 1011000: uvm_test_top.env.scb [write_rx] Add AHB's drive trans into queue
# UVM_INFO ./../regmodel/uart_reg2ahb_adapter.sv(42) @ 1011000: reporter [uart_reg2ahb_adapter] bus2reg: addr = 0x18, data = 0x75, kind = UVM_WRITE, status = UVM_IS_OK
# UVM_INFO @ 1011000: reporter [RegModel] Wrote register via map regmodel.ahb_map: regmodel.TBR=0x75
# UVM_INFO ./../regmodel/uart_reg2ahb_adapter.sv(27) @ 1011000: reporter [uart_reg2ahb_adapter] reg2bus: addr = 0x14, data = 0x0, kind = READ
# UVM_INFO ./../vip/ahb_vip/ahb_driver.sv(63) @ 1011000: uvm_test_top.env.ahb_agt.drv [ahb_driver] READ! addr = 14, data = 0
# UVM_INFO ./../vip/ahb_vip/ahb_monitor.sv(45) @ 1011000: uvm_test_top.env.ahb_agt.mnt [ahb_monitor] Observed transaction: 
# ----------------------------------------------
# Name          Type             Size  Value    
# ----------------------------------------------
# trans         ahb_transaction  -     @1799    
#   xact_type   xact_type_enum   1     READ     
#   xfer_size   xfer_size_enum   3     SIZE_8BIT
#   burst_type  burst_type_enum  3     SINGLE   
#   addr        integral         10    'h14     
#   data        integral         32    'h8      
#   prot        integral         4     'h0      
#   lock        integral         1     'h0      
# ----------------------------------------------
# 
# UVM_INFO ./../regmodel/uart_reg2ahb_adapter.sv(42) @ 1011000: reporter [uart_reg2ahb_adapter] bus2reg: addr = 0x14, data = 0x8, kind = UVM_READ, status = UVM_IS_OK
# UVM_INFO /ictc/other/tools/QuestaDVA/questasim/verilog_src/uvm-1.2/src/reg/uvm_reg_predictor.svh(225) @ 1011000: uvm_test_top.env.ahb_predictor [REG_PREDICT] Observed READ transaction to register regmodel.FSR: value='h8
# UVM_INFO ./../tb/uart_scoreboard.sv(148) @ 1011000: uvm_test_top.env.scb [full_tx_fifo_compare] FULL TX FIFO COMPARATIVE
# ============================================================================================================================
# UVM_INFO ./../tb/uart_scoreboard.sv(155) @ 1011000: uvm_test_top.env.scb [uart_scoreboard] PASSED! Parity error status is correct. Exp: 0, Act: 0
# ============================================================================================================================
# UVM_INFO ./../regmodel/uart_reg2ahb_adapter.sv(42) @ 1011000: reporter [uart_reg2ahb_adapter] bus2reg: addr = 0x14, data = 0x8, kind = UVM_READ, status = UVM_IS_OK
# UVM_INFO @ 1011000: reporter [RegModel] Read  register via map regmodel.ahb_map: regmodel.FSR=8
# UVM_INFO ./../testcases/full_tx_fifo_test.sv(135) @ 1011000: uvm_test_top [full_tx_fifo_test] i = 6
# UVM_INFO ./../regmodel/uart_reg2ahb_adapter.sv(27) @ 1011000: reporter [uart_reg2ahb_adapter] reg2bus: addr = 0x18, data = 0x2c, kind = WRITE
# UVM_INFO ./../vip/ahb_vip/ahb_driver.sv(65) @ 1011000: uvm_test_top.env.ahb_agt.drv [ahb_driver] WRITE! addr = 18, data = 2c
# UVM_INFO ./../vip/ahb_vip/ahb_monitor.sv(45) @ 1011000: uvm_test_top.env.ahb_agt.mnt [ahb_monitor] Observed transaction: 
# ----------------------------------------------
# Name          Type             Size  Value    
# ----------------------------------------------
# trans         ahb_transaction  -     @1843    
#   xact_type   xact_type_enum   1     WRITE    
#   xfer_size   xfer_size_enum   3     SIZE_8BIT
#   burst_type  burst_type_enum  3     SINGLE   
#   addr        integral         10    'h18     
#   data        integral         32    'h2c     
#   prot        integral         4     'h0      
#   lock        integral         1     'h0      
# ----------------------------------------------
# 
# UVM_INFO ./../regmodel/uart_reg2ahb_adapter.sv(42) @ 1011000: reporter [uart_reg2ahb_adapter] bus2reg: addr = 0x18, data = 0x2c, kind = UVM_WRITE, status = UVM_IS_OK
# UVM_INFO /ictc/other/tools/QuestaDVA/questasim/verilog_src/uvm-1.2/src/reg/uvm_reg_predictor.svh(221) @ 1011000: uvm_test_top.env.ahb_predictor [REG_PREDICT] Observed WRITE transaction to register regmodel.TBR: value='h2c : updated value = 'h2c
# UVM_INFO ./../tb/uart_scoreboard.sv(80) @ 1011000: uvm_test_top.env.scb [write_rx] Add AHB's drive trans into queue
# UVM_INFO ./../regmodel/uart_reg2ahb_adapter.sv(42) @ 1011000: reporter [uart_reg2ahb_adapter] bus2reg: addr = 0x18, data = 0x2c, kind = UVM_WRITE, status = UVM_IS_OK
# UVM_INFO @ 1011000: reporter [RegModel] Wrote register via map regmodel.ahb_map: regmodel.TBR=0x2c
# UVM_INFO ./../regmodel/uart_reg2ahb_adapter.sv(27) @ 1011000: reporter [uart_reg2ahb_adapter] reg2bus: addr = 0x14, data = 0x0, kind = READ
# UVM_INFO ./../vip/ahb_vip/ahb_driver.sv(63) @ 1011000: uvm_test_top.env.ahb_agt.drv [ahb_driver] READ! addr = 14, data = 0
# UVM_INFO ./../vip/ahb_vip/ahb_monitor.sv(45) @ 1011000: uvm_test_top.env.ahb_agt.mnt [ahb_monitor] Observed transaction: 
# ----------------------------------------------
# Name          Type             Size  Value    
# ----------------------------------------------
# trans         ahb_transaction  -     @1887    
#   xact_type   xact_type_enum   1     READ     
#   xfer_size   xfer_size_enum   3     SIZE_8BIT
#   burst_type  burst_type_enum  3     SINGLE   
#   addr        integral         10    'h14     
#   data        integral         32    'h8      
#   prot        integral         4     'h0      
#   lock        integral         1     'h0      
# ----------------------------------------------
# 
# UVM_INFO ./../regmodel/uart_reg2ahb_adapter.sv(42) @ 1011000: reporter [uart_reg2ahb_adapter] bus2reg: addr = 0x14, data = 0x8, kind = UVM_READ, status = UVM_IS_OK
# UVM_INFO /ictc/other/tools/QuestaDVA/questasim/verilog_src/uvm-1.2/src/reg/uvm_reg_predictor.svh(225) @ 1011000: uvm_test_top.env.ahb_predictor [REG_PREDICT] Observed READ transaction to register regmodel.FSR: value='h8
# UVM_INFO ./../tb/uart_scoreboard.sv(148) @ 1011000: uvm_test_top.env.scb [full_tx_fifo_compare] FULL TX FIFO COMPARATIVE
# ============================================================================================================================
# UVM_INFO ./../tb/uart_scoreboard.sv(155) @ 1011000: uvm_test_top.env.scb [uart_scoreboard] PASSED! Parity error status is correct. Exp: 0, Act: 0
# ============================================================================================================================
# UVM_INFO ./../regmodel/uart_reg2ahb_adapter.sv(42) @ 1011000: reporter [uart_reg2ahb_adapter] bus2reg: addr = 0x14, data = 0x8, kind = UVM_READ, status = UVM_IS_OK
# UVM_INFO @ 1011000: reporter [RegModel] Read  register via map regmodel.ahb_map: regmodel.FSR=8
# UVM_INFO ./../testcases/full_tx_fifo_test.sv(135) @ 1011000: uvm_test_top [full_tx_fifo_test] i = 7
# UVM_INFO ./../regmodel/uart_reg2ahb_adapter.sv(27) @ 1011000: reporter [uart_reg2ahb_adapter] reg2bus: addr = 0x18, data = 0x6f, kind = WRITE
# UVM_INFO ./../vip/ahb_vip/ahb_driver.sv(65) @ 1011000: uvm_test_top.env.ahb_agt.drv [ahb_driver] WRITE! addr = 18, data = 6f
# UVM_INFO ./../vip/ahb_vip/ahb_monitor.sv(45) @ 1011000: uvm_test_top.env.ahb_agt.mnt [ahb_monitor] Observed transaction: 
# ----------------------------------------------
# Name          Type             Size  Value    
# ----------------------------------------------
# trans         ahb_transaction  -     @1931    
#   xact_type   xact_type_enum   1     WRITE    
#   xfer_size   xfer_size_enum   3     SIZE_8BIT
#   burst_type  burst_type_enum  3     SINGLE   
#   addr        integral         10    'h18     
#   data        integral         32    'h6f     
#   prot        integral         4     'h0      
#   lock        integral         1     'h0      
# ----------------------------------------------
# 
# UVM_INFO ./../regmodel/uart_reg2ahb_adapter.sv(42) @ 1011000: reporter [uart_reg2ahb_adapter] bus2reg: addr = 0x18, data = 0x6f, kind = UVM_WRITE, status = UVM_IS_OK
# UVM_INFO /ictc/other/tools/QuestaDVA/questasim/verilog_src/uvm-1.2/src/reg/uvm_reg_predictor.svh(221) @ 1011000: uvm_test_top.env.ahb_predictor [REG_PREDICT] Observed WRITE transaction to register regmodel.TBR: value='h6f : updated value = 'h6f
# UVM_INFO ./../tb/uart_scoreboard.sv(80) @ 1011000: uvm_test_top.env.scb [write_rx] Add AHB's drive trans into queue
# UVM_INFO ./../regmodel/uart_reg2ahb_adapter.sv(42) @ 1011000: reporter [uart_reg2ahb_adapter] bus2reg: addr = 0x18, data = 0x6f, kind = UVM_WRITE, status = UVM_IS_OK
# UVM_INFO @ 1011000: reporter [RegModel] Wrote register via map regmodel.ahb_map: regmodel.TBR=0x6f
# UVM_INFO ./../regmodel/uart_reg2ahb_adapter.sv(27) @ 1011000: reporter [uart_reg2ahb_adapter] reg2bus: addr = 0x14, data = 0x0, kind = READ
# UVM_INFO ./../vip/ahb_vip/ahb_driver.sv(63) @ 1011000: uvm_test_top.env.ahb_agt.drv [ahb_driver] READ! addr = 14, data = 0
# UVM_INFO ./../vip/ahb_vip/ahb_monitor.sv(45) @ 1011000: uvm_test_top.env.ahb_agt.mnt [ahb_monitor] Observed transaction: 
# ----------------------------------------------
# Name          Type             Size  Value    
# ----------------------------------------------
# trans         ahb_transaction  -     @1975    
#   xact_type   xact_type_enum   1     READ     
#   xfer_size   xfer_size_enum   3     SIZE_8BIT
#   burst_type  burst_type_enum  3     SINGLE   
#   addr        integral         10    'h14     
#   data        integral         32    'h8      
#   prot        integral         4     'h0      
#   lock        integral         1     'h0      
# ----------------------------------------------
# 
# UVM_INFO ./../regmodel/uart_reg2ahb_adapter.sv(42) @ 1011000: reporter [uart_reg2ahb_adapter] bus2reg: addr = 0x14, data = 0x8, kind = UVM_READ, status = UVM_IS_OK
# UVM_INFO /ictc/other/tools/QuestaDVA/questasim/verilog_src/uvm-1.2/src/reg/uvm_reg_predictor.svh(225) @ 1011000: uvm_test_top.env.ahb_predictor [REG_PREDICT] Observed READ transaction to register regmodel.FSR: value='h8
# UVM_INFO ./../tb/uart_scoreboard.sv(148) @ 1011000: uvm_test_top.env.scb [full_tx_fifo_compare] FULL TX FIFO COMPARATIVE
# ============================================================================================================================
# UVM_INFO ./../tb/uart_scoreboard.sv(155) @ 1011000: uvm_test_top.env.scb [uart_scoreboard] PASSED! Parity error status is correct. Exp: 0, Act: 0
# ============================================================================================================================
# UVM_INFO ./../regmodel/uart_reg2ahb_adapter.sv(42) @ 1011000: reporter [uart_reg2ahb_adapter] bus2reg: addr = 0x14, data = 0x8, kind = UVM_READ, status = UVM_IS_OK
# UVM_INFO @ 1011000: reporter [RegModel] Read  register via map regmodel.ahb_map: regmodel.FSR=8
# UVM_INFO ./../testcases/full_tx_fifo_test.sv(135) @ 1011000: uvm_test_top [full_tx_fifo_test] i = 8
# UVM_INFO ./../regmodel/uart_reg2ahb_adapter.sv(27) @ 1011000: reporter [uart_reg2ahb_adapter] reg2bus: addr = 0x18, data = 0x58, kind = WRITE
# UVM_INFO ./../vip/ahb_vip/ahb_driver.sv(65) @ 1011000: uvm_test_top.env.ahb_agt.drv [ahb_driver] WRITE! addr = 18, data = 58
# UVM_INFO ./../vip/ahb_vip/ahb_monitor.sv(45) @ 1011000: uvm_test_top.env.ahb_agt.mnt [ahb_monitor] Observed transaction: 
# ----------------------------------------------
# Name          Type             Size  Value    
# ----------------------------------------------
# trans         ahb_transaction  -     @2019    
#   xact_type   xact_type_enum   1     WRITE    
#   xfer_size   xfer_size_enum   3     SIZE_8BIT
#   burst_type  burst_type_enum  3     SINGLE   
#   addr        integral         10    'h18     
#   data        integral         32    'h58     
#   prot        integral         4     'h0      
#   lock        integral         1     'h0      
# ----------------------------------------------
# 
# UVM_INFO ./../regmodel/uart_reg2ahb_adapter.sv(42) @ 1011000: reporter [uart_reg2ahb_adapter] bus2reg: addr = 0x18, data = 0x58, kind = UVM_WRITE, status = UVM_IS_OK
# UVM_INFO /ictc/other/tools/QuestaDVA/questasim/verilog_src/uvm-1.2/src/reg/uvm_reg_predictor.svh(221) @ 1011000: uvm_test_top.env.ahb_predictor [REG_PREDICT] Observed WRITE transaction to register regmodel.TBR: value='h58 : updated value = 'h58
# UVM_INFO ./../tb/uart_scoreboard.sv(80) @ 1011000: uvm_test_top.env.scb [write_rx] Add AHB's drive trans into queue
# UVM_INFO ./../regmodel/uart_reg2ahb_adapter.sv(42) @ 1011000: reporter [uart_reg2ahb_adapter] bus2reg: addr = 0x18, data = 0x58, kind = UVM_WRITE, status = UVM_IS_OK
# UVM_INFO @ 1011000: reporter [RegModel] Wrote register via map regmodel.ahb_map: regmodel.TBR=0x58
# UVM_INFO ./../regmodel/uart_reg2ahb_adapter.sv(27) @ 1011000: reporter [uart_reg2ahb_adapter] reg2bus: addr = 0x14, data = 0x0, kind = READ
# UVM_INFO ./../vip/ahb_vip/ahb_driver.sv(63) @ 1011000: uvm_test_top.env.ahb_agt.drv [ahb_driver] READ! addr = 14, data = 0
# UVM_INFO ./../vip/ahb_vip/ahb_monitor.sv(45) @ 1011000: uvm_test_top.env.ahb_agt.mnt [ahb_monitor] Observed transaction: 
# ----------------------------------------------
# Name          Type             Size  Value    
# ----------------------------------------------
# trans         ahb_transaction  -     @2063    
#   xact_type   xact_type_enum   1     READ     
#   xfer_size   xfer_size_enum   3     SIZE_8BIT
#   burst_type  burst_type_enum  3     SINGLE   
#   addr        integral         10    'h14     
#   data        integral         32    'h8      
#   prot        integral         4     'h0      
#   lock        integral         1     'h0      
# ----------------------------------------------
# 
# UVM_INFO ./../regmodel/uart_reg2ahb_adapter.sv(42) @ 1011000: reporter [uart_reg2ahb_adapter] bus2reg: addr = 0x14, data = 0x8, kind = UVM_READ, status = UVM_IS_OK
# UVM_INFO /ictc/other/tools/QuestaDVA/questasim/verilog_src/uvm-1.2/src/reg/uvm_reg_predictor.svh(225) @ 1011000: uvm_test_top.env.ahb_predictor [REG_PREDICT] Observed READ transaction to register regmodel.FSR: value='h8
# UVM_INFO ./../tb/uart_scoreboard.sv(148) @ 1011000: uvm_test_top.env.scb [full_tx_fifo_compare] FULL TX FIFO COMPARATIVE
# ============================================================================================================================
# UVM_INFO ./../tb/uart_scoreboard.sv(155) @ 1011000: uvm_test_top.env.scb [uart_scoreboard] PASSED! Parity error status is correct. Exp: 0, Act: 0
# ============================================================================================================================
# UVM_INFO ./../regmodel/uart_reg2ahb_adapter.sv(42) @ 1011000: reporter [uart_reg2ahb_adapter] bus2reg: addr = 0x14, data = 0x8, kind = UVM_READ, status = UVM_IS_OK
# UVM_INFO @ 1011000: reporter [RegModel] Read  register via map regmodel.ahb_map: regmodel.FSR=8
# UVM_INFO ./../testcases/full_tx_fifo_test.sv(135) @ 1011000: uvm_test_top [full_tx_fifo_test] i = 9
# UVM_INFO ./../regmodel/uart_reg2ahb_adapter.sv(27) @ 1011000: reporter [uart_reg2ahb_adapter] reg2bus: addr = 0x18, data = 0x1c, kind = WRITE
# UVM_INFO ./../vip/ahb_vip/ahb_driver.sv(65) @ 1011000: uvm_test_top.env.ahb_agt.drv [ahb_driver] WRITE! addr = 18, data = 1c
# UVM_INFO ./../vip/ahb_vip/ahb_monitor.sv(45) @ 1011000: uvm_test_top.env.ahb_agt.mnt [ahb_monitor] Observed transaction: 
# ----------------------------------------------
# Name          Type             Size  Value    
# ----------------------------------------------
# trans         ahb_transaction  -     @2107    
#   xact_type   xact_type_enum   1     WRITE    
#   xfer_size   xfer_size_enum   3     SIZE_8BIT
#   burst_type  burst_type_enum  3     SINGLE   
#   addr        integral         10    'h18     
#   data        integral         32    'h1c     
#   prot        integral         4     'h0      
#   lock        integral         1     'h0      
# ----------------------------------------------
# 
# UVM_INFO ./../regmodel/uart_reg2ahb_adapter.sv(42) @ 1011000: reporter [uart_reg2ahb_adapter] bus2reg: addr = 0x18, data = 0x1c, kind = UVM_WRITE, status = UVM_IS_OK
# UVM_INFO /ictc/other/tools/QuestaDVA/questasim/verilog_src/uvm-1.2/src/reg/uvm_reg_predictor.svh(221) @ 1011000: uvm_test_top.env.ahb_predictor [REG_PREDICT] Observed WRITE transaction to register regmodel.TBR: value='h1c : updated value = 'h1c
# UVM_INFO ./../tb/uart_scoreboard.sv(80) @ 1011000: uvm_test_top.env.scb [write_rx] Add AHB's drive trans into queue
# UVM_INFO ./../regmodel/uart_reg2ahb_adapter.sv(42) @ 1011000: reporter [uart_reg2ahb_adapter] bus2reg: addr = 0x18, data = 0x1c, kind = UVM_WRITE, status = UVM_IS_OK
# UVM_INFO @ 1011000: reporter [RegModel] Wrote register via map regmodel.ahb_map: regmodel.TBR=0x1c
# UVM_INFO ./../regmodel/uart_reg2ahb_adapter.sv(27) @ 1011000: reporter [uart_reg2ahb_adapter] reg2bus: addr = 0x14, data = 0x0, kind = READ
# UVM_INFO ./../vip/ahb_vip/ahb_driver.sv(63) @ 1011000: uvm_test_top.env.ahb_agt.drv [ahb_driver] READ! addr = 14, data = 0
# UVM_INFO ./../vip/ahb_vip/ahb_monitor.sv(45) @ 1011000: uvm_test_top.env.ahb_agt.mnt [ahb_monitor] Observed transaction: 
# ----------------------------------------------
# Name          Type             Size  Value    
# ----------------------------------------------
# trans         ahb_transaction  -     @2151    
#   xact_type   xact_type_enum   1     READ     
#   xfer_size   xfer_size_enum   3     SIZE_8BIT
#   burst_type  burst_type_enum  3     SINGLE   
#   addr        integral         10    'h14     
#   data        integral         32    'h8      
#   prot        integral         4     'h0      
#   lock        integral         1     'h0      
# ----------------------------------------------
# 
# UVM_INFO ./../regmodel/uart_reg2ahb_adapter.sv(42) @ 1011000: reporter [uart_reg2ahb_adapter] bus2reg: addr = 0x14, data = 0x8, kind = UVM_READ, status = UVM_IS_OK
# UVM_INFO /ictc/other/tools/QuestaDVA/questasim/verilog_src/uvm-1.2/src/reg/uvm_reg_predictor.svh(225) @ 1011000: uvm_test_top.env.ahb_predictor [REG_PREDICT] Observed READ transaction to register regmodel.FSR: value='h8
# UVM_INFO ./../tb/uart_scoreboard.sv(148) @ 1011000: uvm_test_top.env.scb [full_tx_fifo_compare] FULL TX FIFO COMPARATIVE
# ============================================================================================================================
# UVM_INFO ./../tb/uart_scoreboard.sv(155) @ 1011000: uvm_test_top.env.scb [uart_scoreboard] PASSED! Parity error status is correct. Exp: 0, Act: 0
# ============================================================================================================================
# UVM_INFO ./../regmodel/uart_reg2ahb_adapter.sv(42) @ 1011000: reporter [uart_reg2ahb_adapter] bus2reg: addr = 0x14, data = 0x8, kind = UVM_READ, status = UVM_IS_OK
# UVM_INFO @ 1011000: reporter [RegModel] Read  register via map regmodel.ahb_map: regmodel.FSR=8
# UVM_INFO ./../testcases/full_tx_fifo_test.sv(135) @ 1011000: uvm_test_top [full_tx_fifo_test] i = 10
# UVM_INFO ./../regmodel/uart_reg2ahb_adapter.sv(27) @ 1011000: reporter [uart_reg2ahb_adapter] reg2bus: addr = 0x18, data = 0xb, kind = WRITE
# UVM_INFO ./../vip/ahb_vip/ahb_driver.sv(65) @ 1011000: uvm_test_top.env.ahb_agt.drv [ahb_driver] WRITE! addr = 18, data = b
# UVM_INFO ./../vip/ahb_vip/ahb_monitor.sv(45) @ 1011000: uvm_test_top.env.ahb_agt.mnt [ahb_monitor] Observed transaction: 
# ----------------------------------------------
# Name          Type             Size  Value    
# ----------------------------------------------
# trans         ahb_transaction  -     @2195    
#   xact_type   xact_type_enum   1     WRITE    
#   xfer_size   xfer_size_enum   3     SIZE_8BIT
#   burst_type  burst_type_enum  3     SINGLE   
#   addr        integral         10    'h18     
#   data        integral         32    'hb      
#   prot        integral         4     'h0      
#   lock        integral         1     'h0      
# ----------------------------------------------
# 
# UVM_INFO ./../regmodel/uart_reg2ahb_adapter.sv(42) @ 1011000: reporter [uart_reg2ahb_adapter] bus2reg: addr = 0x18, data = 0xb, kind = UVM_WRITE, status = UVM_IS_OK
# UVM_INFO /ictc/other/tools/QuestaDVA/questasim/verilog_src/uvm-1.2/src/reg/uvm_reg_predictor.svh(221) @ 1011000: uvm_test_top.env.ahb_predictor [REG_PREDICT] Observed WRITE transaction to register regmodel.TBR: value='hb : updated value = 'hb
# UVM_INFO ./../tb/uart_scoreboard.sv(80) @ 1011000: uvm_test_top.env.scb [write_rx] Add AHB's drive trans into queue
# UVM_INFO ./../regmodel/uart_reg2ahb_adapter.sv(42) @ 1011000: reporter [uart_reg2ahb_adapter] bus2reg: addr = 0x18, data = 0xb, kind = UVM_WRITE, status = UVM_IS_OK
# UVM_INFO @ 1011000: reporter [RegModel] Wrote register via map regmodel.ahb_map: regmodel.TBR=0xb
# UVM_INFO ./../regmodel/uart_reg2ahb_adapter.sv(27) @ 1011000: reporter [uart_reg2ahb_adapter] reg2bus: addr = 0x14, data = 0x0, kind = READ
# UVM_INFO ./../vip/ahb_vip/ahb_driver.sv(63) @ 1011000: uvm_test_top.env.ahb_agt.drv [ahb_driver] READ! addr = 14, data = 0
# UVM_INFO ./../vip/ahb_vip/ahb_monitor.sv(45) @ 1011000: uvm_test_top.env.ahb_agt.mnt [ahb_monitor] Observed transaction: 
# ----------------------------------------------
# Name          Type             Size  Value    
# ----------------------------------------------
# trans         ahb_transaction  -     @2239    
#   xact_type   xact_type_enum   1     READ     
#   xfer_size   xfer_size_enum   3     SIZE_8BIT
#   burst_type  burst_type_enum  3     SINGLE   
#   addr        integral         10    'h14     
#   data        integral         32    'h8      
#   prot        integral         4     'h0      
#   lock        integral         1     'h0      
# ----------------------------------------------
# 
# UVM_INFO ./../regmodel/uart_reg2ahb_adapter.sv(42) @ 1011000: reporter [uart_reg2ahb_adapter] bus2reg: addr = 0x14, data = 0x8, kind = UVM_READ, status = UVM_IS_OK
# UVM_INFO /ictc/other/tools/QuestaDVA/questasim/verilog_src/uvm-1.2/src/reg/uvm_reg_predictor.svh(225) @ 1011000: uvm_test_top.env.ahb_predictor [REG_PREDICT] Observed READ transaction to register regmodel.FSR: value='h8
# UVM_INFO ./../tb/uart_scoreboard.sv(148) @ 1011000: uvm_test_top.env.scb [full_tx_fifo_compare] FULL TX FIFO COMPARATIVE
# ============================================================================================================================
# UVM_INFO ./../tb/uart_scoreboard.sv(155) @ 1011000: uvm_test_top.env.scb [uart_scoreboard] PASSED! Parity error status is correct. Exp: 0, Act: 0
# ============================================================================================================================
# UVM_INFO ./../regmodel/uart_reg2ahb_adapter.sv(42) @ 1011000: reporter [uart_reg2ahb_adapter] bus2reg: addr = 0x14, data = 0x8, kind = UVM_READ, status = UVM_IS_OK
# UVM_INFO @ 1011000: reporter [RegModel] Read  register via map regmodel.ahb_map: regmodel.FSR=8
# UVM_INFO ./../testcases/full_tx_fifo_test.sv(135) @ 1011000: uvm_test_top [full_tx_fifo_test] i = 11
# UVM_INFO ./../regmodel/uart_reg2ahb_adapter.sv(27) @ 1011000: reporter [uart_reg2ahb_adapter] reg2bus: addr = 0x18, data = 0x68, kind = WRITE
# UVM_INFO ./../vip/ahb_vip/ahb_driver.sv(65) @ 1011000: uvm_test_top.env.ahb_agt.drv [ahb_driver] WRITE! addr = 18, data = 68
# UVM_INFO ./../vip/ahb_vip/ahb_monitor.sv(45) @ 1011000: uvm_test_top.env.ahb_agt.mnt [ahb_monitor] Observed transaction: 
# ----------------------------------------------
# Name          Type             Size  Value    
# ----------------------------------------------
# trans         ahb_transaction  -     @2283    
#   xact_type   xact_type_enum   1     WRITE    
#   xfer_size   xfer_size_enum   3     SIZE_8BIT
#   burst_type  burst_type_enum  3     SINGLE   
#   addr        integral         10    'h18     
#   data        integral         32    'h68     
#   prot        integral         4     'h0      
#   lock        integral         1     'h0      
# ----------------------------------------------
# 
# UVM_INFO ./../regmodel/uart_reg2ahb_adapter.sv(42) @ 1011000: reporter [uart_reg2ahb_adapter] bus2reg: addr = 0x18, data = 0x68, kind = UVM_WRITE, status = UVM_IS_OK
# UVM_INFO /ictc/other/tools/QuestaDVA/questasim/verilog_src/uvm-1.2/src/reg/uvm_reg_predictor.svh(221) @ 1011000: uvm_test_top.env.ahb_predictor [REG_PREDICT] Observed WRITE transaction to register regmodel.TBR: value='h68 : updated value = 'h68
# UVM_INFO ./../tb/uart_scoreboard.sv(80) @ 1011000: uvm_test_top.env.scb [write_rx] Add AHB's drive trans into queue
# UVM_INFO ./../regmodel/uart_reg2ahb_adapter.sv(42) @ 1011000: reporter [uart_reg2ahb_adapter] bus2reg: addr = 0x18, data = 0x68, kind = UVM_WRITE, status = UVM_IS_OK
# UVM_INFO @ 1011000: reporter [RegModel] Wrote register via map regmodel.ahb_map: regmodel.TBR=0x68
# UVM_INFO ./../regmodel/uart_reg2ahb_adapter.sv(27) @ 1011000: reporter [uart_reg2ahb_adapter] reg2bus: addr = 0x14, data = 0x0, kind = READ
# UVM_INFO ./../vip/ahb_vip/ahb_driver.sv(63) @ 1012000: uvm_test_top.env.ahb_agt.drv [ahb_driver] READ! addr = 14, data = 0
# UVM_INFO ./../vip/ahb_vip/ahb_monitor.sv(45) @ 1012000: uvm_test_top.env.ahb_agt.mnt [ahb_monitor] Observed transaction: 
# ----------------------------------------------
# Name          Type             Size  Value    
# ----------------------------------------------
# trans         ahb_transaction  -     @2327    
#   xact_type   xact_type_enum   1     READ     
#   xfer_size   xfer_size_enum   3     SIZE_8BIT
#   burst_type  burst_type_enum  3     SINGLE   
#   addr        integral         10    'h14     
#   data        integral         32    'h8      
#   prot        integral         4     'h0      
#   lock        integral         1     'h0      
# ----------------------------------------------
# 
# UVM_INFO ./../regmodel/uart_reg2ahb_adapter.sv(42) @ 1012000: reporter [uart_reg2ahb_adapter] bus2reg: addr = 0x14, data = 0x8, kind = UVM_READ, status = UVM_IS_OK
# UVM_INFO /ictc/other/tools/QuestaDVA/questasim/verilog_src/uvm-1.2/src/reg/uvm_reg_predictor.svh(225) @ 1012000: uvm_test_top.env.ahb_predictor [REG_PREDICT] Observed READ transaction to register regmodel.FSR: value='h8
# UVM_INFO ./../tb/uart_scoreboard.sv(148) @ 1012000: uvm_test_top.env.scb [full_tx_fifo_compare] FULL TX FIFO COMPARATIVE
# ============================================================================================================================
# UVM_INFO ./../tb/uart_scoreboard.sv(155) @ 1012000: uvm_test_top.env.scb [uart_scoreboard] PASSED! Parity error status is correct. Exp: 0, Act: 0
# ============================================================================================================================
# UVM_INFO ./../regmodel/uart_reg2ahb_adapter.sv(42) @ 1012000: reporter [uart_reg2ahb_adapter] bus2reg: addr = 0x14, data = 0x8, kind = UVM_READ, status = UVM_IS_OK
# UVM_INFO @ 1012000: reporter [RegModel] Read  register via map regmodel.ahb_map: regmodel.FSR=8
# UVM_INFO ./../testcases/full_tx_fifo_test.sv(135) @ 1012000: uvm_test_top [full_tx_fifo_test] i = 12
# UVM_INFO ./../regmodel/uart_reg2ahb_adapter.sv(27) @ 1012000: reporter [uart_reg2ahb_adapter] reg2bus: addr = 0x18, data = 0x2f, kind = WRITE
# UVM_INFO ./../vip/ahb_vip/ahb_driver.sv(65) @ 1012000: uvm_test_top.env.ahb_agt.drv [ahb_driver] WRITE! addr = 18, data = 2f
# UVM_INFO ./../vip/ahb_vip/ahb_monitor.sv(45) @ 1012000: uvm_test_top.env.ahb_agt.mnt [ahb_monitor] Observed transaction: 
# ----------------------------------------------
# Name          Type             Size  Value    
# ----------------------------------------------
# trans         ahb_transaction  -     @2371    
#   xact_type   xact_type_enum   1     WRITE    
#   xfer_size   xfer_size_enum   3     SIZE_8BIT
#   burst_type  burst_type_enum  3     SINGLE   
#   addr        integral         10    'h18     
#   data        integral         32    'h2f     
#   prot        integral         4     'h0      
#   lock        integral         1     'h0      
# ----------------------------------------------
# 
# UVM_INFO ./../regmodel/uart_reg2ahb_adapter.sv(42) @ 1012000: reporter [uart_reg2ahb_adapter] bus2reg: addr = 0x18, data = 0x2f, kind = UVM_WRITE, status = UVM_IS_OK
# UVM_INFO /ictc/other/tools/QuestaDVA/questasim/verilog_src/uvm-1.2/src/reg/uvm_reg_predictor.svh(221) @ 1012000: uvm_test_top.env.ahb_predictor [REG_PREDICT] Observed WRITE transaction to register regmodel.TBR: value='h2f : updated value = 'h2f
# UVM_INFO ./../tb/uart_scoreboard.sv(80) @ 1012000: uvm_test_top.env.scb [write_rx] Add AHB's drive trans into queue
# UVM_INFO ./../regmodel/uart_reg2ahb_adapter.sv(42) @ 1012000: reporter [uart_reg2ahb_adapter] bus2reg: addr = 0x18, data = 0x2f, kind = UVM_WRITE, status = UVM_IS_OK
# UVM_INFO @ 1012000: reporter [RegModel] Wrote register via map regmodel.ahb_map: regmodel.TBR=0x2f
# UVM_INFO ./../regmodel/uart_reg2ahb_adapter.sv(27) @ 1012000: reporter [uart_reg2ahb_adapter] reg2bus: addr = 0x14, data = 0x0, kind = READ
# UVM_INFO ./../vip/ahb_vip/ahb_driver.sv(63) @ 1012000: uvm_test_top.env.ahb_agt.drv [ahb_driver] READ! addr = 14, data = 0
# UVM_INFO ./../vip/ahb_vip/ahb_monitor.sv(45) @ 1012000: uvm_test_top.env.ahb_agt.mnt [ahb_monitor] Observed transaction: 
# ----------------------------------------------
# Name          Type             Size  Value    
# ----------------------------------------------
# trans         ahb_transaction  -     @2415    
#   xact_type   xact_type_enum   1     READ     
#   xfer_size   xfer_size_enum   3     SIZE_8BIT
#   burst_type  burst_type_enum  3     SINGLE   
#   addr        integral         10    'h14     
#   data        integral         32    'h8      
#   prot        integral         4     'h0      
#   lock        integral         1     'h0      
# ----------------------------------------------
# 
# UVM_INFO ./../regmodel/uart_reg2ahb_adapter.sv(42) @ 1012000: reporter [uart_reg2ahb_adapter] bus2reg: addr = 0x14, data = 0x8, kind = UVM_READ, status = UVM_IS_OK
# UVM_INFO /ictc/other/tools/QuestaDVA/questasim/verilog_src/uvm-1.2/src/reg/uvm_reg_predictor.svh(225) @ 1012000: uvm_test_top.env.ahb_predictor [REG_PREDICT] Observed READ transaction to register regmodel.FSR: value='h8
# UVM_INFO ./../tb/uart_scoreboard.sv(148) @ 1012000: uvm_test_top.env.scb [full_tx_fifo_compare] FULL TX FIFO COMPARATIVE
# ============================================================================================================================
# UVM_INFO ./../tb/uart_scoreboard.sv(155) @ 1012000: uvm_test_top.env.scb [uart_scoreboard] PASSED! Parity error status is correct. Exp: 0, Act: 0
# ============================================================================================================================
# UVM_INFO ./../regmodel/uart_reg2ahb_adapter.sv(42) @ 1012000: reporter [uart_reg2ahb_adapter] bus2reg: addr = 0x14, data = 0x8, kind = UVM_READ, status = UVM_IS_OK
# UVM_INFO @ 1012000: reporter [RegModel] Read  register via map regmodel.ahb_map: regmodel.FSR=8
# UVM_INFO ./../testcases/full_tx_fifo_test.sv(135) @ 1012000: uvm_test_top [full_tx_fifo_test] i = 13
# UVM_INFO ./../regmodel/uart_reg2ahb_adapter.sv(27) @ 1012000: reporter [uart_reg2ahb_adapter] reg2bus: addr = 0x18, data = 0x64, kind = WRITE
# UVM_INFO ./../vip/ahb_vip/ahb_driver.sv(65) @ 1012000: uvm_test_top.env.ahb_agt.drv [ahb_driver] WRITE! addr = 18, data = 64
# UVM_INFO ./../vip/ahb_vip/ahb_monitor.sv(45) @ 1012000: uvm_test_top.env.ahb_agt.mnt [ahb_monitor] Observed transaction: 
# ----------------------------------------------
# Name          Type             Size  Value    
# ----------------------------------------------
# trans         ahb_transaction  -     @2459    
#   xact_type   xact_type_enum   1     WRITE    
#   xfer_size   xfer_size_enum   3     SIZE_8BIT
#   burst_type  burst_type_enum  3     SINGLE   
#   addr        integral         10    'h18     
#   data        integral         32    'h64     
#   prot        integral         4     'h0      
#   lock        integral         1     'h0      
# ----------------------------------------------
# 
# UVM_INFO ./../regmodel/uart_reg2ahb_adapter.sv(42) @ 1012000: reporter [uart_reg2ahb_adapter] bus2reg: addr = 0x18, data = 0x64, kind = UVM_WRITE, status = UVM_IS_OK
# UVM_INFO /ictc/other/tools/QuestaDVA/questasim/verilog_src/uvm-1.2/src/reg/uvm_reg_predictor.svh(221) @ 1012000: uvm_test_top.env.ahb_predictor [REG_PREDICT] Observed WRITE transaction to register regmodel.TBR: value='h64 : updated value = 'h64
# UVM_INFO ./../tb/uart_scoreboard.sv(80) @ 1012000: uvm_test_top.env.scb [write_rx] Add AHB's drive trans into queue
# UVM_INFO ./../regmodel/uart_reg2ahb_adapter.sv(42) @ 1012000: reporter [uart_reg2ahb_adapter] bus2reg: addr = 0x18, data = 0x64, kind = UVM_WRITE, status = UVM_IS_OK
# UVM_INFO @ 1012000: reporter [RegModel] Wrote register via map regmodel.ahb_map: regmodel.TBR=0x64
# UVM_INFO ./../regmodel/uart_reg2ahb_adapter.sv(27) @ 1012000: reporter [uart_reg2ahb_adapter] reg2bus: addr = 0x14, data = 0x0, kind = READ
# UVM_INFO ./../vip/ahb_vip/ahb_driver.sv(63) @ 1012000: uvm_test_top.env.ahb_agt.drv [ahb_driver] READ! addr = 14, data = 0
# UVM_INFO ./../vip/ahb_vip/ahb_monitor.sv(45) @ 1012000: uvm_test_top.env.ahb_agt.mnt [ahb_monitor] Observed transaction: 
# ----------------------------------------------
# Name          Type             Size  Value    
# ----------------------------------------------
# trans         ahb_transaction  -     @2503    
#   xact_type   xact_type_enum   1     READ     
#   xfer_size   xfer_size_enum   3     SIZE_8BIT
#   burst_type  burst_type_enum  3     SINGLE   
#   addr        integral         10    'h14     
#   data        integral         32    'h8      
#   prot        integral         4     'h0      
#   lock        integral         1     'h0      
# ----------------------------------------------
# 
# UVM_INFO ./../regmodel/uart_reg2ahb_adapter.sv(42) @ 1012000: reporter [uart_reg2ahb_adapter] bus2reg: addr = 0x14, data = 0x8, kind = UVM_READ, status = UVM_IS_OK
# UVM_INFO /ictc/other/tools/QuestaDVA/questasim/verilog_src/uvm-1.2/src/reg/uvm_reg_predictor.svh(225) @ 1012000: uvm_test_top.env.ahb_predictor [REG_PREDICT] Observed READ transaction to register regmodel.FSR: value='h8
# UVM_INFO ./../tb/uart_scoreboard.sv(148) @ 1012000: uvm_test_top.env.scb [full_tx_fifo_compare] FULL TX FIFO COMPARATIVE
# ============================================================================================================================
# UVM_INFO ./../tb/uart_scoreboard.sv(155) @ 1012000: uvm_test_top.env.scb [uart_scoreboard] PASSED! Parity error status is correct. Exp: 0, Act: 0
# ============================================================================================================================
# UVM_INFO ./../regmodel/uart_reg2ahb_adapter.sv(42) @ 1012000: reporter [uart_reg2ahb_adapter] bus2reg: addr = 0x14, data = 0x8, kind = UVM_READ, status = UVM_IS_OK
# UVM_INFO @ 1012000: reporter [RegModel] Read  register via map regmodel.ahb_map: regmodel.FSR=8
# UVM_INFO ./../testcases/full_tx_fifo_test.sv(135) @ 1012000: uvm_test_top [full_tx_fifo_test] i = 14
# UVM_INFO ./../regmodel/uart_reg2ahb_adapter.sv(27) @ 1012000: reporter [uart_reg2ahb_adapter] reg2bus: addr = 0x18, data = 0x1a, kind = WRITE
# UVM_INFO ./../vip/ahb_vip/ahb_driver.sv(65) @ 1012000: uvm_test_top.env.ahb_agt.drv [ahb_driver] WRITE! addr = 18, data = 1a
# UVM_INFO ./../vip/ahb_vip/ahb_monitor.sv(45) @ 1012000: uvm_test_top.env.ahb_agt.mnt [ahb_monitor] Observed transaction: 
# ----------------------------------------------
# Name          Type             Size  Value    
# ----------------------------------------------
# trans         ahb_transaction  -     @2547    
#   xact_type   xact_type_enum   1     WRITE    
#   xfer_size   xfer_size_enum   3     SIZE_8BIT
#   burst_type  burst_type_enum  3     SINGLE   
#   addr        integral         10    'h18     
#   data        integral         32    'h1a     
#   prot        integral         4     'h0      
#   lock        integral         1     'h0      
# ----------------------------------------------
# 
# UVM_INFO ./../regmodel/uart_reg2ahb_adapter.sv(42) @ 1012000: reporter [uart_reg2ahb_adapter] bus2reg: addr = 0x18, data = 0x1a, kind = UVM_WRITE, status = UVM_IS_OK
# UVM_INFO /ictc/other/tools/QuestaDVA/questasim/verilog_src/uvm-1.2/src/reg/uvm_reg_predictor.svh(221) @ 1012000: uvm_test_top.env.ahb_predictor [REG_PREDICT] Observed WRITE transaction to register regmodel.TBR: value='h1a : updated value = 'h1a
# UVM_INFO ./../tb/uart_scoreboard.sv(80) @ 1012000: uvm_test_top.env.scb [write_rx] Add AHB's drive trans into queue
# UVM_INFO ./../regmodel/uart_reg2ahb_adapter.sv(42) @ 1012000: reporter [uart_reg2ahb_adapter] bus2reg: addr = 0x18, data = 0x1a, kind = UVM_WRITE, status = UVM_IS_OK
# UVM_INFO @ 1012000: reporter [RegModel] Wrote register via map regmodel.ahb_map: regmodel.TBR=0x1a
# UVM_INFO ./../regmodel/uart_reg2ahb_adapter.sv(27) @ 1012000: reporter [uart_reg2ahb_adapter] reg2bus: addr = 0x14, data = 0x0, kind = READ
# UVM_INFO ./../vip/ahb_vip/ahb_driver.sv(63) @ 1012000: uvm_test_top.env.ahb_agt.drv [ahb_driver] READ! addr = 14, data = 0
# UVM_INFO ./../vip/ahb_vip/ahb_monitor.sv(45) @ 1012000: uvm_test_top.env.ahb_agt.mnt [ahb_monitor] Observed transaction: 
# ----------------------------------------------
# Name          Type             Size  Value    
# ----------------------------------------------
# trans         ahb_transaction  -     @2591    
#   xact_type   xact_type_enum   1     READ     
#   xfer_size   xfer_size_enum   3     SIZE_8BIT
#   burst_type  burst_type_enum  3     SINGLE   
#   addr        integral         10    'h14     
#   data        integral         32    'h8      
#   prot        integral         4     'h0      
#   lock        integral         1     'h0      
# ----------------------------------------------
# 
# UVM_INFO ./../regmodel/uart_reg2ahb_adapter.sv(42) @ 1012000: reporter [uart_reg2ahb_adapter] bus2reg: addr = 0x14, data = 0x8, kind = UVM_READ, status = UVM_IS_OK
# UVM_INFO /ictc/other/tools/QuestaDVA/questasim/verilog_src/uvm-1.2/src/reg/uvm_reg_predictor.svh(225) @ 1012000: uvm_test_top.env.ahb_predictor [REG_PREDICT] Observed READ transaction to register regmodel.FSR: value='h8
# UVM_INFO ./../tb/uart_scoreboard.sv(148) @ 1012000: uvm_test_top.env.scb [full_tx_fifo_compare] FULL TX FIFO COMPARATIVE
# ============================================================================================================================
# UVM_INFO ./../tb/uart_scoreboard.sv(155) @ 1012000: uvm_test_top.env.scb [uart_scoreboard] PASSED! Parity error status is correct. Exp: 0, Act: 0
# ============================================================================================================================
# UVM_INFO ./../regmodel/uart_reg2ahb_adapter.sv(42) @ 1012000: reporter [uart_reg2ahb_adapter] bus2reg: addr = 0x14, data = 0x8, kind = UVM_READ, status = UVM_IS_OK
# UVM_INFO @ 1012000: reporter [RegModel] Read  register via map regmodel.ahb_map: regmodel.FSR=8
# UVM_INFO ./../testcases/full_tx_fifo_test.sv(135) @ 1012000: uvm_test_top [full_tx_fifo_test] i = 15
# UVM_INFO ./../regmodel/uart_reg2ahb_adapter.sv(27) @ 1012000: reporter [uart_reg2ahb_adapter] reg2bus: addr = 0x18, data = 0x2a, kind = WRITE
# UVM_INFO ./../vip/ahb_vip/ahb_driver.sv(65) @ 1012000: uvm_test_top.env.ahb_agt.drv [ahb_driver] WRITE! addr = 18, data = 2a
# UVM_INFO ./../vip/ahb_vip/ahb_monitor.sv(45) @ 1012000: uvm_test_top.env.ahb_agt.mnt [ahb_monitor] Observed transaction: 
# ----------------------------------------------
# Name          Type             Size  Value    
# ----------------------------------------------
# trans         ahb_transaction  -     @2635    
#   xact_type   xact_type_enum   1     WRITE    
#   xfer_size   xfer_size_enum   3     SIZE_8BIT
#   burst_type  burst_type_enum  3     SINGLE   
#   addr        integral         10    'h18     
#   data        integral         32    'h2a     
#   prot        integral         4     'h0      
#   lock        integral         1     'h0      
# ----------------------------------------------
# 
# UVM_INFO ./../regmodel/uart_reg2ahb_adapter.sv(42) @ 1012000: reporter [uart_reg2ahb_adapter] bus2reg: addr = 0x18, data = 0x2a, kind = UVM_WRITE, status = UVM_IS_OK
# UVM_INFO /ictc/other/tools/QuestaDVA/questasim/verilog_src/uvm-1.2/src/reg/uvm_reg_predictor.svh(221) @ 1012000: uvm_test_top.env.ahb_predictor [REG_PREDICT] Observed WRITE transaction to register regmodel.TBR: value='h2a : updated value = 'h2a
# UVM_INFO ./../tb/uart_scoreboard.sv(80) @ 1012000: uvm_test_top.env.scb [write_rx] Add AHB's drive trans into queue
# UVM_INFO ./../regmodel/uart_reg2ahb_adapter.sv(42) @ 1012000: reporter [uart_reg2ahb_adapter] bus2reg: addr = 0x18, data = 0x2a, kind = UVM_WRITE, status = UVM_IS_OK
# UVM_INFO @ 1012000: reporter [RegModel] Wrote register via map regmodel.ahb_map: regmodel.TBR=0x2a
# UVM_INFO ./../regmodel/uart_reg2ahb_adapter.sv(27) @ 1012000: reporter [uart_reg2ahb_adapter] reg2bus: addr = 0x14, data = 0x0, kind = READ
# UVM_INFO ./../vip/ahb_vip/ahb_driver.sv(63) @ 1012000: uvm_test_top.env.ahb_agt.drv [ahb_driver] READ! addr = 14, data = 0
# UVM_INFO ./../vip/ahb_vip/ahb_monitor.sv(45) @ 1012000: uvm_test_top.env.ahb_agt.mnt [ahb_monitor] Observed transaction: 
# ----------------------------------------------
# Name          Type             Size  Value    
# ----------------------------------------------
# trans         ahb_transaction  -     @2679    
#   xact_type   xact_type_enum   1     READ     
#   xfer_size   xfer_size_enum   3     SIZE_8BIT
#   burst_type  burst_type_enum  3     SINGLE   
#   addr        integral         10    'h14     
#   data        integral         32    'h8      
#   prot        integral         4     'h0      
#   lock        integral         1     'h0      
# ----------------------------------------------
# 
# UVM_INFO ./../regmodel/uart_reg2ahb_adapter.sv(42) @ 1012000: reporter [uart_reg2ahb_adapter] bus2reg: addr = 0x14, data = 0x8, kind = UVM_READ, status = UVM_IS_OK
# UVM_INFO /ictc/other/tools/QuestaDVA/questasim/verilog_src/uvm-1.2/src/reg/uvm_reg_predictor.svh(225) @ 1012000: uvm_test_top.env.ahb_predictor [REG_PREDICT] Observed READ transaction to register regmodel.FSR: value='h8
# UVM_INFO ./../tb/uart_scoreboard.sv(148) @ 1012000: uvm_test_top.env.scb [full_tx_fifo_compare] FULL TX FIFO COMPARATIVE
# ============================================================================================================================
# UVM_INFO ./../tb/uart_scoreboard.sv(155) @ 1012000: uvm_test_top.env.scb [uart_scoreboard] PASSED! Parity error status is correct. Exp: 0, Act: 0
# ============================================================================================================================
# UVM_INFO ./../regmodel/uart_reg2ahb_adapter.sv(42) @ 1012000: reporter [uart_reg2ahb_adapter] bus2reg: addr = 0x14, data = 0x8, kind = UVM_READ, status = UVM_IS_OK
# UVM_INFO @ 1012000: reporter [RegModel] Read  register via map regmodel.ahb_map: regmodel.FSR=8
# UVM_INFO ./../testcases/full_tx_fifo_test.sv(135) @ 1012000: uvm_test_top [full_tx_fifo_test] i = 16
# UVM_INFO ./../regmodel/uart_reg2ahb_adapter.sv(27) @ 1012000: reporter [uart_reg2ahb_adapter] reg2bus: addr = 0x18, data = 0x2f, kind = WRITE
# UVM_INFO ./../vip/ahb_vip/ahb_driver.sv(65) @ 1012000: uvm_test_top.env.ahb_agt.drv [ahb_driver] WRITE! addr = 18, data = 2f
# UVM_INFO ./../vip/ahb_vip/ahb_monitor.sv(45) @ 1012000: uvm_test_top.env.ahb_agt.mnt [ahb_monitor] Observed transaction: 
# ----------------------------------------------
# Name          Type             Size  Value    
# ----------------------------------------------
# trans         ahb_transaction  -     @2723    
#   xact_type   xact_type_enum   1     WRITE    
#   xfer_size   xfer_size_enum   3     SIZE_8BIT
#   burst_type  burst_type_enum  3     SINGLE   
#   addr        integral         10    'h18     
#   data        integral         32    'h2f     
#   prot        integral         4     'h0      
#   lock        integral         1     'h0      
# ----------------------------------------------
# 
# UVM_INFO ./../regmodel/uart_reg2ahb_adapter.sv(42) @ 1012000: reporter [uart_reg2ahb_adapter] bus2reg: addr = 0x18, data = 0x2f, kind = UVM_WRITE, status = UVM_IS_OK
# UVM_INFO /ictc/other/tools/QuestaDVA/questasim/verilog_src/uvm-1.2/src/reg/uvm_reg_predictor.svh(221) @ 1012000: uvm_test_top.env.ahb_predictor [REG_PREDICT] Observed WRITE transaction to register regmodel.TBR: value='h2f : updated value = 'h2f
# UVM_INFO ./../tb/uart_scoreboard.sv(80) @ 1012000: uvm_test_top.env.scb [write_rx] Add AHB's drive trans into queue
# UVM_INFO ./../regmodel/uart_reg2ahb_adapter.sv(42) @ 1012000: reporter [uart_reg2ahb_adapter] bus2reg: addr = 0x18, data = 0x2f, kind = UVM_WRITE, status = UVM_IS_OK
# UVM_INFO @ 1012000: reporter [RegModel] Wrote register via map regmodel.ahb_map: regmodel.TBR=0x2f
# UVM_INFO ./../regmodel/uart_reg2ahb_adapter.sv(27) @ 1012000: reporter [uart_reg2ahb_adapter] reg2bus: addr = 0x14, data = 0x0, kind = READ
# UVM_INFO ./../vip/ahb_vip/ahb_driver.sv(63) @ 1012000: uvm_test_top.env.ahb_agt.drv [ahb_driver] READ! addr = 14, data = 0
# UVM_INFO ./../vip/ahb_vip/ahb_monitor.sv(45) @ 1012000: uvm_test_top.env.ahb_agt.mnt [ahb_monitor] Observed transaction: 
# ----------------------------------------------
# Name          Type             Size  Value    
# ----------------------------------------------
# trans         ahb_transaction  -     @2767    
#   xact_type   xact_type_enum   1     READ     
#   xfer_size   xfer_size_enum   3     SIZE_8BIT
#   burst_type  burst_type_enum  3     SINGLE   
#   addr        integral         10    'h14     
#   data        integral         32    'h9      
#   prot        integral         4     'h0      
#   lock        integral         1     'h0      
# ----------------------------------------------
# 
# UVM_INFO ./../regmodel/uart_reg2ahb_adapter.sv(42) @ 1012000: reporter [uart_reg2ahb_adapter] bus2reg: addr = 0x14, data = 0x9, kind = UVM_READ, status = UVM_IS_OK
# UVM_INFO /ictc/other/tools/QuestaDVA/questasim/verilog_src/uvm-1.2/src/reg/uvm_reg_predictor.svh(225) @ 1012000: uvm_test_top.env.ahb_predictor [REG_PREDICT] Observed READ transaction to register regmodel.FSR: value='h9
# UVM_INFO ./../tb/uart_scoreboard.sv(143) @ 1012000: uvm_test_top.env.scb [full_tx_fifo_compare] FULL TX FIFO COMPARATIVE
# ============================================================================================================================
# UVM_INFO ./../tb/uart_scoreboard.sv(155) @ 1012000: uvm_test_top.env.scb [uart_scoreboard] PASSED! Parity error status is correct. Exp: 1, Act: 1
# ============================================================================================================================
# UVM_INFO ./../regmodel/uart_reg2ahb_adapter.sv(42) @ 1012000: reporter [uart_reg2ahb_adapter] bus2reg: addr = 0x14, data = 0x9, kind = UVM_READ, status = UVM_IS_OK
# UVM_INFO @ 1012000: reporter [RegModel] Read  register via map regmodel.ahb_map: regmodel.FSR=9
# UVM_INFO ./../testcases/full_tx_fifo_test.sv(135) @ 1012000: uvm_test_top [full_tx_fifo_test] i = 17
# UVM_INFO ./../regmodel/uart_reg2ahb_adapter.sv(27) @ 1012000: reporter [uart_reg2ahb_adapter] reg2bus: addr = 0x18, data = 0x1c, kind = WRITE
# UVM_INFO ./../vip/ahb_vip/ahb_driver.sv(65) @ 1012000: uvm_test_top.env.ahb_agt.drv [ahb_driver] WRITE! addr = 18, data = 1c
# UVM_INFO ./../vip/ahb_vip/ahb_monitor.sv(45) @ 1012000: uvm_test_top.env.ahb_agt.mnt [ahb_monitor] Observed transaction: 
# ----------------------------------------------
# Name          Type             Size  Value    
# ----------------------------------------------
# trans         ahb_transaction  -     @2811    
#   xact_type   xact_type_enum   1     WRITE    
#   xfer_size   xfer_size_enum   3     SIZE_8BIT
#   burst_type  burst_type_enum  3     SINGLE   
#   addr        integral         10    'h18     
#   data        integral         32    'h1c     
#   prot        integral         4     'h0      
#   lock        integral         1     'h0      
# ----------------------------------------------
# 
# UVM_INFO ./../regmodel/uart_reg2ahb_adapter.sv(42) @ 1012000: reporter [uart_reg2ahb_adapter] bus2reg: addr = 0x18, data = 0x1c, kind = UVM_WRITE, status = UVM_IS_OK
# UVM_INFO /ictc/other/tools/QuestaDVA/questasim/verilog_src/uvm-1.2/src/reg/uvm_reg_predictor.svh(221) @ 1012000: uvm_test_top.env.ahb_predictor [REG_PREDICT] Observed WRITE transaction to register regmodel.TBR: value='h1c : updated value = 'h1c
# UVM_INFO ./../tb/uart_scoreboard.sv(80) @ 1012000: uvm_test_top.env.scb [write_rx] Add AHB's drive trans into queue
# UVM_INFO ./../regmodel/uart_reg2ahb_adapter.sv(42) @ 1012000: reporter [uart_reg2ahb_adapter] bus2reg: addr = 0x18, data = 0x1c, kind = UVM_WRITE, status = UVM_IS_OK
# UVM_INFO @ 1012000: reporter [RegModel] Wrote register via map regmodel.ahb_map: regmodel.TBR=0x1c
# UVM_INFO ./../regmodel/uart_reg2ahb_adapter.sv(27) @ 1012000: reporter [uart_reg2ahb_adapter] reg2bus: addr = 0x14, data = 0x0, kind = READ
# UVM_INFO ./../vip/ahb_vip/ahb_driver.sv(63) @ 1012000: uvm_test_top.env.ahb_agt.drv [ahb_driver] READ! addr = 14, data = 0
# UVM_INFO ./../vip/ahb_vip/ahb_monitor.sv(45) @ 1012000: uvm_test_top.env.ahb_agt.mnt [ahb_monitor] Observed transaction: 
# ----------------------------------------------
# Name          Type             Size  Value    
# ----------------------------------------------
# trans         ahb_transaction  -     @2855    
#   xact_type   xact_type_enum   1     READ     
#   xfer_size   xfer_size_enum   3     SIZE_8BIT
#   burst_type  burst_type_enum  3     SINGLE   
#   addr        integral         10    'h14     
#   data        integral         32    'h9      
#   prot        integral         4     'h0      
#   lock        integral         1     'h0      
# ----------------------------------------------
# 
# UVM_INFO ./../regmodel/uart_reg2ahb_adapter.sv(42) @ 1012000: reporter [uart_reg2ahb_adapter] bus2reg: addr = 0x14, data = 0x9, kind = UVM_READ, status = UVM_IS_OK
# UVM_INFO /ictc/other/tools/QuestaDVA/questasim/verilog_src/uvm-1.2/src/reg/uvm_reg_predictor.svh(225) @ 1012000: uvm_test_top.env.ahb_predictor [REG_PREDICT] Observed READ transaction to register regmodel.FSR: value='h9
# UVM_INFO ./../tb/uart_scoreboard.sv(143) @ 1012000: uvm_test_top.env.scb [full_tx_fifo_compare] FULL TX FIFO COMPARATIVE
# ============================================================================================================================
# UVM_INFO ./../tb/uart_scoreboard.sv(155) @ 1012000: uvm_test_top.env.scb [uart_scoreboard] PASSED! Parity error status is correct. Exp: 1, Act: 1
# ============================================================================================================================
# UVM_INFO ./../regmodel/uart_reg2ahb_adapter.sv(42) @ 1012000: reporter [uart_reg2ahb_adapter] bus2reg: addr = 0x14, data = 0x9, kind = UVM_READ, status = UVM_IS_OK
# UVM_INFO @ 1012000: reporter [RegModel] Read  register via map regmodel.ahb_map: regmodel.FSR=9
# UVM_INFO ./../testcases/full_tx_fifo_test.sv(135) @ 1012000: uvm_test_top [full_tx_fifo_test] i = 18
# UVM_INFO ./../regmodel/uart_reg2ahb_adapter.sv(27) @ 1012000: reporter [uart_reg2ahb_adapter] reg2bus: addr = 0x18, data = 0x29, kind = WRITE
# UVM_INFO ./../vip/ahb_vip/ahb_driver.sv(65) @ 1012000: uvm_test_top.env.ahb_agt.drv [ahb_driver] WRITE! addr = 18, data = 29
# UVM_INFO ./../vip/ahb_vip/ahb_monitor.sv(45) @ 1012000: uvm_test_top.env.ahb_agt.mnt [ahb_monitor] Observed transaction: 
# ----------------------------------------------
# Name          Type             Size  Value    
# ----------------------------------------------
# trans         ahb_transaction  -     @2899    
#   xact_type   xact_type_enum   1     WRITE    
#   xfer_size   xfer_size_enum   3     SIZE_8BIT
#   burst_type  burst_type_enum  3     SINGLE   
#   addr        integral         10    'h18     
#   data        integral         32    'h29     
#   prot        integral         4     'h0      
#   lock        integral         1     'h0      
# ----------------------------------------------
# 
# UVM_INFO ./../regmodel/uart_reg2ahb_adapter.sv(42) @ 1012000: reporter [uart_reg2ahb_adapter] bus2reg: addr = 0x18, data = 0x29, kind = UVM_WRITE, status = UVM_IS_OK
# UVM_INFO /ictc/other/tools/QuestaDVA/questasim/verilog_src/uvm-1.2/src/reg/uvm_reg_predictor.svh(221) @ 1012000: uvm_test_top.env.ahb_predictor [REG_PREDICT] Observed WRITE transaction to register regmodel.TBR: value='h29 : updated value = 'h29
# UVM_INFO ./../tb/uart_scoreboard.sv(80) @ 1012000: uvm_test_top.env.scb [write_rx] Add AHB's drive trans into queue
# UVM_INFO ./../regmodel/uart_reg2ahb_adapter.sv(42) @ 1012000: reporter [uart_reg2ahb_adapter] bus2reg: addr = 0x18, data = 0x29, kind = UVM_WRITE, status = UVM_IS_OK
# UVM_INFO @ 1012000: reporter [RegModel] Wrote register via map regmodel.ahb_map: regmodel.TBR=0x29
# UVM_INFO ./../regmodel/uart_reg2ahb_adapter.sv(27) @ 1012000: reporter [uart_reg2ahb_adapter] reg2bus: addr = 0x14, data = 0x0, kind = READ
# UVM_INFO ./../vip/ahb_vip/ahb_driver.sv(63) @ 1012000: uvm_test_top.env.ahb_agt.drv [ahb_driver] READ! addr = 14, data = 0
# UVM_INFO ./../vip/ahb_vip/ahb_monitor.sv(45) @ 1012000: uvm_test_top.env.ahb_agt.mnt [ahb_monitor] Observed transaction: 
# ----------------------------------------------
# Name          Type             Size  Value    
# ----------------------------------------------
# trans         ahb_transaction  -     @2943    
#   xact_type   xact_type_enum   1     READ     
#   xfer_size   xfer_size_enum   3     SIZE_8BIT
#   burst_type  burst_type_enum  3     SINGLE   
#   addr        integral         10    'h14     
#   data        integral         32    'h9      
#   prot        integral         4     'h0      
#   lock        integral         1     'h0      
# ----------------------------------------------
# 
# UVM_INFO ./../regmodel/uart_reg2ahb_adapter.sv(42) @ 1012000: reporter [uart_reg2ahb_adapter] bus2reg: addr = 0x14, data = 0x9, kind = UVM_READ, status = UVM_IS_OK
# UVM_INFO /ictc/other/tools/QuestaDVA/questasim/verilog_src/uvm-1.2/src/reg/uvm_reg_predictor.svh(225) @ 1012000: uvm_test_top.env.ahb_predictor [REG_PREDICT] Observed READ transaction to register regmodel.FSR: value='h9
# UVM_INFO ./../tb/uart_scoreboard.sv(143) @ 1012000: uvm_test_top.env.scb [full_tx_fifo_compare] FULL TX FIFO COMPARATIVE
# ============================================================================================================================
# UVM_INFO ./../tb/uart_scoreboard.sv(155) @ 1012000: uvm_test_top.env.scb [uart_scoreboard] PASSED! Parity error status is correct. Exp: 1, Act: 1
# ============================================================================================================================
# UVM_INFO ./../regmodel/uart_reg2ahb_adapter.sv(42) @ 1012000: reporter [uart_reg2ahb_adapter] bus2reg: addr = 0x14, data = 0x9, kind = UVM_READ, status = UVM_IS_OK
# UVM_INFO @ 1012000: reporter [RegModel] Read  register via map regmodel.ahb_map: regmodel.FSR=9
# UVM_INFO ./../testcases/full_tx_fifo_test.sv(135) @ 1012000: uvm_test_top [full_tx_fifo_test] i = 19
# UVM_INFO ./../regmodel/uart_reg2ahb_adapter.sv(27) @ 1012000: reporter [uart_reg2ahb_adapter] reg2bus: addr = 0x18, data = 0x7c, kind = WRITE
# UVM_INFO ./../vip/ahb_vip/ahb_driver.sv(65) @ 1012000: uvm_test_top.env.ahb_agt.drv [ahb_driver] WRITE! addr = 18, data = 7c
# UVM_INFO ./../vip/ahb_vip/ahb_monitor.sv(45) @ 1012000: uvm_test_top.env.ahb_agt.mnt [ahb_monitor] Observed transaction: 
# ----------------------------------------------
# Name          Type             Size  Value    
# ----------------------------------------------
# trans         ahb_transaction  -     @2987    
#   xact_type   xact_type_enum   1     WRITE    
#   xfer_size   xfer_size_enum   3     SIZE_8BIT
#   burst_type  burst_type_enum  3     SINGLE   
#   addr        integral         10    'h18     
#   data        integral         32    'h7c     
#   prot        integral         4     'h0      
#   lock        integral         1     'h0      
# ----------------------------------------------
# 
# UVM_INFO ./../regmodel/uart_reg2ahb_adapter.sv(42) @ 1012000: reporter [uart_reg2ahb_adapter] bus2reg: addr = 0x18, data = 0x7c, kind = UVM_WRITE, status = UVM_IS_OK
# UVM_INFO /ictc/other/tools/QuestaDVA/questasim/verilog_src/uvm-1.2/src/reg/uvm_reg_predictor.svh(221) @ 1012000: uvm_test_top.env.ahb_predictor [REG_PREDICT] Observed WRITE transaction to register regmodel.TBR: value='h7c : updated value = 'h7c
# UVM_INFO ./../tb/uart_scoreboard.sv(80) @ 1012000: uvm_test_top.env.scb [write_rx] Add AHB's drive trans into queue
# UVM_INFO ./../regmodel/uart_reg2ahb_adapter.sv(42) @ 1012000: reporter [uart_reg2ahb_adapter] bus2reg: addr = 0x18, data = 0x7c, kind = UVM_WRITE, status = UVM_IS_OK
