# vsim -sv_seed 2 -voptargs="+acc" -assertdebug -c testbench -do " log -r /*;run -all;" -l full_tx_fifo_test_2.log "+UVM_TESTNAME=full_tx_fifo_test" "+UVM_VERBOSITY=UVM_HIGH" 
# Start time: 14:13:16 on Aug 02,2026
# Loading /tmp/vannghia_1108@ictc-eda-ldap.ipa.test_dpi_59886/linux_x86_64_gcc-11/export_tramp.so
# ** Note: (vsim-8009) Loading existing optimized design _opt
# //  Questa Sim-64
# //  Version 10.6d_1 linux_x86_64 Apr 11 2018
# //
# //  Copyright 1991-2018 Mentor Graphics Corporation
# //  All Rights Reserved.
# //
# //  QuestaSim and its associated documentation contain trade
# //  secrets and commercial or financial information that are the property of
# //  Mentor Graphics Corporation and are privileged, confidential,
# //  and exempt from disclosure under the Freedom of Information Act,
# //  5 U.S.C. Section 552. Furthermore, this information
# //  is prohibited from disclosure under the Trade Secrets Act,
# //  18 U.S.C. Section 1905.
# //
# Loading sv_std.std
# Loading work.uart_if(fast)
# Loading work.ahb_if(fast)
# Loading work.uvm_pkg(fast)
# Loading work.ahb_pkg(fast)
# ** Note: (vsim-8785) UVM-aware debugging capabilities will be disabled since no compiled "questa_uvm_pkg" can be found.
# This also means that later if you turn on UVM-aware debugging your debug simulations may have
# different random seeds from your non-debug simulations.
# Loading work.uart_pkg(fast)
# Loading work.seq_pkg(fast)
# Loading work.uart_register_pkg(fast)
# Loading work.uart_regmodel_pkg(fast)
# Loading work.env_pkg(fast)
# Loading work.test_pkg(fast)
# Loading work.testbench(fast)
# Loading work.ahb_if(fast)
# Loading work.uart_if(fast)
# Loading work.uart_top(fast)
# Loading work.cmsdk_ahb_to_apb(fast)
# Loading work.apb_decoder(fast)
# Loading work.uart_fifo(fast)
# Loading work.uart_transmitter(fast)
# Loading work.uart_receiver(fast)
# Loading work.uart_interrupt(fast)
# Loading work.baud_generator(fast)
# Compiling /tmp/vannghia_1108@ictc-eda-ldap.ipa.test_dpi_59886/linux_x86_64_gcc-5.3.0/exportwrapper.c
# Compiling /tmp/vannghia_1108@ictc-eda-ldap.ipa.test_dpi_59886/linux_x86_64_gcc-11/exportwrapper.c
# Loading /tmp/vannghia_1108@ictc-eda-ldap.ipa.test_dpi_59886/linux_x86_64_gcc-11/vsim_auto_compile.so
#  log -r /*
# run -all
# UVM_INFO /ictc/other/tools/QuestaDVA/questasim/verilog_src/uvm-1.2/src/base/uvm_root.svh(392) @ 0: reporter [UVM/RELNOTES] 
# ----------------------------------------------------------------
# UVM-1.2
# (C) 2007-2014 Mentor Graphics Corporation
# (C) 2007-2014 Cadence Design Systems, Inc.
# (C) 2006-2014 Synopsys, Inc.
# (C) 2011-2013 Cypress Semiconductor Corp.
# (C) 2013-2014 NVIDIA Corporation
# ----------------------------------------------------------------
# 
#   ***********       IMPORTANT RELEASE NOTES         ************
# 
#   You are using a version of the UVM library that has been compiled
#   with `UVM_NO_DEPRECATED undefined.
#   See http://www.eda.org/svdb/view.php?id=3313 for more details.
# 
#   You are using a version of the UVM library that has been compiled
#   with `UVM_OBJECT_DO_NOT_NEED_CONSTRUCTOR undefined.
#   See http://www.eda.org/svdb/view.php?id=3770 for more details.
# 
#       (Specify +UVM_NO_RELNOTES to turn off this notice)
# 
# UVM_INFO /ictc/other/tools/QuestaDVA/questasim/verilog_src/uvm-1.2/src/base/uvm_root.svh(453) @ 0: reporter [NO_DPI_TSTNAME] UVM_NO_DPI defined--getting UVM_TESTNAME directly, without DPI
# UVM_INFO @ 0: reporter [RNTST] Running test full_tx_fifo_test...
# UVM_INFO ./../testcases/uart_base_test.sv(19) @ 0: uvm_test_top [build_phase] Entered...
# UVM_INFO ./../testcases/uart_base_test.sv(34) @ 0: uvm_test_top [build_phase] Exiting...
# UVM_INFO ./../tb/uart_environment.sv(21) @ 0: uvm_test_top.env [build phase] Entered...
# UVM_INFO ./../tb/uart_environment.sv(45) @ 0: uvm_test_top.env [build_phase] Exiting...
# UVM_INFO ./../vip/ahb_vip/ahb_agent.sv(16) @ 0: uvm_test_top.env.ahb_agt [build_phase] Entered...
# UVM_INFO ./../vip/ahb_vip/ahb_agent.sv(21) @ 0: uvm_test_top.env.ahb_agt [ahb_agent] Active agent is configued
# UVM_INFO ./../vip/ahb_vip/ahb_agent.sv(31) @ 0: uvm_test_top.env.ahb_agt [build_phase] Exiting...
# UVM_INFO ./../vip/ahb_vip/ahb_driver.sv(12) @ 0: uvm_test_top.env.ahb_agt.drv [build_phase] Entered...
# UVM_INFO ./../vip/ahb_vip/ahb_driver.sv(17) @ 0: uvm_test_top.env.ahb_agt.drv [build_phase] Exiting...
# UVM_INFO ./../vip/ahb_vip/ahb_monitor.sv(16) @ 0: uvm_test_top.env.ahb_agt.mnt [build_phase] Entered...
# UVM_INFO ./../vip/ahb_vip/ahb_monitor.sv(21) @ 0: uvm_test_top.env.ahb_agt.mnt [build_phase] Exiting...
# UVM_INFO ./../tb/uart_scoreboard.sv(46) @ 0: uvm_test_top.env.scb [build_phase] Entered...
# UVM_INFO ./../tb/uart_scoreboard.sv(53) @ 0: uvm_test_top.env.scb [build_phase] Exiting...
# UVM_INFO ./../vip/uart_vip/uart_agent.sv(17) @ 0: uvm_test_top.env.uart_agt [build_phase] Entered...
# UVM_INFO ./../vip/uart_vip/uart_agent.sv(28) @ 0: uvm_test_top.env.uart_agt [uart_agent] Active agent is configured
# UVM_INFO ./../vip/uart_vip/uart_agent.sv(43) @ 0: uvm_test_top.env.uart_agt [build_phase] Exiting...
# UVM_INFO ./../vip/uart_vip/uart_driver.sv(19) @ 0: uvm_test_top.env.uart_agt.drv [build_phase] Entered...
# UVM_INFO ./../vip/uart_vip/uart_driver.sv(30) @ 0: uvm_test_top.env.uart_agt.drv [build_phase] Exiting...
# UVM_INFO ./../vip/uart_vip/uart_monitor.sv(20) @ 0: uvm_test_top.env.uart_agt.mnt [build_phase] Entered...
# UVM_INFO ./../vip/uart_vip/uart_monitor.sv(31) @ 0: uvm_test_top.env.uart_agt.mnt [build_phase] Exiting...
# UVM_INFO /ictc/other/tools/QuestaDVA/questasim/verilog_src/uvm-1.2/src/base/uvm_root.svh(579) @ 0: reporter [UVMTOP] UVM testbench topology:
# --------------------------------------------------------------------------------
# Name                           Type                                  Size  Value
# --------------------------------------------------------------------------------
# uvm_test_top                   full_tx_fifo_test                     -     @347 
#   env                          uart_environment                      -     @364 
#     ahb_agt                    ahb_agent                             -     @399 
#       drv                      ahb_driver                            -     @511 
#         rsp_port               uvm_analysis_port                     -     @530 
#         seq_item_port          uvm_seq_item_pull_port                -     @520 
#       mnt                      ahb_monitor                           -     @677 
#         ahb_observed_port      uvm_analysis_port                     -     @686 
#       seq                      ahb_sequencer                         -     @540 
#         rsp_export             uvm_analysis_export                   -     @549 
#         seq_item_export        uvm_seq_item_pull_imp                 -     @667 
#         arbitration_queue      array                                 0     -    
#         lock_queue             array                                 0     -    
#         num_last_reqs          integral                              32    'd1  
#         num_last_rsps          integral                              32    'd1  
#     ahb_predictor              uvm_reg_predictor #(ahb_transaction)  -     @417 
#       bus_in                   uvm_analysis_imp                      -     @426 
#       reg_ap                   uvm_analysis_port                     -     @436 
#     scb                        uart_scoreboard                       -     @408 
#       ahb_export               uvm_analysis_imp_ahb                  -     @738 
#       uart_rx_export           uvm_analysis_imp_rx                   -     @728 
#       uart_tx_export           uvm_analysis_imp_tx                   -     @718 
#     uart_agt                   uart_agent                            -     @390 
#       drv                      uart_driver                           -     @896 
#         item_observed_port     uvm_analysis_port                     -     @925 
#         rsp_port               uvm_analysis_port                     -     @915 
#         seq_item_port          uvm_seq_item_pull_port                -     @905 
#       mnt                      uart_monitor                          -     @935 
#         uart_observed_port_rx  uvm_analysis_port                     -     @954 
#         uart_observed_port_tx  uvm_analysis_port                     -     @944 
#       seq                      uart_sequencer                        -     @759 
#         rsp_export             uvm_analysis_export                   -     @768 
#         seq_item_export        uvm_seq_item_pull_imp                 -     @886 
#         arbitration_queue      array                                 0     -    
#         lock_queue             array                                 0     -    
#         num_last_reqs          integral                              32    'd1  
#         num_last_rsps          integral                              32    'd1  
# --------------------------------------------------------------------------------
# 
# UVM_INFO /ictc/other/tools/QuestaDVA/questasim/verilog_src/uvm-1.2/src/base/uvm_traversal.svh(279) @ 0: reporter [UVM/COMP/NAMECHECK] This implementation of the component name checks requires DPI to be enabled
# UVM_INFO ./../vip/uart_vip/uart_monitor.sv(35) @ 0: uvm_test_top.env.uart_agt.mnt [run_phase] Entered...
# UVM_INFO ./../vip/uart_vip/uart_driver.sv(34) @ 0: uvm_test_top.env.uart_agt.drv [run_phase] Entered...
# UVM_INFO ./../vip/ahb_vip/ahb_monitor.sv(25) @ 0: uvm_test_top.env.ahb_agt.mnt [run_phase] Entered...
# UVM_INFO ./../vip/ahb_vip/ahb_driver.sv(22) @ 0: uvm_test_top.env.ahb_agt.drv [run_phase] Entered...
# ============================================================================================================================
# =================================================  ### FULL TX FIFO  ###  ==================================================
# ============================================================================================================================
# UVM_INFO ./../testcases/full_tx_fifo_test.sv(32) @ 10000: uvm_test_top [run_phase] Configuration randomize is: 
# -------------------------------------------------------
# Name               Type                 Size  Value    
# -------------------------------------------------------
# cfg                uart_configuration   -     @373     
#   parity_mode      parity_mode_config   2     EVEN     
#   data_width       integral             32    'd7      
#   num_of_stop_bit  integral             32    'd2      
#   baud_rate        integral             32    'd1634790
#   ovsmpl           ovs_config           1     X13      
#   parity_error     parity_error_config  1     NORMAL   
#   uart_mode        mode_config          1     RX       
# -------------------------------------------------------
# 
# UVM_INFO ./../regmodel/uart_reg2ahb_adapter.sv(27) @ 10000: reporter [uart_reg2ahb_adapter] reg2bus: addr = 0x0, data = 0x1, kind = WRITE
# UVM_INFO ./../vip/ahb_vip/ahb_driver.sv(65) @ 10000: uvm_test_top.env.ahb_agt.drv [ahb_driver] WRITE! addr = 0, data = 1
# UVM_INFO ./../vip/ahb_vip/ahb_monitor.sv(45) @ 10000: uvm_test_top.env.ahb_agt.mnt [ahb_monitor] Observed transaction: 
# ----------------------------------------------
# Name          Type             Size  Value    
# ----------------------------------------------
# trans         ahb_transaction  -     @1026    
#   xact_type   xact_type_enum   1     WRITE    
#   xfer_size   xfer_size_enum   3     SIZE_8BIT
#   burst_type  burst_type_enum  3     SINGLE   
#   addr        integral         10    'h0      
#   data        integral         32    'h1      
#   prot        integral         4     'h0      
#   lock        integral         1     'h0      
# ----------------------------------------------
# 
# UVM_INFO ./../regmodel/uart_reg2ahb_adapter.sv(42) @ 10000: reporter [uart_reg2ahb_adapter] bus2reg: addr = 0x0, data = 0x1, kind = UVM_WRITE, status = UVM_IS_OK
# UVM_INFO /ictc/other/tools/QuestaDVA/questasim/verilog_src/uvm-1.2/src/reg/uvm_reg_predictor.svh(221) @ 10000: uvm_test_top.env.ahb_predictor [REG_PREDICT] Observed WRITE transaction to register regmodel.MDR: value='h1 : updated value = 'h1
# UVM_INFO ./../regmodel/uart_reg2ahb_adapter.sv(42) @ 10000: reporter [uart_reg2ahb_adapter] bus2reg: addr = 0x0, data = 0x1, kind = UVM_WRITE, status = UVM_IS_OK
# UVM_INFO @ 10000: reporter [RegModel] Wrote register via map regmodel.ahb_map: regmodel.MDR=0x1
# UVM_INFO ./../regmodel/uart_reg2ahb_adapter.sv(27) @ 10000: reporter [uart_reg2ahb_adapter] reg2bus: addr = 0xc, data = 0x0, kind = WRITE
# UVM_INFO ./../vip/ahb_vip/ahb_driver.sv(65) @ 10000: uvm_test_top.env.ahb_agt.drv [ahb_driver] WRITE! addr = c, data = 0
# UVM_INFO ./../vip/ahb_vip/ahb_monitor.sv(45) @ 10000: uvm_test_top.env.ahb_agt.mnt [ahb_monitor] Observed transaction: 
# ----------------------------------------------
# Name          Type             Size  Value    
# ----------------------------------------------
# trans         ahb_transaction  -     @1113    
#   xact_type   xact_type_enum   1     WRITE    
#   xfer_size   xfer_size_enum   3     SIZE_8BIT
#   burst_type  burst_type_enum  3     SINGLE   
#   addr        integral         10    'hc      
#   data        integral         32    'h0      
#   prot        integral         4     'h0      
#   lock        integral         1     'h0      
# ----------------------------------------------
# 
# UVM_INFO ./../regmodel/uart_reg2ahb_adapter.sv(42) @ 10000: reporter [uart_reg2ahb_adapter] bus2reg: addr = 0xc, data = 0x0, kind = UVM_WRITE, status = UVM_IS_OK
# UVM_INFO /ictc/other/tools/QuestaDVA/questasim/verilog_src/uvm-1.2/src/reg/uvm_reg_predictor.svh(221) @ 10000: uvm_test_top.env.ahb_predictor [REG_PREDICT] Observed WRITE transaction to register regmodel.LCR: value='h0 : updated value = 'h0
# UVM_INFO ./../regmodel/uart_reg2ahb_adapter.sv(42) @ 10000: reporter [uart_reg2ahb_adapter] bus2reg: addr = 0xc, data = 0x0, kind = UVM_WRITE, status = UVM_IS_OK
# UVM_INFO @ 10000: reporter [RegModel] Wrote register via map regmodel.ahb_map: regmodel.LCR=0x0
# UVM_INFO ./../regmodel/uart_reg2ahb_adapter.sv(27) @ 10000: reporter [uart_reg2ahb_adapter] reg2bus: addr = 0x4, data = 0x4, kind = WRITE
# UVM_INFO ./../vip/ahb_vip/ahb_driver.sv(65) @ 10000: uvm_test_top.env.ahb_agt.drv [ahb_driver] WRITE! addr = 4, data = 4
# UVM_INFO ./../vip/ahb_vip/ahb_monitor.sv(45) @ 10000: uvm_test_top.env.ahb_agt.mnt [ahb_monitor] Observed transaction: 
# ----------------------------------------------
# Name          Type             Size  Value    
# ----------------------------------------------
# trans         ahb_transaction  -     @1153    
#   xact_type   xact_type_enum   1     WRITE    
#   xfer_size   xfer_size_enum   3     SIZE_8BIT
#   burst_type  burst_type_enum  3     SINGLE   
#   addr        integral         10    'h4      
#   data        integral         32    'h4      
#   prot        integral         4     'h0      
#   lock        integral         1     'h0      
# ----------------------------------------------
# 
# UVM_INFO ./../regmodel/uart_reg2ahb_adapter.sv(42) @ 10000: reporter [uart_reg2ahb_adapter] bus2reg: addr = 0x4, data = 0x4, kind = UVM_WRITE, status = UVM_IS_OK
# UVM_INFO /ictc/other/tools/QuestaDVA/questasim/verilog_src/uvm-1.2/src/reg/uvm_reg_predictor.svh(221) @ 10000: uvm_test_top.env.ahb_predictor [REG_PREDICT] Observed WRITE transaction to register regmodel.DLL: value='h4 : updated value = 'h4
# UVM_INFO ./../regmodel/uart_reg2ahb_adapter.sv(42) @ 10000: reporter [uart_reg2ahb_adapter] bus2reg: addr = 0x4, data = 0x4, kind = UVM_WRITE, status = UVM_IS_OK
# UVM_INFO @ 10000: reporter [RegModel] Wrote register via map regmodel.ahb_map: regmodel.DLL=0x4
# UVM_INFO ./../regmodel/uart_reg2ahb_adapter.sv(27) @ 10000: reporter [uart_reg2ahb_adapter] reg2bus: addr = 0x8, data = 0x0, kind = WRITE
# UVM_INFO ./../vip/ahb_vip/ahb_driver.sv(65) @ 10000: uvm_test_top.env.ahb_agt.drv [ahb_driver] WRITE! addr = 8, data = 0
# UVM_INFO ./../vip/ahb_vip/ahb_monitor.sv(45) @ 10000: uvm_test_top.env.ahb_agt.mnt [ahb_monitor] Observed transaction: 
# ----------------------------------------------
# Name          Type             Size  Value    
# ----------------------------------------------
# trans         ahb_transaction  -     @1193    
#   xact_type   xact_type_enum   1     WRITE    
#   xfer_size   xfer_size_enum   3     SIZE_8BIT
#   burst_type  burst_type_enum  3     SINGLE   
#   addr        integral         10    'h8      
#   data        integral         32    'h0      
#   prot        integral         4     'h0      
#   lock        integral         1     'h0      
# ----------------------------------------------
# 
# UVM_INFO ./../regmodel/uart_reg2ahb_adapter.sv(42) @ 10000: reporter [uart_reg2ahb_adapter] bus2reg: addr = 0x8, data = 0x0, kind = UVM_WRITE, status = UVM_IS_OK
# UVM_INFO /ictc/other/tools/QuestaDVA/questasim/verilog_src/uvm-1.2/src/reg/uvm_reg_predictor.svh(221) @ 10000: uvm_test_top.env.ahb_predictor [REG_PREDICT] Observed WRITE transaction to register regmodel.DLH: value='h0 : updated value = 'h0
# UVM_INFO ./../regmodel/uart_reg2ahb_adapter.sv(42) @ 10000: reporter [uart_reg2ahb_adapter] bus2reg: addr = 0x8, data = 0x0, kind = UVM_WRITE, status = UVM_IS_OK
# UVM_INFO @ 10000: reporter [RegModel] Wrote register via map regmodel.ahb_map: regmodel.DLH=0x0
# UVM_INFO ./../regmodel/uart_reg2ahb_adapter.sv(27) @ 10000: reporter [uart_reg2ahb_adapter] reg2bus: addr = 0xc, data = 0x1e, kind = WRITE
# UVM_INFO ./../vip/ahb_vip/ahb_driver.sv(65) @ 10000: uvm_test_top.env.ahb_agt.drv [ahb_driver] WRITE! addr = c, data = 1e
# UVM_INFO ./../vip/ahb_vip/ahb_monitor.sv(45) @ 10000: uvm_test_top.env.ahb_agt.mnt [ahb_monitor] Observed transaction: 
# ----------------------------------------------
# Name          Type             Size  Value    
# ----------------------------------------------
# trans         ahb_transaction  -     @1233    
#   xact_type   xact_type_enum   1     WRITE    
#   xfer_size   xfer_size_enum   3     SIZE_8BIT
#   burst_type  burst_type_enum  3     SINGLE   
#   addr        integral         10    'hc      
#   data        integral         32    'h1e     
#   prot        integral         4     'h0      
#   lock        integral         1     'h0      
# ----------------------------------------------
# 
# UVM_INFO ./../regmodel/uart_reg2ahb_adapter.sv(42) @ 10000: reporter [uart_reg2ahb_adapter] bus2reg: addr = 0xc, data = 0x1e, kind = UVM_WRITE, status = UVM_IS_OK
# UVM_INFO /ictc/other/tools/QuestaDVA/questasim/verilog_src/uvm-1.2/src/reg/uvm_reg_predictor.svh(221) @ 10000: uvm_test_top.env.ahb_predictor [REG_PREDICT] Observed WRITE transaction to register regmodel.LCR: value='h1e : updated value = 'h1e
# UVM_INFO ./../regmodel/uart_reg2ahb_adapter.sv(42) @ 10000: reporter [uart_reg2ahb_adapter] bus2reg: addr = 0xc, data = 0x1e, kind = UVM_WRITE, status = UVM_IS_OK
# UVM_INFO @ 10000: reporter [RegModel] Wrote register via map regmodel.ahb_map: regmodel.LCR=0x1e
# UVM_INFO ./../regmodel/uart_reg2ahb_adapter.sv(27) @ 10000: reporter [uart_reg2ahb_adapter] reg2bus: addr = 0x14, data = 0x0, kind = READ
# UVM_INFO ./../vip/ahb_vip/ahb_driver.sv(63) @ 10000: uvm_test_top.env.ahb_agt.drv [ahb_driver] READ! addr = 14, data = 0
# UVM_INFO ./../vip/ahb_vip/ahb_monitor.sv(45) @ 10000: uvm_test_top.env.ahb_agt.mnt [ahb_monitor] Observed transaction: 
# ----------------------------------------------
# Name          Type             Size  Value    
# ----------------------------------------------
# trans         ahb_transaction  -     @1273    
#   xact_type   xact_type_enum   1     READ     
#   xfer_size   xfer_size_enum   3     SIZE_8BIT
#   burst_type  burst_type_enum  3     SINGLE   
#   addr        integral         10    'h14     
#   data        integral         32    'ha      
#   prot        integral         4     'h0      
#   lock        integral         1     'h0      
# ----------------------------------------------
# 
# UVM_INFO ./../regmodel/uart_reg2ahb_adapter.sv(42) @ 10000: reporter [uart_reg2ahb_adapter] bus2reg: addr = 0x14, data = 0xa, kind = UVM_READ, status = UVM_IS_OK
# UVM_INFO /ictc/other/tools/QuestaDVA/questasim/verilog_src/uvm-1.2/src/reg/uvm_reg_predictor.svh(225) @ 10000: uvm_test_top.env.ahb_predictor [REG_PREDICT] Observed READ transaction to register regmodel.FSR: value='ha
# UVM_INFO ./../tb/uart_scoreboard.sv(148) @ 10000: uvm_test_top.env.scb [full_tx_fifo_compare] FULL TX FIFO COMPARATIVE
# size = 0
# ============================================================================================================================
# UVM_INFO ./../tb/uart_scoreboard.sv(156) @ 10000: uvm_test_top.env.scb [uart_scoreboard] PASSED! Parity error status is correct. Exp: 0, Act: 0
# ============================================================================================================================
# UVM_INFO ./../regmodel/uart_reg2ahb_adapter.sv(42) @ 10000: reporter [uart_reg2ahb_adapter] bus2reg: addr = 0x14, data = 0xa, kind = UVM_READ, status = UVM_IS_OK
# UVM_INFO @ 10000: reporter [RegModel] Read  register via map regmodel.ahb_map: regmodel.FSR=a
# UVM_INFO ./../testcases/full_tx_fifo_test.sv(110) @ 1010000: uvm_test_top [full_tx_fifo_test] i = 1
# UVM_INFO ./../regmodel/uart_reg2ahb_adapter.sv(27) @ 1010000: reporter [uart_reg2ahb_adapter] reg2bus: addr = 0x18, data = 0x25, kind = WRITE
# UVM_INFO ./../vip/ahb_vip/ahb_driver.sv(65) @ 1010000: uvm_test_top.env.ahb_agt.drv [ahb_driver] WRITE! addr = 18, data = 25
# UVM_INFO ./../vip/ahb_vip/ahb_monitor.sv(45) @ 1010000: uvm_test_top.env.ahb_agt.mnt [ahb_monitor] Observed transaction: 
# ----------------------------------------------
# Name          Type             Size  Value    
# ----------------------------------------------
# trans         ahb_transaction  -     @1317    
#   xact_type   xact_type_enum   1     WRITE    
#   xfer_size   xfer_size_enum   3     SIZE_8BIT
#   burst_type  burst_type_enum  3     SINGLE   
#   addr        integral         10    'h18     
#   data        integral         32    'h25     
#   prot        integral         4     'h0      
#   lock        integral         1     'h0      
# ----------------------------------------------
# 
# UVM_INFO ./../regmodel/uart_reg2ahb_adapter.sv(42) @ 1010000: reporter [uart_reg2ahb_adapter] bus2reg: addr = 0x18, data = 0x25, kind = UVM_WRITE, status = UVM_IS_OK
# UVM_INFO /ictc/other/tools/QuestaDVA/questasim/verilog_src/uvm-1.2/src/reg/uvm_reg_predictor.svh(221) @ 1010000: uvm_test_top.env.ahb_predictor [REG_PREDICT] Observed WRITE transaction to register regmodel.TBR: value='h25 : updated value = 'h25
# UVM_INFO ./../tb/uart_scoreboard.sv(80) @ 1010000: uvm_test_top.env.scb [write_rx] Add AHB's drive trans into queue
# UVM_INFO ./../regmodel/uart_reg2ahb_adapter.sv(42) @ 1010000: reporter [uart_reg2ahb_adapter] bus2reg: addr = 0x18, data = 0x25, kind = UVM_WRITE, status = UVM_IS_OK
# UVM_INFO @ 1010000: reporter [RegModel] Wrote register via map regmodel.ahb_map: regmodel.TBR=0x25
# UVM_INFO ./../testcases/full_tx_fifo_test.sv(110) @ 1010000: uvm_test_top [full_tx_fifo_test] i = 2
# UVM_INFO ./../regmodel/uart_reg2ahb_adapter.sv(27) @ 1010000: reporter [uart_reg2ahb_adapter] reg2bus: addr = 0x18, data = 0x3e, kind = WRITE
# UVM_INFO ./../vip/ahb_vip/ahb_driver.sv(65) @ 1010000: uvm_test_top.env.ahb_agt.drv [ahb_driver] WRITE! addr = 18, data = 3e
# UVM_INFO ./../vip/ahb_vip/ahb_monitor.sv(45) @ 1010000: uvm_test_top.env.ahb_agt.mnt [ahb_monitor] Observed transaction: 
# ----------------------------------------------
# Name          Type             Size  Value    
# ----------------------------------------------
# trans         ahb_transaction  -     @1361    
#   xact_type   xact_type_enum   1     WRITE    
#   xfer_size   xfer_size_enum   3     SIZE_8BIT
#   burst_type  burst_type_enum  3     SINGLE   
#   addr        integral         10    'h18     
#   data        integral         32    'h3e     
#   prot        integral         4     'h0      
#   lock        integral         1     'h0      
# ----------------------------------------------
# 
# UVM_INFO ./../regmodel/uart_reg2ahb_adapter.sv(42) @ 1010000: reporter [uart_reg2ahb_adapter] bus2reg: addr = 0x18, data = 0x3e, kind = UVM_WRITE, status = UVM_IS_OK
# UVM_INFO /ictc/other/tools/QuestaDVA/questasim/verilog_src/uvm-1.2/src/reg/uvm_reg_predictor.svh(221) @ 1010000: uvm_test_top.env.ahb_predictor [REG_PREDICT] Observed WRITE transaction to register regmodel.TBR: value='h3e : updated value = 'h3e
# UVM_INFO ./../tb/uart_scoreboard.sv(80) @ 1010000: uvm_test_top.env.scb [write_rx] Add AHB's drive trans into queue
# UVM_INFO ./../regmodel/uart_reg2ahb_adapter.sv(42) @ 1010000: reporter [uart_reg2ahb_adapter] bus2reg: addr = 0x18, data = 0x3e, kind = UVM_WRITE, status = UVM_IS_OK
# UVM_INFO @ 1010000: reporter [RegModel] Wrote register via map regmodel.ahb_map: regmodel.TBR=0x3e
# UVM_INFO ./../testcases/full_tx_fifo_test.sv(110) @ 1010000: uvm_test_top [full_tx_fifo_test] i = 3
# UVM_INFO ./../regmodel/uart_reg2ahb_adapter.sv(27) @ 1010000: reporter [uart_reg2ahb_adapter] reg2bus: addr = 0x18, data = 0x49, kind = WRITE
# UVM_INFO ./../vip/ahb_vip/ahb_driver.sv(65) @ 1010000: uvm_test_top.env.ahb_agt.drv [ahb_driver] WRITE! addr = 18, data = 49
# UVM_INFO ./../vip/ahb_vip/ahb_monitor.sv(45) @ 1010000: uvm_test_top.env.ahb_agt.mnt [ahb_monitor] Observed transaction: 
# ----------------------------------------------
# Name          Type             Size  Value    
# ----------------------------------------------
# trans         ahb_transaction  -     @1405    
#   xact_type   xact_type_enum   1     WRITE    
#   xfer_size   xfer_size_enum   3     SIZE_8BIT
#   burst_type  burst_type_enum  3     SINGLE   
#   addr        integral         10    'h18     
#   data        integral         32    'h49     
#   prot        integral         4     'h0      
#   lock        integral         1     'h0      
# ----------------------------------------------
# 
# UVM_INFO ./../regmodel/uart_reg2ahb_adapter.sv(42) @ 1010000: reporter [uart_reg2ahb_adapter] bus2reg: addr = 0x18, data = 0x49, kind = UVM_WRITE, status = UVM_IS_OK
# UVM_INFO /ictc/other/tools/QuestaDVA/questasim/verilog_src/uvm-1.2/src/reg/uvm_reg_predictor.svh(221) @ 1010000: uvm_test_top.env.ahb_predictor [REG_PREDICT] Observed WRITE transaction to register regmodel.TBR: value='h49 : updated value = 'h49
# UVM_INFO ./../tb/uart_scoreboard.sv(80) @ 1010000: uvm_test_top.env.scb [write_rx] Add AHB's drive trans into queue
# UVM_INFO ./../regmodel/uart_reg2ahb_adapter.sv(42) @ 1010000: reporter [uart_reg2ahb_adapter] bus2reg: addr = 0x18, data = 0x49, kind = UVM_WRITE, status = UVM_IS_OK
# UVM_INFO @ 1010000: reporter [RegModel] Wrote register via map regmodel.ahb_map: regmodel.TBR=0x49
# UVM_INFO ./../testcases/full_tx_fifo_test.sv(110) @ 1010000: uvm_test_top [full_tx_fifo_test] i = 4
# UVM_INFO ./../regmodel/uart_reg2ahb_adapter.sv(27) @ 1010000: reporter [uart_reg2ahb_adapter] reg2bus: addr = 0x18, data = 0x1b, kind = WRITE
# UVM_INFO ./../vip/ahb_vip/ahb_driver.sv(65) @ 1011000: uvm_test_top.env.ahb_agt.drv [ahb_driver] WRITE! addr = 18, data = 1b
# UVM_INFO ./../vip/ahb_vip/ahb_monitor.sv(45) @ 1011000: uvm_test_top.env.ahb_agt.mnt [ahb_monitor] Observed transaction: 
# ----------------------------------------------
# Name          Type             Size  Value    
# ----------------------------------------------
# trans         ahb_transaction  -     @1449    
#   xact_type   xact_type_enum   1     WRITE    
#   xfer_size   xfer_size_enum   3     SIZE_8BIT
#   burst_type  burst_type_enum  3     SINGLE   
#   addr        integral         10    'h18     
#   data        integral         32    'h1b     
#   prot        integral         4     'h0      
#   lock        integral         1     'h0      
# ----------------------------------------------
# 
# UVM_INFO ./../regmodel/uart_reg2ahb_adapter.sv(42) @ 1011000: reporter [uart_reg2ahb_adapter] bus2reg: addr = 0x18, data = 0x1b, kind = UVM_WRITE, status = UVM_IS_OK
# UVM_INFO /ictc/other/tools/QuestaDVA/questasim/verilog_src/uvm-1.2/src/reg/uvm_reg_predictor.svh(221) @ 1011000: uvm_test_top.env.ahb_predictor [REG_PREDICT] Observed WRITE transaction to register regmodel.TBR: value='h1b : updated value = 'h1b
# UVM_INFO ./../tb/uart_scoreboard.sv(80) @ 1011000: uvm_test_top.env.scb [write_rx] Add AHB's drive trans into queue
# UVM_INFO ./../regmodel/uart_reg2ahb_adapter.sv(42) @ 1011000: reporter [uart_reg2ahb_adapter] bus2reg: addr = 0x18, data = 0x1b, kind = UVM_WRITE, status = UVM_IS_OK
# UVM_INFO @ 1011000: reporter [RegModel] Wrote register via map regmodel.ahb_map: regmodel.TBR=0x1b
# UVM_INFO ./../testcases/full_tx_fifo_test.sv(110) @ 1011000: uvm_test_top [full_tx_fifo_test] i = 5
# UVM_INFO ./../regmodel/uart_reg2ahb_adapter.sv(27) @ 1011000: reporter [uart_reg2ahb_adapter] reg2bus: addr = 0x18, data = 0x7a, kind = WRITE
# UVM_INFO ./../vip/ahb_vip/ahb_driver.sv(65) @ 1011000: uvm_test_top.env.ahb_agt.drv [ahb_driver] WRITE! addr = 18, data = 7a
# UVM_INFO ./../vip/ahb_vip/ahb_monitor.sv(45) @ 1011000: uvm_test_top.env.ahb_agt.mnt [ahb_monitor] Observed transaction: 
# ----------------------------------------------
# Name          Type             Size  Value    
# ----------------------------------------------
# trans         ahb_transaction  -     @1493    
#   xact_type   xact_type_enum   1     WRITE    
#   xfer_size   xfer_size_enum   3     SIZE_8BIT
#   burst_type  burst_type_enum  3     SINGLE   
#   addr        integral         10    'h18     
#   data        integral         32    'h7a     
#   prot        integral         4     'h0      
#   lock        integral         1     'h0      
# ----------------------------------------------
# 
# UVM_INFO ./../regmodel/uart_reg2ahb_adapter.sv(42) @ 1011000: reporter [uart_reg2ahb_adapter] bus2reg: addr = 0x18, data = 0x7a, kind = UVM_WRITE, status = UVM_IS_OK
# UVM_INFO /ictc/other/tools/QuestaDVA/questasim/verilog_src/uvm-1.2/src/reg/uvm_reg_predictor.svh(221) @ 1011000: uvm_test_top.env.ahb_predictor [REG_PREDICT] Observed WRITE transaction to register regmodel.TBR: value='h7a : updated value = 'h7a
# UVM_INFO ./../tb/uart_scoreboard.sv(80) @ 1011000: uvm_test_top.env.scb [write_rx] Add AHB's drive trans into queue
# UVM_INFO ./../regmodel/uart_reg2ahb_adapter.sv(42) @ 1011000: reporter [uart_reg2ahb_adapter] bus2reg: addr = 0x18, data = 0x7a, kind = UVM_WRITE, status = UVM_IS_OK
# UVM_INFO @ 1011000: reporter [RegModel] Wrote register via map regmodel.ahb_map: regmodel.TBR=0x7a
# UVM_INFO ./../testcases/full_tx_fifo_test.sv(110) @ 1011000: uvm_test_top [full_tx_fifo_test] i = 6
# UVM_INFO ./../regmodel/uart_reg2ahb_adapter.sv(27) @ 1011000: reporter [uart_reg2ahb_adapter] reg2bus: addr = 0x18, data = 0x41, kind = WRITE
# UVM_INFO ./../vip/ahb_vip/ahb_driver.sv(65) @ 1011000: uvm_test_top.env.ahb_agt.drv [ahb_driver] WRITE! addr = 18, data = 41
# UVM_INFO ./../vip/ahb_vip/ahb_monitor.sv(45) @ 1011000: uvm_test_top.env.ahb_agt.mnt [ahb_monitor] Observed transaction: 
# ----------------------------------------------
# Name          Type             Size  Value    
# ----------------------------------------------
# trans         ahb_transaction  -     @1537    
#   xact_type   xact_type_enum   1     WRITE    
#   xfer_size   xfer_size_enum   3     SIZE_8BIT
#   burst_type  burst_type_enum  3     SINGLE   
#   addr        integral         10    'h18     
#   data        integral         32    'h41     
#   prot        integral         4     'h0      
#   lock        integral         1     'h0      
# ----------------------------------------------
# 
# UVM_INFO ./../regmodel/uart_reg2ahb_adapter.sv(42) @ 1011000: reporter [uart_reg2ahb_adapter] bus2reg: addr = 0x18, data = 0x41, kind = UVM_WRITE, status = UVM_IS_OK
# UVM_INFO /ictc/other/tools/QuestaDVA/questasim/verilog_src/uvm-1.2/src/reg/uvm_reg_predictor.svh(221) @ 1011000: uvm_test_top.env.ahb_predictor [REG_PREDICT] Observed WRITE transaction to register regmodel.TBR: value='h41 : updated value = 'h41
# UVM_INFO ./../tb/uart_scoreboard.sv(80) @ 1011000: uvm_test_top.env.scb [write_rx] Add AHB's drive trans into queue
# UVM_INFO ./../regmodel/uart_reg2ahb_adapter.sv(42) @ 1011000: reporter [uart_reg2ahb_adapter] bus2reg: addr = 0x18, data = 0x41, kind = UVM_WRITE, status = UVM_IS_OK
# UVM_INFO @ 1011000: reporter [RegModel] Wrote register via map regmodel.ahb_map: regmodel.TBR=0x41
# UVM_INFO ./../testcases/full_tx_fifo_test.sv(110) @ 1011000: uvm_test_top [full_tx_fifo_test] i = 7
# UVM_INFO ./../regmodel/uart_reg2ahb_adapter.sv(27) @ 1011000: reporter [uart_reg2ahb_adapter] reg2bus: addr = 0x18, data = 0x41, kind = WRITE
# UVM_INFO ./../vip/ahb_vip/ahb_driver.sv(65) @ 1011000: uvm_test_top.env.ahb_agt.drv [ahb_driver] WRITE! addr = 18, data = 41
# UVM_INFO ./../vip/ahb_vip/ahb_monitor.sv(45) @ 1011000: uvm_test_top.env.ahb_agt.mnt [ahb_monitor] Observed transaction: 
# ----------------------------------------------
# Name          Type             Size  Value    
# ----------------------------------------------
# trans         ahb_transaction  -     @1581    
#   xact_type   xact_type_enum   1     WRITE    
#   xfer_size   xfer_size_enum   3     SIZE_8BIT
#   burst_type  burst_type_enum  3     SINGLE   
#   addr        integral         10    'h18     
#   data        integral         32    'h41     
#   prot        integral         4     'h0      
#   lock        integral         1     'h0      
# ----------------------------------------------
# 
# UVM_INFO ./../regmodel/uart_reg2ahb_adapter.sv(42) @ 1011000: reporter [uart_reg2ahb_adapter] bus2reg: addr = 0x18, data = 0x41, kind = UVM_WRITE, status = UVM_IS_OK
# UVM_INFO /ictc/other/tools/QuestaDVA/questasim/verilog_src/uvm-1.2/src/reg/uvm_reg_predictor.svh(221) @ 1011000: uvm_test_top.env.ahb_predictor [REG_PREDICT] Observed WRITE transaction to register regmodel.TBR: value='h41 : updated value = 'h41
# UVM_INFO ./../tb/uart_scoreboard.sv(80) @ 1011000: uvm_test_top.env.scb [write_rx] Add AHB's drive trans into queue
# UVM_INFO ./../regmodel/uart_reg2ahb_adapter.sv(42) @ 1011000: reporter [uart_reg2ahb_adapter] bus2reg: addr = 0x18, data = 0x41, kind = UVM_WRITE, status = UVM_IS_OK
# UVM_INFO @ 1011000: reporter [RegModel] Wrote register via map regmodel.ahb_map: regmodel.TBR=0x41
# UVM_INFO ./../testcases/full_tx_fifo_test.sv(110) @ 1011000: uvm_test_top [full_tx_fifo_test] i = 8
# UVM_INFO ./../regmodel/uart_reg2ahb_adapter.sv(27) @ 1011000: reporter [uart_reg2ahb_adapter] reg2bus: addr = 0x18, data = 0x4c, kind = WRITE
# UVM_INFO ./../vip/ahb_vip/ahb_driver.sv(65) @ 1011000: uvm_test_top.env.ahb_agt.drv [ahb_driver] WRITE! addr = 18, data = 4c
# UVM_INFO ./../vip/ahb_vip/ahb_monitor.sv(45) @ 1011000: uvm_test_top.env.ahb_agt.mnt [ahb_monitor] Observed transaction: 
# ----------------------------------------------
# Name          Type             Size  Value    
# ----------------------------------------------
# trans         ahb_transaction  -     @1625    
#   xact_type   xact_type_enum   1     WRITE    
#   xfer_size   xfer_size_enum   3     SIZE_8BIT
#   burst_type  burst_type_enum  3     SINGLE   
#   addr        integral         10    'h18     
#   data        integral         32    'h4c     
#   prot        integral         4     'h0      
#   lock        integral         1     'h0      
# ----------------------------------------------
# 
# UVM_INFO ./../regmodel/uart_reg2ahb_adapter.sv(42) @ 1011000: reporter [uart_reg2ahb_adapter] bus2reg: addr = 0x18, data = 0x4c, kind = UVM_WRITE, status = UVM_IS_OK
# UVM_INFO /ictc/other/tools/QuestaDVA/questasim/verilog_src/uvm-1.2/src/reg/uvm_reg_predictor.svh(221) @ 1011000: uvm_test_top.env.ahb_predictor [REG_PREDICT] Observed WRITE transaction to register regmodel.TBR: value='h4c : updated value = 'h4c
# UVM_INFO ./../tb/uart_scoreboard.sv(80) @ 1011000: uvm_test_top.env.scb [write_rx] Add AHB's drive trans into queue
# UVM_INFO ./../regmodel/uart_reg2ahb_adapter.sv(42) @ 1011000: reporter [uart_reg2ahb_adapter] bus2reg: addr = 0x18, data = 0x4c, kind = UVM_WRITE, status = UVM_IS_OK
# UVM_INFO @ 1011000: reporter [RegModel] Wrote register via map regmodel.ahb_map: regmodel.TBR=0x4c
# UVM_INFO ./../testcases/full_tx_fifo_test.sv(110) @ 1011000: uvm_test_top [full_tx_fifo_test] i = 9
# UVM_INFO ./../regmodel/uart_reg2ahb_adapter.sv(27) @ 1011000: reporter [uart_reg2ahb_adapter] reg2bus: addr = 0x18, data = 0x6e, kind = WRITE
# UVM_INFO ./../vip/ahb_vip/ahb_driver.sv(65) @ 1011000: uvm_test_top.env.ahb_agt.drv [ahb_driver] WRITE! addr = 18, data = 6e
# UVM_INFO ./../vip/ahb_vip/ahb_monitor.sv(45) @ 1011000: uvm_test_top.env.ahb_agt.mnt [ahb_monitor] Observed transaction: 
# ----------------------------------------------
# Name          Type             Size  Value    
# ----------------------------------------------
# trans         ahb_transaction  -     @1669    
#   xact_type   xact_type_enum   1     WRITE    
#   xfer_size   xfer_size_enum   3     SIZE_8BIT
#   burst_type  burst_type_enum  3     SINGLE   
#   addr        integral         10    'h18     
#   data        integral         32    'h6e     
#   prot        integral         4     'h0      
#   lock        integral         1     'h0      
# ----------------------------------------------
# 
# UVM_INFO ./../regmodel/uart_reg2ahb_adapter.sv(42) @ 1011000: reporter [uart_reg2ahb_adapter] bus2reg: addr = 0x18, data = 0x6e, kind = UVM_WRITE, status = UVM_IS_OK
# UVM_INFO /ictc/other/tools/QuestaDVA/questasim/verilog_src/uvm-1.2/src/reg/uvm_reg_predictor.svh(221) @ 1011000: uvm_test_top.env.ahb_predictor [REG_PREDICT] Observed WRITE transaction to register regmodel.TBR: value='h6e : updated value = 'h6e
# UVM_INFO ./../tb/uart_scoreboard.sv(80) @ 1011000: uvm_test_top.env.scb [write_rx] Add AHB's drive trans into queue
# UVM_INFO ./../regmodel/uart_reg2ahb_adapter.sv(42) @ 1011000: reporter [uart_reg2ahb_adapter] bus2reg: addr = 0x18, data = 0x6e, kind = UVM_WRITE, status = UVM_IS_OK
# UVM_INFO @ 1011000: reporter [RegModel] Wrote register via map regmodel.ahb_map: regmodel.TBR=0x6e
# UVM_INFO ./../testcases/full_tx_fifo_test.sv(110) @ 1011000: uvm_test_top [full_tx_fifo_test] i = 10
# UVM_INFO ./../regmodel/uart_reg2ahb_adapter.sv(27) @ 1011000: reporter [uart_reg2ahb_adapter] reg2bus: addr = 0x18, data = 0x22, kind = WRITE
# UVM_INFO ./../vip/ahb_vip/ahb_driver.sv(65) @ 1011000: uvm_test_top.env.ahb_agt.drv [ahb_driver] WRITE! addr = 18, data = 22
# UVM_INFO ./../vip/ahb_vip/ahb_monitor.sv(45) @ 1011000: uvm_test_top.env.ahb_agt.mnt [ahb_monitor] Observed transaction: 
# ----------------------------------------------
# Name          Type             Size  Value    
# ----------------------------------------------
# trans         ahb_transaction  -     @1713    
#   xact_type   xact_type_enum   1     WRITE    
#   xfer_size   xfer_size_enum   3     SIZE_8BIT
#   burst_type  burst_type_enum  3     SINGLE   
#   addr        integral         10    'h18     
#   data        integral         32    'h22     
#   prot        integral         4     'h0      
#   lock        integral         1     'h0      
# ----------------------------------------------
# 
# UVM_INFO ./../regmodel/uart_reg2ahb_adapter.sv(42) @ 1011000: reporter [uart_reg2ahb_adapter] bus2reg: addr = 0x18, data = 0x22, kind = UVM_WRITE, status = UVM_IS_OK
# UVM_INFO /ictc/other/tools/QuestaDVA/questasim/verilog_src/uvm-1.2/src/reg/uvm_reg_predictor.svh(221) @ 1011000: uvm_test_top.env.ahb_predictor [REG_PREDICT] Observed WRITE transaction to register regmodel.TBR: value='h22 : updated value = 'h22
# UVM_INFO ./../tb/uart_scoreboard.sv(80) @ 1011000: uvm_test_top.env.scb [write_rx] Add AHB's drive trans into queue
# UVM_INFO ./../regmodel/uart_reg2ahb_adapter.sv(42) @ 1011000: reporter [uart_reg2ahb_adapter] bus2reg: addr = 0x18, data = 0x22, kind = UVM_WRITE, status = UVM_IS_OK
# UVM_INFO @ 1011000: reporter [RegModel] Wrote register via map regmodel.ahb_map: regmodel.TBR=0x22
# UVM_INFO ./../testcases/full_tx_fifo_test.sv(110) @ 1011000: uvm_test_top [full_tx_fifo_test] i = 11
# UVM_INFO ./../regmodel/uart_reg2ahb_adapter.sv(27) @ 1011000: reporter [uart_reg2ahb_adapter] reg2bus: addr = 0x18, data = 0x33, kind = WRITE
# UVM_INFO ./../vip/ahb_vip/ahb_driver.sv(65) @ 1011000: uvm_test_top.env.ahb_agt.drv [ahb_driver] WRITE! addr = 18, data = 33
# UVM_INFO ./../vip/ahb_vip/ahb_monitor.sv(45) @ 1011000: uvm_test_top.env.ahb_agt.mnt [ahb_monitor] Observed transaction: 
# ----------------------------------------------
# Name          Type             Size  Value    
# ----------------------------------------------
# trans         ahb_transaction  -     @1757    
#   xact_type   xact_type_enum   1     WRITE    
#   xfer_size   xfer_size_enum   3     SIZE_8BIT
#   burst_type  burst_type_enum  3     SINGLE   
#   addr        integral         10    'h18     
#   data        integral         32    'h33     
#   prot        integral         4     'h0      
#   lock        integral         1     'h0      
# ----------------------------------------------
# 
# UVM_INFO ./../regmodel/uart_reg2ahb_adapter.sv(42) @ 1011000: reporter [uart_reg2ahb_adapter] bus2reg: addr = 0x18, data = 0x33, kind = UVM_WRITE, status = UVM_IS_OK
# UVM_INFO /ictc/other/tools/QuestaDVA/questasim/verilog_src/uvm-1.2/src/reg/uvm_reg_predictor.svh(221) @ 1011000: uvm_test_top.env.ahb_predictor [REG_PREDICT] Observed WRITE transaction to register regmodel.TBR: value='h33 : updated value = 'h33
# UVM_INFO ./../tb/uart_scoreboard.sv(80) @ 1011000: uvm_test_top.env.scb [write_rx] Add AHB's drive trans into queue
# UVM_INFO ./../regmodel/uart_reg2ahb_adapter.sv(42) @ 1011000: reporter [uart_reg2ahb_adapter] bus2reg: addr = 0x18, data = 0x33, kind = UVM_WRITE, status = UVM_IS_OK
# UVM_INFO @ 1011000: reporter [RegModel] Wrote register via map regmodel.ahb_map: regmodel.TBR=0x33
# UVM_INFO ./../testcases/full_tx_fifo_test.sv(110) @ 1011000: uvm_test_top [full_tx_fifo_test] i = 12
# UVM_INFO ./../regmodel/uart_reg2ahb_adapter.sv(27) @ 1011000: reporter [uart_reg2ahb_adapter] reg2bus: addr = 0x18, data = 0x46, kind = WRITE
# UVM_INFO ./../vip/ahb_vip/ahb_driver.sv(65) @ 1011000: uvm_test_top.env.ahb_agt.drv [ahb_driver] WRITE! addr = 18, data = 46
# UVM_INFO ./../vip/ahb_vip/ahb_monitor.sv(45) @ 1011000: uvm_test_top.env.ahb_agt.mnt [ahb_monitor] Observed transaction: 
# ----------------------------------------------
# Name          Type             Size  Value    
# ----------------------------------------------
# trans         ahb_transaction  -     @1801    
#   xact_type   xact_type_enum   1     WRITE    
#   xfer_size   xfer_size_enum   3     SIZE_8BIT
#   burst_type  burst_type_enum  3     SINGLE   
#   addr        integral         10    'h18     
#   data        integral         32    'h46     
#   prot        integral         4     'h0      
#   lock        integral         1     'h0      
# ----------------------------------------------
# 
# UVM_INFO ./../regmodel/uart_reg2ahb_adapter.sv(42) @ 1011000: reporter [uart_reg2ahb_adapter] bus2reg: addr = 0x18, data = 0x46, kind = UVM_WRITE, status = UVM_IS_OK
# UVM_INFO /ictc/other/tools/QuestaDVA/questasim/verilog_src/uvm-1.2/src/reg/uvm_reg_predictor.svh(221) @ 1011000: uvm_test_top.env.ahb_predictor [REG_PREDICT] Observed WRITE transaction to register regmodel.TBR: value='h46 : updated value = 'h46
# UVM_INFO ./../tb/uart_scoreboard.sv(80) @ 1011000: uvm_test_top.env.scb [write_rx] Add AHB's drive trans into queue
# UVM_INFO ./../regmodel/uart_reg2ahb_adapter.sv(42) @ 1011000: reporter [uart_reg2ahb_adapter] bus2reg: addr = 0x18, data = 0x46, kind = UVM_WRITE, status = UVM_IS_OK
# UVM_INFO @ 1011000: reporter [RegModel] Wrote register via map regmodel.ahb_map: regmodel.TBR=0x46
# UVM_INFO ./../testcases/full_tx_fifo_test.sv(110) @ 1011000: uvm_test_top [full_tx_fifo_test] i = 13
# UVM_INFO ./../regmodel/uart_reg2ahb_adapter.sv(27) @ 1011000: reporter [uart_reg2ahb_adapter] reg2bus: addr = 0x18, data = 0x44, kind = WRITE
# UVM_INFO ./../vip/ahb_vip/ahb_driver.sv(65) @ 1011000: uvm_test_top.env.ahb_agt.drv [ahb_driver] WRITE! addr = 18, data = 44
# UVM_INFO ./../vip/ahb_vip/ahb_monitor.sv(45) @ 1011000: uvm_test_top.env.ahb_agt.mnt [ahb_monitor] Observed transaction: 
# ----------------------------------------------
# Name          Type             Size  Value    
# ----------------------------------------------
# trans         ahb_transaction  -     @1845    
#   xact_type   xact_type_enum   1     WRITE    
#   xfer_size   xfer_size_enum   3     SIZE_8BIT
#   burst_type  burst_type_enum  3     SINGLE   
#   addr        integral         10    'h18     
#   data        integral         32    'h44     
#   prot        integral         4     'h0      
#   lock        integral         1     'h0      
# ----------------------------------------------
# 
# UVM_INFO ./../regmodel/uart_reg2ahb_adapter.sv(42) @ 1011000: reporter [uart_reg2ahb_adapter] bus2reg: addr = 0x18, data = 0x44, kind = UVM_WRITE, status = UVM_IS_OK
# UVM_INFO /ictc/other/tools/QuestaDVA/questasim/verilog_src/uvm-1.2/src/reg/uvm_reg_predictor.svh(221) @ 1011000: uvm_test_top.env.ahb_predictor [REG_PREDICT] Observed WRITE transaction to register regmodel.TBR: value='h44 : updated value = 'h44
# UVM_INFO ./../tb/uart_scoreboard.sv(80) @ 1011000: uvm_test_top.env.scb [write_rx] Add AHB's drive trans into queue
# UVM_INFO ./../regmodel/uart_reg2ahb_adapter.sv(42) @ 1011000: reporter [uart_reg2ahb_adapter] bus2reg: addr = 0x18, data = 0x44, kind = UVM_WRITE, status = UVM_IS_OK
# UVM_INFO @ 1011000: reporter [RegModel] Wrote register via map regmodel.ahb_map: regmodel.TBR=0x44
# UVM_INFO ./../testcases/full_tx_fifo_test.sv(110) @ 1011000: uvm_test_top [full_tx_fifo_test] i = 14
# UVM_INFO ./../regmodel/uart_reg2ahb_adapter.sv(27) @ 1011000: reporter [uart_reg2ahb_adapter] reg2bus: addr = 0x18, data = 0x5d, kind = WRITE
# UVM_INFO ./../vip/ahb_vip/ahb_driver.sv(65) @ 1011000: uvm_test_top.env.ahb_agt.drv [ahb_driver] WRITE! addr = 18, data = 5d
# UVM_INFO ./../vip/ahb_vip/ahb_monitor.sv(45) @ 1011000: uvm_test_top.env.ahb_agt.mnt [ahb_monitor] Observed transaction: 
# ----------------------------------------------
# Name          Type             Size  Value    
# ----------------------------------------------
# trans         ahb_transaction  -     @1889    
#   xact_type   xact_type_enum   1     WRITE    
#   xfer_size   xfer_size_enum   3     SIZE_8BIT
#   burst_type  burst_type_enum  3     SINGLE   
#   addr        integral         10    'h18     
#   data        integral         32    'h5d     
#   prot        integral         4     'h0      
#   lock        integral         1     'h0      
# ----------------------------------------------
# 
# UVM_INFO ./../regmodel/uart_reg2ahb_adapter.sv(42) @ 1011000: reporter [uart_reg2ahb_adapter] bus2reg: addr = 0x18, data = 0x5d, kind = UVM_WRITE, status = UVM_IS_OK
# UVM_INFO /ictc/other/tools/QuestaDVA/questasim/verilog_src/uvm-1.2/src/reg/uvm_reg_predictor.svh(221) @ 1011000: uvm_test_top.env.ahb_predictor [REG_PREDICT] Observed WRITE transaction to register regmodel.TBR: value='h5d : updated value = 'h5d
# UVM_INFO ./../tb/uart_scoreboard.sv(80) @ 1011000: uvm_test_top.env.scb [write_rx] Add AHB's drive trans into queue
# UVM_INFO ./../regmodel/uart_reg2ahb_adapter.sv(42) @ 1011000: reporter [uart_reg2ahb_adapter] bus2reg: addr = 0x18, data = 0x5d, kind = UVM_WRITE, status = UVM_IS_OK
# UVM_INFO @ 1011000: reporter [RegModel] Wrote register via map regmodel.ahb_map: regmodel.TBR=0x5d
# UVM_INFO ./../testcases/full_tx_fifo_test.sv(110) @ 1011000: uvm_test_top [full_tx_fifo_test] i = 15
# UVM_INFO ./../regmodel/uart_reg2ahb_adapter.sv(27) @ 1011000: reporter [uart_reg2ahb_adapter] reg2bus: addr = 0x18, data = 0x57, kind = WRITE
# UVM_INFO ./../vip/ahb_vip/ahb_driver.sv(65) @ 1011000: uvm_test_top.env.ahb_agt.drv [ahb_driver] WRITE! addr = 18, data = 57
# UVM_INFO ./../vip/ahb_vip/ahb_monitor.sv(45) @ 1011000: uvm_test_top.env.ahb_agt.mnt [ahb_monitor] Observed transaction: 
# ----------------------------------------------
# Name          Type             Size  Value    
# ----------------------------------------------
# trans         ahb_transaction  -     @1933    
#   xact_type   xact_type_enum   1     WRITE    
#   xfer_size   xfer_size_enum   3     SIZE_8BIT
#   burst_type  burst_type_enum  3     SINGLE   
#   addr        integral         10    'h18     
#   data        integral         32    'h57     
#   prot        integral         4     'h0      
#   lock        integral         1     'h0      
# ----------------------------------------------
# 
# UVM_INFO ./../regmodel/uart_reg2ahb_adapter.sv(42) @ 1011000: reporter [uart_reg2ahb_adapter] bus2reg: addr = 0x18, data = 0x57, kind = UVM_WRITE, status = UVM_IS_OK
# UVM_INFO /ictc/other/tools/QuestaDVA/questasim/verilog_src/uvm-1.2/src/reg/uvm_reg_predictor.svh(221) @ 1011000: uvm_test_top.env.ahb_predictor [REG_PREDICT] Observed WRITE transaction to register regmodel.TBR: value='h57 : updated value = 'h57
# UVM_INFO ./../tb/uart_scoreboard.sv(80) @ 1011000: uvm_test_top.env.scb [write_rx] Add AHB's drive trans into queue
# UVM_INFO ./../regmodel/uart_reg2ahb_adapter.sv(42) @ 1011000: reporter [uart_reg2ahb_adapter] bus2reg: addr = 0x18, data = 0x57, kind = UVM_WRITE, status = UVM_IS_OK
# UVM_INFO @ 1011000: reporter [RegModel] Wrote register via map regmodel.ahb_map: regmodel.TBR=0x57
# UVM_INFO ./../testcases/full_tx_fifo_test.sv(110) @ 1011000: uvm_test_top [full_tx_fifo_test] i = 16
# UVM_INFO ./../regmodel/uart_reg2ahb_adapter.sv(27) @ 1011000: reporter [uart_reg2ahb_adapter] reg2bus: addr = 0x18, data = 0x2a, kind = WRITE
# UVM_INFO ./../vip/ahb_vip/ahb_driver.sv(65) @ 1011000: uvm_test_top.env.ahb_agt.drv [ahb_driver] WRITE! addr = 18, data = 2a
# UVM_INFO ./../vip/ahb_vip/ahb_monitor.sv(45) @ 1011000: uvm_test_top.env.ahb_agt.mnt [ahb_monitor] Observed transaction: 
# ----------------------------------------------
# Name          Type             Size  Value    
# ----------------------------------------------
# trans         ahb_transaction  -     @1977    
#   xact_type   xact_type_enum   1     WRITE    
#   xfer_size   xfer_size_enum   3     SIZE_8BIT
#   burst_type  burst_type_enum  3     SINGLE   
#   addr        integral         10    'h18     
#   data        integral         32    'h2a     
#   prot        integral         4     'h0      
#   lock        integral         1     'h0      
# ----------------------------------------------
# 
# UVM_INFO ./../regmodel/uart_reg2ahb_adapter.sv(42) @ 1011000: reporter [uart_reg2ahb_adapter] bus2reg: addr = 0x18, data = 0x2a, kind = UVM_WRITE, status = UVM_IS_OK
# UVM_INFO /ictc/other/tools/QuestaDVA/questasim/verilog_src/uvm-1.2/src/reg/uvm_reg_predictor.svh(221) @ 1011000: uvm_test_top.env.ahb_predictor [REG_PREDICT] Observed WRITE transaction to register regmodel.TBR: value='h2a : updated value = 'h2a
# UVM_INFO ./../tb/uart_scoreboard.sv(80) @ 1011000: uvm_test_top.env.scb [write_rx] Add AHB's drive trans into queue
# UVM_INFO ./../regmodel/uart_reg2ahb_adapter.sv(42) @ 1011000: reporter [uart_reg2ahb_adapter] bus2reg: addr = 0x18, data = 0x2a, kind = UVM_WRITE, status = UVM_IS_OK
# UVM_INFO @ 1011000: reporter [RegModel] Wrote register via map regmodel.ahb_map: regmodel.TBR=0x2a
# UVM_INFO ./../testcases/full_tx_fifo_test.sv(110) @ 1011000: uvm_test_top [full_tx_fifo_test] i = 17
# UVM_INFO ./../regmodel/uart_reg2ahb_adapter.sv(27) @ 1011000: reporter [uart_reg2ahb_adapter] reg2bus: addr = 0x18, data = 0x57, kind = WRITE
# UVM_INFO ./../vip/ahb_vip/ahb_driver.sv(65) @ 1011000: uvm_test_top.env.ahb_agt.drv [ahb_driver] WRITE! addr = 18, data = 57
# UVM_INFO ./../vip/ahb_vip/ahb_monitor.sv(45) @ 1011000: uvm_test_top.env.ahb_agt.mnt [ahb_monitor] Observed transaction: 
# ----------------------------------------------
# Name          Type             Size  Value    
# ----------------------------------------------
# trans         ahb_transaction  -     @2021    
#   xact_type   xact_type_enum   1     WRITE    
#   xfer_size   xfer_size_enum   3     SIZE_8BIT
#   burst_type  burst_type_enum  3     SINGLE   
#   addr        integral         10    'h18     
#   data        integral         32    'h57     
#   prot        integral         4     'h0      
#   lock        integral         1     'h0      
# ----------------------------------------------
# 
# UVM_INFO ./../regmodel/uart_reg2ahb_adapter.sv(42) @ 1011000: reporter [uart_reg2ahb_adapter] bus2reg: addr = 0x18, data = 0x57, kind = UVM_WRITE, status = UVM_IS_OK
# UVM_INFO /ictc/other/tools/QuestaDVA/questasim/verilog_src/uvm-1.2/src/reg/uvm_reg_predictor.svh(221) @ 1011000: uvm_test_top.env.ahb_predictor [REG_PREDICT] Observed WRITE transaction to register regmodel.TBR: value='h57 : updated value = 'h57
# UVM_INFO ./../tb/uart_scoreboard.sv(80) @ 1011000: uvm_test_top.env.scb [write_rx] Add AHB's drive trans into queue
# UVM_INFO ./../regmodel/uart_reg2ahb_adapter.sv(42) @ 1011000: reporter [uart_reg2ahb_adapter] bus2reg: addr = 0x18, data = 0x57, kind = UVM_WRITE, status = UVM_IS_OK
# UVM_INFO @ 1011000: reporter [RegModel] Wrote register via map regmodel.ahb_map: regmodel.TBR=0x57
# UVM_INFO ./../testcases/full_tx_fifo_test.sv(110) @ 1011000: uvm_test_top [full_tx_fifo_test] i = 18
# UVM_INFO ./../regmodel/uart_reg2ahb_adapter.sv(27) @ 1011000: reporter [uart_reg2ahb_adapter] reg2bus: addr = 0x18, data = 0x8, kind = WRITE
# UVM_INFO ./../vip/ahb_vip/ahb_driver.sv(65) @ 1011000: uvm_test_top.env.ahb_agt.drv [ahb_driver] WRITE! addr = 18, data = 8
# UVM_INFO ./../vip/ahb_vip/ahb_monitor.sv(45) @ 1011000: uvm_test_top.env.ahb_agt.mnt [ahb_monitor] Observed transaction: 
# ----------------------------------------------
# Name          Type             Size  Value    
# ----------------------------------------------
# trans         ahb_transaction  -     @2065    
#   xact_type   xact_type_enum   1     WRITE    
#   xfer_size   xfer_size_enum   3     SIZE_8BIT
#   burst_type  burst_type_enum  3     SINGLE   
#   addr        integral         10    'h18     
#   data        integral         32    'h8      
#   prot        integral         4     'h0      
#   lock        integral         1     'h0      
# ----------------------------------------------
# 
# UVM_INFO ./../regmodel/uart_reg2ahb_adapter.sv(42) @ 1011000: reporter [uart_reg2ahb_adapter] bus2reg: addr = 0x18, data = 0x8, kind = UVM_WRITE, status = UVM_IS_OK
# UVM_INFO /ictc/other/tools/QuestaDVA/questasim/verilog_src/uvm-1.2/src/reg/uvm_reg_predictor.svh(221) @ 1011000: uvm_test_top.env.ahb_predictor [REG_PREDICT] Observed WRITE transaction to register regmodel.TBR: value='h8 : updated value = 'h8
# UVM_INFO ./../tb/uart_scoreboard.sv(80) @ 1011000: uvm_test_top.env.scb [write_rx] Add AHB's drive trans into queue
# UVM_INFO ./../regmodel/uart_reg2ahb_adapter.sv(42) @ 1011000: reporter [uart_reg2ahb_adapter] bus2reg: addr = 0x18, data = 0x8, kind = UVM_WRITE, status = UVM_IS_OK
# UVM_INFO @ 1011000: reporter [RegModel] Wrote register via map regmodel.ahb_map: regmodel.TBR=0x8
# UVM_INFO ./../testcases/full_tx_fifo_test.sv(110) @ 1011000: uvm_test_top [full_tx_fifo_test] i = 19
# UVM_INFO ./../regmodel/uart_reg2ahb_adapter.sv(27) @ 1011000: reporter [uart_reg2ahb_adapter] reg2bus: addr = 0x18, data = 0x36, kind = WRITE
# UVM_INFO ./../vip/ahb_vip/ahb_driver.sv(65) @ 1011000: uvm_test_top.env.ahb_agt.drv [ahb_driver] WRITE! addr = 18, data = 36
# UVM_INFO ./../vip/ahb_vip/ahb_monitor.sv(45) @ 1011000: uvm_test_top.env.ahb_agt.mnt [ahb_monitor] Observed transaction: 
# ----------------------------------------------
# Name          Type             Size  Value    
# ----------------------------------------------
# trans         ahb_transaction  -     @2109    
#   xact_type   xact_type_enum   1     WRITE    
#   xfer_size   xfer_size_enum   3     SIZE_8BIT
#   burst_type  burst_type_enum  3     SINGLE   
#   addr        integral         10    'h18     
#   data        integral         32    'h36     
#   prot        integral         4     'h0      
#   lock        integral         1     'h0      
# ----------------------------------------------
# 
# UVM_INFO ./../regmodel/uart_reg2ahb_adapter.sv(42) @ 1011000: reporter [uart_reg2ahb_adapter] bus2reg: addr = 0x18, data = 0x36, kind = UVM_WRITE, status = UVM_IS_OK
# UVM_INFO /ictc/other/tools/QuestaDVA/questasim/verilog_src/uvm-1.2/src/reg/uvm_reg_predictor.svh(221) @ 1011000: uvm_test_top.env.ahb_predictor [REG_PREDICT] Observed WRITE transaction to register regmodel.TBR: value='h36 : updated value = 'h36
# UVM_INFO ./../tb/uart_scoreboard.sv(80) @ 1011000: uvm_test_top.env.scb [write_rx] Add AHB's drive trans into queue
# UVM_INFO ./../regmodel/uart_reg2ahb_adapter.sv(42) @ 1011000: reporter [uart_reg2ahb_adapter] bus2reg: addr = 0x18, data = 0x36, kind = UVM_WRITE, status = UVM_IS_OK
# UVM_INFO @ 1011000: reporter [RegModel] Wrote register via map regmodel.ahb_map: regmodel.TBR=0x36
# UVM_INFO ./../regmodel/uart_reg2ahb_adapter.sv(27) @ 1011000: reporter [uart_reg2ahb_adapter] reg2bus: addr = 0x14, data = 0x0, kind = READ
# UVM_INFO ./../vip/ahb_vip/ahb_driver.sv(63) @ 1011000: uvm_test_top.env.ahb_agt.drv [ahb_driver] READ! addr = 14, data = 0
# UVM_INFO ./../vip/ahb_vip/ahb_monitor.sv(45) @ 1011000: uvm_test_top.env.ahb_agt.mnt [ahb_monitor] Observed transaction: 
# ----------------------------------------------
# Name          Type             Size  Value    
# ----------------------------------------------
# trans         ahb_transaction  -     @2153    
#   xact_type   xact_type_enum   1     READ     
#   xfer_size   xfer_size_enum   3     SIZE_8BIT
#   burst_type  burst_type_enum  3     SINGLE   
#   addr        integral         10    'h14     
#   data        integral         32    'h9      
#   prot        integral         4     'h0      
#   lock        integral         1     'h0      
# ----------------------------------------------
# 
# UVM_INFO ./../regmodel/uart_reg2ahb_adapter.sv(42) @ 1011000: reporter [uart_reg2ahb_adapter] bus2reg: addr = 0x14, data = 0x9, kind = UVM_READ, status = UVM_IS_OK
# UVM_INFO /ictc/other/tools/QuestaDVA/questasim/verilog_src/uvm-1.2/src/reg/uvm_reg_predictor.svh(225) @ 1011000: uvm_test_top.env.ahb_predictor [REG_PREDICT] Observed READ transaction to register regmodel.FSR: value='h9
# UVM_INFO ./../tb/uart_scoreboard.sv(143) @ 1011000: uvm_test_top.env.scb [full_tx_fifo_compare] FULL TX FIFO COMPARATIVE
# size = 16
# ============================================================================================================================
# UVM_INFO ./../tb/uart_scoreboard.sv(156) @ 1011000: uvm_test_top.env.scb [uart_scoreboard] PASSED! Parity error status is correct. Exp: 1, Act: 1
# ============================================================================================================================
# UVM_INFO ./../regmodel/uart_reg2ahb_adapter.sv(42) @ 1011000: reporter [uart_reg2ahb_adapter] bus2reg: addr = 0x14, data = 0x9, kind = UVM_READ, status = UVM_IS_OK
# UVM_INFO @ 1011000: reporter [RegModel] Read  register via map regmodel.ahb_map: regmodel.FSR=9
# UVM_INFO ./../regmodel/uart_reg2ahb_adapter.sv(27) @ 1011000: reporter [uart_reg2ahb_adapter] reg2bus: addr = 0xc, data = 0x3e, kind = WRITE
# UVM_INFO ./../vip/ahb_vip/ahb_driver.sv(65) @ 1011000: uvm_test_top.env.ahb_agt.drv [ahb_driver] WRITE! addr = c, data = 3e
# UVM_INFO ./../vip/ahb_vip/ahb_monitor.sv(45) @ 1011000: uvm_test_top.env.ahb_agt.mnt [ahb_monitor] Observed transaction: 
# ----------------------------------------------
# Name          Type             Size  Value    
# ----------------------------------------------
# trans         ahb_transaction  -     @2197    
#   xact_type   xact_type_enum   1     WRITE    
#   xfer_size   xfer_size_enum   3     SIZE_8BIT
#   burst_type  burst_type_enum  3     SINGLE   
#   addr        integral         10    'hc      
#   data        integral         32    'h3e     
#   prot        integral         4     'h0      
#   lock        integral         1     'h0      
# ----------------------------------------------
# 
# UVM_INFO ./../regmodel/uart_reg2ahb_adapter.sv(42) @ 1011000: reporter [uart_reg2ahb_adapter] bus2reg: addr = 0xc, data = 0x3e, kind = UVM_WRITE, status = UVM_IS_OK
# UVM_INFO /ictc/other/tools/QuestaDVA/questasim/verilog_src/uvm-1.2/src/reg/uvm_reg_predictor.svh(221) @ 1011000: uvm_test_top.env.ahb_predictor [REG_PREDICT] Observed WRITE transaction to register regmodel.LCR: value='h3e : updated value = 'h3e
# UVM_INFO ./../regmodel/uart_reg2ahb_adapter.sv(42) @ 1011000: reporter [uart_reg2ahb_adapter] bus2reg: addr = 0xc, data = 0x3e, kind = UVM_WRITE, status = UVM_IS_OK
# UVM_INFO @ 1011000: reporter [RegModel] Wrote register via map regmodel.ahb_map: regmodel.LCR=0x3e
# UVM_INFO ./../regmodel/uart_reg2ahb_adapter.sv(27) @ 2011000: reporter [uart_reg2ahb_adapter] reg2bus: addr = 0x14, data = 0x0, kind = READ
# UVM_INFO ./../vip/ahb_vip/ahb_driver.sv(63) @ 2011000: uvm_test_top.env.ahb_agt.drv [ahb_driver] READ! addr = 14, data = 0
# UVM_INFO ./../vip/ahb_vip/ahb_monitor.sv(45) @ 2011000: uvm_test_top.env.ahb_agt.mnt [ahb_monitor] Observed transaction: 
# ----------------------------------------------
# Name          Type             Size  Value    
# ----------------------------------------------
# trans         ahb_transaction  -     @2237    
#   xact_type   xact_type_enum   1     READ     
#   xfer_size   xfer_size_enum   3     SIZE_8BIT
#   burst_type  burst_type_enum  3     SINGLE   
#   addr        integral         10    'h14     
#   data        integral         32    'ha      
#   prot        integral         4     'h0      
#   lock        integral         1     'h0      
# ----------------------------------------------
# 
# UVM_INFO ./../regmodel/uart_reg2ahb_adapter.sv(42) @ 2011000: reporter [uart_reg2ahb_adapter] bus2reg: addr = 0x14, data = 0xa, kind = UVM_READ, status = UVM_IS_OK
# UVM_INFO /ictc/other/tools/QuestaDVA/questasim/verilog_src/uvm-1.2/src/reg/uvm_reg_predictor.svh(225) @ 2011000: uvm_test_top.env.ahb_predictor [REG_PREDICT] Observed READ transaction to register regmodel.FSR: value='ha
# UVM_INFO ./../tb/uart_scoreboard.sv(148) @ 2011000: uvm_test_top.env.scb [full_tx_fifo_compare] FULL TX FIFO COMPARATIVE
# size = 3
# ============================================================================================================================
# UVM_INFO ./../tb/uart_scoreboard.sv(156) @ 2011000: uvm_test_top.env.scb [uart_scoreboard] PASSED! Parity error status is correct. Exp: 0, Act: 0
# ============================================================================================================================
# UVM_INFO ./../regmodel/uart_reg2ahb_adapter.sv(42) @ 2011000: reporter [uart_reg2ahb_adapter] bus2reg: addr = 0x14, data = 0xa, kind = UVM_READ, status = UVM_IS_OK
# UVM_INFO @ 2011000: reporter [RegModel] Read  register via map regmodel.ahb_map: regmodel.FSR=a
# UVM_INFO ./../regmodel/uart_reg2ahb_adapter.sv(27) @ 3011000: reporter [uart_reg2ahb_adapter] reg2bus: addr = 0x14, data = 0x0, kind = READ
# UVM_INFO ./../vip/ahb_vip/ahb_driver.sv(63) @ 3011000: uvm_test_top.env.ahb_agt.drv [ahb_driver] READ! addr = 14, data = 0
# UVM_INFO ./../vip/ahb_vip/ahb_monitor.sv(45) @ 3011000: uvm_test_top.env.ahb_agt.mnt [ahb_monitor] Observed transaction: 
# ----------------------------------------------
# Name          Type             Size  Value    
# ----------------------------------------------
# trans         ahb_transaction  -     @2333    
#   xact_type   xact_type_enum   1     READ     
#   xfer_size   xfer_size_enum   3     SIZE_8BIT
#   burst_type  burst_type_enum  3     SINGLE   
#   addr        integral         10    'h14     
#   data        integral         32    'ha      
#   prot        integral         4     'h0      
#   lock        integral         1     'h0      
# ----------------------------------------------
# 
# UVM_INFO ./../regmodel/uart_reg2ahb_adapter.sv(42) @ 3011000: reporter [uart_reg2ahb_adapter] bus2reg: addr = 0x14, data = 0xa, kind = UVM_READ, status = UVM_IS_OK
# UVM_INFO /ictc/other/tools/QuestaDVA/questasim/verilog_src/uvm-1.2/src/reg/uvm_reg_predictor.svh(225) @ 3011000: uvm_test_top.env.ahb_predictor [REG_PREDICT] Observed READ transaction to register regmodel.FSR: value='ha
# UVM_INFO ./../tb/uart_scoreboard.sv(148) @ 3011000: uvm_test_top.env.scb [full_tx_fifo_compare] FULL TX FIFO COMPARATIVE
# size = 3
# ============================================================================================================================
# UVM_INFO ./../tb/uart_scoreboard.sv(156) @ 3011000: uvm_test_top.env.scb [uart_scoreboard] PASSED! Parity error status is correct. Exp: 0, Act: 0
# ============================================================================================================================
# UVM_INFO ./../regmodel/uart_reg2ahb_adapter.sv(42) @ 3011000: reporter [uart_reg2ahb_adapter] bus2reg: addr = 0x14, data = 0xa, kind = UVM_READ, status = UVM_IS_OK
# UVM_INFO @ 3011000: reporter [RegModel] Read  register via map regmodel.ahb_map: regmodel.FSR=a
# UVM_INFO ./../regmodel/uart_reg2ahb_adapter.sv(27) @ 4011000: reporter [uart_reg2ahb_adapter] reg2bus: addr = 0x14, data = 0x0, kind = READ
# UVM_INFO ./../vip/ahb_vip/ahb_driver.sv(63) @ 4012000: uvm_test_top.env.ahb_agt.drv [ahb_driver] READ! addr = 14, data = 0
# UVM_INFO ./../vip/ahb_vip/ahb_monitor.sv(45) @ 4012000: uvm_test_top.env.ahb_agt.mnt [ahb_monitor] Observed transaction: 
# ----------------------------------------------
# Name          Type             Size  Value    
# ----------------------------------------------
# trans         ahb_transaction  -     @2377    
#   xact_type   xact_type_enum   1     READ     
#   xfer_size   xfer_size_enum   3     SIZE_8BIT
#   burst_type  burst_type_enum  3     SINGLE   
#   addr        integral         10    'h14     
#   data        integral         32    'ha      
#   prot        integral         4     'h0      
#   lock        integral         1     'h0      
# ----------------------------------------------
# 
# UVM_INFO ./../regmodel/uart_reg2ahb_adapter.sv(42) @ 4012000: reporter [uart_reg2ahb_adapter] bus2reg: addr = 0x14, data = 0xa, kind = UVM_READ, status = UVM_IS_OK
# UVM_INFO /ictc/other/tools/QuestaDVA/questasim/verilog_src/uvm-1.2/src/reg/uvm_reg_predictor.svh(225) @ 4012000: uvm_test_top.env.ahb_predictor [REG_PREDICT] Observed READ transaction to register regmodel.FSR: value='ha
# UVM_INFO ./../tb/uart_scoreboard.sv(148) @ 4012000: uvm_test_top.env.scb [full_tx_fifo_compare] FULL TX FIFO COMPARATIVE
# size = 3
# ============================================================================================================================
# UVM_INFO ./../tb/uart_scoreboard.sv(156) @ 4012000: uvm_test_top.env.scb [uart_scoreboard] PASSED! Parity error status is correct. Exp: 0, Act: 0
# ============================================================================================================================
# UVM_INFO ./../regmodel/uart_reg2ahb_adapter.sv(42) @ 4012000: reporter [uart_reg2ahb_adapter] bus2reg: addr = 0x14, data = 0xa, kind = UVM_READ, status = UVM_IS_OK
# UVM_INFO @ 4012000: reporter [RegModel] Read  register via map regmodel.ahb_map: regmodel.FSR=a
# UVM_INFO ./../regmodel/uart_reg2ahb_adapter.sv(27) @ 5012000: reporter [uart_reg2ahb_adapter] reg2bus: addr = 0x14, data = 0x0, kind = READ
# UVM_INFO ./../vip/ahb_vip/ahb_driver.sv(63) @ 5012000: uvm_test_top.env.ahb_agt.drv [ahb_driver] READ! addr = 14, data = 0
# UVM_INFO ./../vip/ahb_vip/ahb_monitor.sv(45) @ 5012000: uvm_test_top.env.ahb_agt.mnt [ahb_monitor] Observed transaction: 
# ----------------------------------------------
# Name          Type             Size  Value    
# ----------------------------------------------
# trans         ahb_transaction  -     @2421    
#   xact_type   xact_type_enum   1     READ     
#   xfer_size   xfer_size_enum   3     SIZE_8BIT
#   burst_type  burst_type_enum  3     SINGLE   
#   addr        integral         10    'h14     
#   data        integral         32    'ha      
#   prot        integral         4     'h0      
#   lock        integral         1     'h0      
# ----------------------------------------------
# 
# UVM_INFO ./../regmodel/uart_reg2ahb_adapter.sv(42) @ 5012000: reporter [uart_reg2ahb_adapter] bus2reg: addr = 0x14, data = 0xa, kind = UVM_READ, status = UVM_IS_OK
# UVM_INFO /ictc/other/tools/QuestaDVA/questasim/verilog_src/uvm-1.2/src/reg/uvm_reg_predictor.svh(225) @ 5012000: uvm_test_top.env.ahb_predictor [REG_PREDICT] Observed READ transaction to register regmodel.FSR: value='ha
# UVM_INFO ./../tb/uart_scoreboard.sv(148) @ 5012000: uvm_test_top.env.scb [full_tx_fifo_compare] FULL TX FIFO COMPARATIVE
# size = 3
# ============================================================================================================================
# UVM_INFO ./../tb/uart_scoreboard.sv(156) @ 5012000: uvm_test_top.env.scb [uart_scoreboard] PASSED! Parity error status is correct. Exp: 0, Act: 0
# ============================================================================================================================
# UVM_INFO ./../regmodel/uart_reg2ahb_adapter.sv(42) @ 5012000: reporter [uart_reg2ahb_adapter] bus2reg: addr = 0x14, data = 0xa, kind = UVM_READ, status = UVM_IS_OK
# UVM_INFO @ 5012000: reporter [RegModel] Read  register via map regmodel.ahb_map: regmodel.FSR=a
# UVM_INFO ./../regmodel/uart_reg2ahb_adapter.sv(27) @ 6012000: reporter [uart_reg2ahb_adapter] reg2bus: addr = 0x14, data = 0x0, kind = READ
# UVM_INFO ./../vip/ahb_vip/ahb_driver.sv(63) @ 6012000: uvm_test_top.env.ahb_agt.drv [ahb_driver] READ! addr = 14, data = 0
# UVM_INFO ./../vip/ahb_vip/ahb_monitor.sv(45) @ 6012000: uvm_test_top.env.ahb_agt.mnt [ahb_monitor] Observed transaction: 
# ----------------------------------------------
# Name          Type             Size  Value    
# ----------------------------------------------
# trans         ahb_transaction  -     @2465    
#   xact_type   xact_type_enum   1     READ     
#   xfer_size   xfer_size_enum   3     SIZE_8BIT
#   burst_type  burst_type_enum  3     SINGLE   
#   addr        integral         10    'h14     
#   data        integral         32    'ha      
#   prot        integral         4     'h0      
#   lock        integral         1     'h0      
# ----------------------------------------------
# 
# UVM_INFO ./../regmodel/uart_reg2ahb_adapter.sv(42) @ 6012000: reporter [uart_reg2ahb_adapter] bus2reg: addr = 0x14, data = 0xa, kind = UVM_READ, status = UVM_IS_OK
# UVM_INFO /ictc/other/tools/QuestaDVA/questasim/verilog_src/uvm-1.2/src/reg/uvm_reg_predictor.svh(225) @ 6012000: uvm_test_top.env.ahb_predictor [REG_PREDICT] Observed READ transaction to register regmodel.FSR: value='ha
# UVM_INFO ./../tb/uart_scoreboard.sv(148) @ 6012000: uvm_test_top.env.scb [full_tx_fifo_compare] FULL TX FIFO COMPARATIVE
# size = 3
# ============================================================================================================================
# UVM_INFO ./../tb/uart_scoreboard.sv(156) @ 6012000: uvm_test_top.env.scb [uart_scoreboard] PASSED! Parity error status is correct. Exp: 0, Act: 0
# ============================================================================================================================
# UVM_INFO ./../regmodel/uart_reg2ahb_adapter.sv(42) @ 6012000: reporter [uart_reg2ahb_adapter] bus2reg: addr = 0x14, data = 0xa, kind = UVM_READ, status = UVM_IS_OK
# UVM_INFO @ 6012000: reporter [RegModel] Read  register via map regmodel.ahb_map: regmodel.FSR=a
# UVM_INFO ./../regmodel/uart_reg2ahb_adapter.sv(27) @ 7012000: reporter [uart_reg2ahb_adapter] reg2bus: addr = 0x14, data = 0x0, kind = READ
# UVM_INFO ./../vip/ahb_vip/ahb_driver.sv(63) @ 7012000: uvm_test_top.env.ahb_agt.drv [ahb_driver] READ! addr = 14, data = 0
# UVM_INFO ./../vip/ahb_vip/ahb_monitor.sv(45) @ 7012000: uvm_test_top.env.ahb_agt.mnt [ahb_monitor] Observed transaction: 
# ----------------------------------------------
# Name          Type             Size  Value    
# ----------------------------------------------
# trans         ahb_transaction  -     @2509    
#   xact_type   xact_type_enum   1     READ     
#   xfer_size   xfer_size_enum   3     SIZE_8BIT
#   burst_type  burst_type_enum  3     SINGLE   
#   addr        integral         10    'h14     
#   data        integral         32    'ha      
#   prot        integral         4     'h0      
#   lock        integral         1     'h0      
# ----------------------------------------------
# 
# UVM_INFO ./../regmodel/uart_reg2ahb_adapter.sv(42) @ 7012000: reporter [uart_reg2ahb_adapter] bus2reg: addr = 0x14, data = 0xa, kind = UVM_READ, status = UVM_IS_OK
# UVM_INFO /ictc/other/tools/QuestaDVA/questasim/verilog_src/uvm-1.2/src/reg/uvm_reg_predictor.svh(225) @ 7012000: uvm_test_top.env.ahb_predictor [REG_PREDICT] Observed READ transaction to register regmodel.FSR: value='ha
# UVM_INFO ./../tb/uart_scoreboard.sv(148) @ 7012000: uvm_test_top.env.scb [full_tx_fifo_compare] FULL TX FIFO COMPARATIVE
# size = 3
# ============================================================================================================================
# UVM_INFO ./../tb/uart_scoreboard.sv(156) @ 7012000: uvm_test_top.env.scb [uart_scoreboard] PASSED! Parity error status is correct. Exp: 0, Act: 0
# ============================================================================================================================
# UVM_INFO ./../regmodel/uart_reg2ahb_adapter.sv(42) @ 7012000: reporter [uart_reg2ahb_adapter] bus2reg: addr = 0x14, data = 0xa, kind = UVM_READ, status = UVM_IS_OK
# UVM_INFO @ 7012000: reporter [RegModel] Read  register via map regmodel.ahb_map: regmodel.FSR=a
# UVM_INFO ./../regmodel/uart_reg2ahb_adapter.sv(27) @ 8012000: reporter [uart_reg2ahb_adapter] reg2bus: addr = 0x14, data = 0x0, kind = READ
# UVM_INFO ./../vip/ahb_vip/ahb_driver.sv(63) @ 8012000: uvm_test_top.env.ahb_agt.drv [ahb_driver] READ! addr = 14, data = 0
# UVM_INFO ./../vip/ahb_vip/ahb_monitor.sv(45) @ 8012000: uvm_test_top.env.ahb_agt.mnt [ahb_monitor] Observed transaction: 
# ----------------------------------------------
# Name          Type             Size  Value    
# ----------------------------------------------
# trans         ahb_transaction  -     @2553    
#   xact_type   xact_type_enum   1     READ     
#   xfer_size   xfer_size_enum   3     SIZE_8BIT
#   burst_type  burst_type_enum  3     SINGLE   
#   addr        integral         10    'h14     
#   data        integral         32    'ha      
#   prot        integral         4     'h0      
#   lock        integral         1     'h0      
# ----------------------------------------------
# 
# UVM_INFO ./../regmodel/uart_reg2ahb_adapter.sv(42) @ 8012000: reporter [uart_reg2ahb_adapter] bus2reg: addr = 0x14, data = 0xa, kind = UVM_READ, status = UVM_IS_OK
# UVM_INFO /ictc/other/tools/QuestaDVA/questasim/verilog_src/uvm-1.2/src/reg/uvm_reg_predictor.svh(225) @ 8012000: uvm_test_top.env.ahb_predictor [REG_PREDICT] Observed READ transaction to register regmodel.FSR: value='ha
# UVM_INFO ./../tb/uart_scoreboard.sv(148) @ 8012000: uvm_test_top.env.scb [full_tx_fifo_compare] FULL TX FIFO COMPARATIVE
# size = 3
# ============================================================================================================================
# UVM_INFO ./../tb/uart_scoreboard.sv(156) @ 8012000: uvm_test_top.env.scb [uart_scoreboard] PASSED! Parity error status is correct. Exp: 0, Act: 0
# ============================================================================================================================
# UVM_INFO ./../regmodel/uart_reg2ahb_adapter.sv(42) @ 8012000: reporter [uart_reg2ahb_adapter] bus2reg: addr = 0x14, data = 0xa, kind = UVM_READ, status = UVM_IS_OK
# UVM_INFO @ 8012000: reporter [RegModel] Read  register via map regmodel.ahb_map: regmodel.FSR=a
# UVM_INFO ./../regmodel/uart_reg2ahb_adapter.sv(27) @ 9012000: reporter [uart_reg2ahb_adapter] reg2bus: addr = 0x14, data = 0x0, kind = READ
# UVM_INFO ./../vip/ahb_vip/ahb_driver.sv(63) @ 9012000: uvm_test_top.env.ahb_agt.drv [ahb_driver] READ! addr = 14, data = 0
# UVM_INFO ./../vip/ahb_vip/ahb_monitor.sv(45) @ 9012000: uvm_test_top.env.ahb_agt.mnt [ahb_monitor] Observed transaction: 
# ----------------------------------------------
# Name          Type             Size  Value    
# ----------------------------------------------
# trans         ahb_transaction  -     @2597    
#   xact_type   xact_type_enum   1     READ     
#   xfer_size   xfer_size_enum   3     SIZE_8BIT
#   burst_type  burst_type_enum  3     SINGLE   
#   addr        integral         10    'h14     
#   data        integral         32    'ha      
#   prot        integral         4     'h0      
#   lock        integral         1     'h0      
# ----------------------------------------------
# 
# UVM_INFO ./../regmodel/uart_reg2ahb_adapter.sv(42) @ 9012000: reporter [uart_reg2ahb_adapter] bus2reg: addr = 0x14, data = 0xa, kind = UVM_READ, status = UVM_IS_OK
# UVM_INFO /ictc/other/tools/QuestaDVA/questasim/verilog_src/uvm-1.2/src/reg/uvm_reg_predictor.svh(225) @ 9012000: uvm_test_top.env.ahb_predictor [REG_PREDICT] Observed READ transaction to register regmodel.FSR: value='ha
# UVM_INFO ./../tb/uart_scoreboard.sv(148) @ 9012000: uvm_test_top.env.scb [full_tx_fifo_compare] FULL TX FIFO COMPARATIVE
# size = 3
# ============================================================================================================================
# UVM_INFO ./../tb/uart_scoreboard.sv(156) @ 9012000: uvm_test_top.env.scb [uart_scoreboard] PASSED! Parity error status is correct. Exp: 0, Act: 0
# ============================================================================================================================
# UVM_INFO ./../regmodel/uart_reg2ahb_adapter.sv(42) @ 9012000: reporter [uart_reg2ahb_adapter] bus2reg: addr = 0x14, data = 0xa, kind = UVM_READ, status = UVM_IS_OK
# UVM_INFO @ 9012000: reporter [RegModel] Read  register via map regmodel.ahb_map: regmodel.FSR=a
# UVM_INFO ./../regmodel/uart_reg2ahb_adapter.sv(27) @ 10012000: reporter [uart_reg2ahb_adapter] reg2bus: addr = 0x14, data = 0x0, kind = READ
# UVM_INFO ./../vip/ahb_vip/ahb_driver.sv(63) @ 10012000: uvm_test_top.env.ahb_agt.drv [ahb_driver] READ! addr = 14, data = 0
# UVM_INFO ./../vip/ahb_vip/ahb_monitor.sv(45) @ 10012000: uvm_test_top.env.ahb_agt.mnt [ahb_monitor] Observed transaction: 
# ----------------------------------------------
# Name          Type             Size  Value    
# ----------------------------------------------
# trans         ahb_transaction  -     @2641    
#   xact_type   xact_type_enum   1     READ     
#   xfer_size   xfer_size_enum   3     SIZE_8BIT
#   burst_type  burst_type_enum  3     SINGLE   
#   addr        integral         10    'h14     
#   data        integral         32    'ha      
#   prot        integral         4     'h0      
#   lock        integral         1     'h0      
# ----------------------------------------------
# 
# UVM_INFO ./../regmodel/uart_reg2ahb_adapter.sv(42) @ 10012000: reporter [uart_reg2ahb_adapter] bus2reg: addr = 0x14, data = 0xa, kind = UVM_READ, status = UVM_IS_OK
# UVM_INFO /ictc/other/tools/QuestaDVA/questasim/verilog_src/uvm-1.2/src/reg/uvm_reg_predictor.svh(225) @ 10012000: uvm_test_top.env.ahb_predictor [REG_PREDICT] Observed READ transaction to register regmodel.FSR: value='ha
# UVM_INFO ./../tb/uart_scoreboard.sv(148) @ 10012000: uvm_test_top.env.scb [full_tx_fifo_compare] FULL TX FIFO COMPARATIVE
# size = 3
# ============================================================================================================================
# UVM_INFO ./../tb/uart_scoreboard.sv(156) @ 10012000: uvm_test_top.env.scb [uart_scoreboard] PASSED! Parity error status is correct. Exp: 0, Act: 0
# ============================================================================================================================
# UVM_INFO ./../regmodel/uart_reg2ahb_adapter.sv(42) @ 10012000: reporter [uart_reg2ahb_adapter] bus2reg: addr = 0x14, data = 0xa, kind = UVM_READ, status = UVM_IS_OK
# UVM_INFO @ 10012000: reporter [RegModel] Read  register via map regmodel.ahb_map: regmodel.FSR=a
# UVM_INFO ./../regmodel/uart_reg2ahb_adapter.sv(27) @ 11012000: reporter [uart_reg2ahb_adapter] reg2bus: addr = 0x14, data = 0x0, kind = READ
# UVM_INFO ./../vip/ahb_vip/ahb_driver.sv(63) @ 11012000: uvm_test_top.env.ahb_agt.drv [ahb_driver] READ! addr = 14, data = 0
# UVM_INFO ./../vip/ahb_vip/ahb_monitor.sv(45) @ 11012000: uvm_test_top.env.ahb_agt.mnt [ahb_monitor] Observed transaction: 
# ----------------------------------------------
# Name          Type             Size  Value    
# ----------------------------------------------
# trans         ahb_transaction  -     @2685    
#   xact_type   xact_type_enum   1     READ     
#   xfer_size   xfer_size_enum   3     SIZE_8BIT
#   burst_type  burst_type_enum  3     SINGLE   
#   addr        integral         10    'h14     
#   data        integral         32    'ha      
#   prot        integral         4     'h0      
#   lock        integral         1     'h0      
# ----------------------------------------------
# 
# UVM_INFO ./../regmodel/uart_reg2ahb_adapter.sv(42) @ 11012000: reporter [uart_reg2ahb_adapter] bus2reg: addr = 0x14, data = 0xa, kind = UVM_READ, status = UVM_IS_OK
# UVM_INFO /ictc/other/tools/QuestaDVA/questasim/verilog_src/uvm-1.2/src/reg/uvm_reg_predictor.svh(225) @ 11012000: uvm_test_top.env.ahb_predictor [REG_PREDICT] Observed READ transaction to register regmodel.FSR: value='ha
# UVM_INFO ./../tb/uart_scoreboard.sv(148) @ 11012000: uvm_test_top.env.scb [full_tx_fifo_compare] FULL TX FIFO COMPARATIVE
# size = 3
# ============================================================================================================================
# UVM_INFO ./../tb/uart_scoreboard.sv(156) @ 11012000: uvm_test_top.env.scb [uart_scoreboard] PASSED! Parity error status is correct. Exp: 0, Act: 0
# ============================================================================================================================
# UVM_INFO ./../regmodel/uart_reg2ahb_adapter.sv(42) @ 11012000: reporter [uart_reg2ahb_adapter] bus2reg: addr = 0x14, data = 0xa, kind = UVM_READ, status = UVM_IS_OK
# UVM_INFO @ 11012000: reporter [RegModel] Read  register via map regmodel.ahb_map: regmodel.FSR=a
# UVM_INFO ./../regmodel/uart_reg2ahb_adapter.sv(27) @ 12012000: reporter [uart_reg2ahb_adapter] reg2bus: addr = 0x14, data = 0x0, kind = READ
# UVM_INFO ./../vip/ahb_vip/ahb_driver.sv(63) @ 12012000: uvm_test_top.env.ahb_agt.drv [ahb_driver] READ! addr = 14, data = 0
# UVM_INFO ./../vip/ahb_vip/ahb_monitor.sv(45) @ 12012000: uvm_test_top.env.ahb_agt.mnt [ahb_monitor] Observed transaction: 
# ----------------------------------------------
# Name          Type             Size  Value    
# ----------------------------------------------
# trans         ahb_transaction  -     @2729    
#   xact_type   xact_type_enum   1     READ     
#   xfer_size   xfer_size_enum   3     SIZE_8BIT
#   burst_type  burst_type_enum  3     SINGLE   
#   addr        integral         10    'h14     
#   data        integral         32    'ha      
#   prot        integral         4     'h0      
#   lock        integral         1     'h0      
# ----------------------------------------------
# 
# UVM_INFO ./../regmodel/uart_reg2ahb_adapter.sv(42) @ 12012000: reporter [uart_reg2ahb_adapter] bus2reg: addr = 0x14, data = 0xa, kind = UVM_READ, status = UVM_IS_OK
# UVM_INFO /ictc/other/tools/QuestaDVA/questasim/verilog_src/uvm-1.2/src/reg/uvm_reg_predictor.svh(225) @ 12012000: uvm_test_top.env.ahb_predictor [REG_PREDICT] Observed READ transaction to register regmodel.FSR: value='ha
# UVM_INFO ./../tb/uart_scoreboard.sv(148) @ 12012000: uvm_test_top.env.scb [full_tx_fifo_compare] FULL TX FIFO COMPARATIVE
# size = 3
# ============================================================================================================================
# UVM_INFO ./../tb/uart_scoreboard.sv(156) @ 12012000: uvm_test_top.env.scb [uart_scoreboard] PASSED! Parity error status is correct. Exp: 0, Act: 0
# ============================================================================================================================
# UVM_INFO ./../regmodel/uart_reg2ahb_adapter.sv(42) @ 12012000: reporter [uart_reg2ahb_adapter] bus2reg: addr = 0x14, data = 0xa, kind = UVM_READ, status = UVM_IS_OK
# UVM_INFO @ 12012000: reporter [RegModel] Read  register via map regmodel.ahb_map: regmodel.FSR=a
# UVM_INFO ./../regmodel/uart_reg2ahb_adapter.sv(27) @ 13012000: reporter [uart_reg2ahb_adapter] reg2bus: addr = 0x14, data = 0x0, kind = READ
# UVM_INFO ./../vip/ahb_vip/ahb_driver.sv(63) @ 13012000: uvm_test_top.env.ahb_agt.drv [ahb_driver] READ! addr = 14, data = 0
# UVM_INFO ./../vip/ahb_vip/ahb_monitor.sv(45) @ 13012000: uvm_test_top.env.ahb_agt.mnt [ahb_monitor] Observed transaction: 
# ----------------------------------------------
# Name          Type             Size  Value    
# ----------------------------------------------
# trans         ahb_transaction  -     @2773    
#   xact_type   xact_type_enum   1     READ     
#   xfer_size   xfer_size_enum   3     SIZE_8BIT
#   burst_type  burst_type_enum  3     SINGLE   
#   addr        integral         10    'h14     
#   data        integral         32    'ha      
#   prot        integral         4     'h0      
#   lock        integral         1     'h0      
# ----------------------------------------------
# 
# UVM_INFO ./../regmodel/uart_reg2ahb_adapter.sv(42) @ 13012000: reporter [uart_reg2ahb_adapter] bus2reg: addr = 0x14, data = 0xa, kind = UVM_READ, status = UVM_IS_OK
# UVM_INFO /ictc/other/tools/QuestaDVA/questasim/verilog_src/uvm-1.2/src/reg/uvm_reg_predictor.svh(225) @ 13012000: uvm_test_top.env.ahb_predictor [REG_PREDICT] Observed READ transaction to register regmodel.FSR: value='ha
# UVM_INFO ./../tb/uart_scoreboard.sv(148) @ 13012000: uvm_test_top.env.scb [full_tx_fifo_compare] FULL TX FIFO COMPARATIVE
# size = 3
# ============================================================================================================================
# UVM_INFO ./../tb/uart_scoreboard.sv(156) @ 13012000: uvm_test_top.env.scb [uart_scoreboard] PASSED! Parity error status is correct. Exp: 0, Act: 0
# ============================================================================================================================
# UVM_INFO ./../regmodel/uart_reg2ahb_adapter.sv(42) @ 13012000: reporter [uart_reg2ahb_adapter] bus2reg: addr = 0x14, data = 0xa, kind = UVM_READ, status = UVM_IS_OK
# UVM_INFO @ 13012000: reporter [RegModel] Read  register via map regmodel.ahb_map: regmodel.FSR=a
# UVM_INFO ./../regmodel/uart_reg2ahb_adapter.sv(27) @ 14012000: reporter [uart_reg2ahb_adapter] reg2bus: addr = 0x14, data = 0x0, kind = READ
# UVM_INFO ./../vip/ahb_vip/ahb_driver.sv(63) @ 14012000: uvm_test_top.env.ahb_agt.drv [ahb_driver] READ! addr = 14, data = 0
# UVM_INFO ./../vip/ahb_vip/ahb_monitor.sv(45) @ 14012000: uvm_test_top.env.ahb_agt.mnt [ahb_monitor] Observed transaction: 
# ----------------------------------------------
# Name          Type             Size  Value    
# ----------------------------------------------
# trans         ahb_transaction  -     @2817    
#   xact_type   xact_type_enum   1     READ     
#   xfer_size   xfer_size_enum   3     SIZE_8BIT
#   burst_type  burst_type_enum  3     SINGLE   
#   addr        integral         10    'h14     
#   data        integral         32    'ha      
#   prot        integral         4     'h0      
#   lock        integral         1     'h0      
# ----------------------------------------------
# 
# UVM_INFO ./../regmodel/uart_reg2ahb_adapter.sv(42) @ 14012000: reporter [uart_reg2ahb_adapter] bus2reg: addr = 0x14, data = 0xa, kind = UVM_READ, status = UVM_IS_OK
# UVM_INFO /ictc/other/tools/QuestaDVA/questasim/verilog_src/uvm-1.2/src/reg/uvm_reg_predictor.svh(225) @ 14012000: uvm_test_top.env.ahb_predictor [REG_PREDICT] Observed READ transaction to register regmodel.FSR: value='ha
# UVM_INFO ./../tb/uart_scoreboard.sv(148) @ 14012000: uvm_test_top.env.scb [full_tx_fifo_compare] FULL TX FIFO COMPARATIVE
# size = 3
# ============================================================================================================================
# UVM_INFO ./../tb/uart_scoreboard.sv(156) @ 14012000: uvm_test_top.env.scb [uart_scoreboard] PASSED! Parity error status is correct. Exp: 0, Act: 0
# ============================================================================================================================
# UVM_INFO ./../regmodel/uart_reg2ahb_adapter.sv(42) @ 14012000: reporter [uart_reg2ahb_adapter] bus2reg: addr = 0x14, data = 0xa, kind = UVM_READ, status = UVM_IS_OK
# UVM_INFO @ 14012000: reporter [RegModel] Read  register via map regmodel.ahb_map: regmodel.FSR=a
# UVM_INFO ./../regmodel/uart_reg2ahb_adapter.sv(27) @ 15012000: reporter [uart_reg2ahb_adapter] reg2bus: addr = 0x14, data = 0x0, kind = READ
# UVM_INFO ./../vip/ahb_vip/ahb_driver.sv(63) @ 15012000: uvm_test_top.env.ahb_agt.drv [ahb_driver] READ! addr = 14, data = 0
# UVM_INFO ./../vip/ahb_vip/ahb_monitor.sv(45) @ 15012000: uvm_test_top.env.ahb_agt.mnt [ahb_monitor] Observed transaction: 
# ----------------------------------------------
# Name          Type             Size  Value    
# ----------------------------------------------
# trans         ahb_transaction  -     @2861    
#   xact_type   xact_type_enum   1     READ     
#   xfer_size   xfer_size_enum   3     SIZE_8BIT
#   burst_type  burst_type_enum  3     SINGLE   
#   addr        integral         10    'h14     
#   data        integral         32    'ha      
#   prot        integral         4     'h0      
#   lock        integral         1     'h0      
# ----------------------------------------------
# 
# UVM_INFO ./../regmodel/uart_reg2ahb_adapter.sv(42) @ 15012000: reporter [uart_reg2ahb_adapter] bus2reg: addr = 0x14, data = 0xa, kind = UVM_READ, status = UVM_IS_OK
# UVM_INFO /ictc/other/tools/QuestaDVA/questasim/verilog_src/uvm-1.2/src/reg/uvm_reg_predictor.svh(225) @ 15012000: uvm_test_top.env.ahb_predictor [REG_PREDICT] Observed READ transaction to register regmodel.FSR: value='ha
# UVM_INFO ./../tb/uart_scoreboard.sv(148) @ 15012000: uvm_test_top.env.scb [full_tx_fifo_compare] FULL TX FIFO COMPARATIVE
# size = 3
# ============================================================================================================================
# UVM_INFO ./../tb/uart_scoreboard.sv(156) @ 15012000: uvm_test_top.env.scb [uart_scoreboard] PASSED! Parity error status is correct. Exp: 0, Act: 0
# ============================================================================================================================
# UVM_INFO ./../regmodel/uart_reg2ahb_adapter.sv(42) @ 15012000: reporter [uart_reg2ahb_adapter] bus2reg: addr = 0x14, data = 0xa, kind = UVM_READ, status = UVM_IS_OK
# UVM_INFO @ 15012000: reporter [RegModel] Read  register via map regmodel.ahb_map: regmodel.FSR=a
# UVM_INFO ./../regmodel/uart_reg2ahb_adapter.sv(27) @ 16012000: reporter [uart_reg2ahb_adapter] reg2bus: addr = 0x14, data = 0x0, kind = READ
# UVM_INFO ./../vip/ahb_vip/ahb_driver.sv(63) @ 16012000: uvm_test_top.env.ahb_agt.drv [ahb_driver] READ! addr = 14, data = 0
# UVM_INFO ./../vip/ahb_vip/ahb_monitor.sv(45) @ 16012000: uvm_test_top.env.ahb_agt.mnt [ahb_monitor] Observed transaction: 
# ----------------------------------------------
# Name          Type             Size  Value    
# ----------------------------------------------
# trans         ahb_transaction  -     @2905    
#   xact_type   xact_type_enum   1     READ     
#   xfer_size   xfer_size_enum   3     SIZE_8BIT
#   burst_type  burst_type_enum  3     SINGLE   
#   addr        integral         10    'h14     
#   data        integral         32    'ha      
#   prot        integral         4     'h0      
#   lock        integral         1     'h0      
# ----------------------------------------------
# 
# UVM_INFO ./../regmodel/uart_reg2ahb_adapter.sv(42) @ 16012000: reporter [uart_reg2ahb_adapter] bus2reg: addr = 0x14, data = 0xa, kind = UVM_READ, status = UVM_IS_OK
# UVM_INFO /ictc/other/tools/QuestaDVA/questasim/verilog_src/uvm-1.2/src/reg/uvm_reg_predictor.svh(225) @ 16012000: uvm_test_top.env.ahb_predictor [REG_PREDICT] Observed READ transaction to register regmodel.FSR: value='ha
# UVM_INFO ./../tb/uart_scoreboard.sv(148) @ 16012000: uvm_test_top.env.scb [full_tx_fifo_compare] FULL TX FIFO COMPARATIVE
# size = 3
# ============================================================================================================================
# UVM_INFO ./../tb/uart_scoreboard.sv(156) @ 16012000: uvm_test_top.env.scb [uart_scoreboard] PASSED! Parity error status is correct. Exp: 0, Act: 0
# ============================================================================================================================
# UVM_INFO ./../regmodel/uart_reg2ahb_adapter.sv(42) @ 16012000: reporter [uart_reg2ahb_adapter] bus2reg: addr = 0x14, data = 0xa, kind = UVM_READ, status = UVM_IS_OK
# UVM_INFO @ 16012000: reporter [RegModel] Read  register via map regmodel.ahb_map: regmodel.FSR=a
# UVM_INFO ./../regmodel/uart_reg2ahb_adapter.sv(27) @ 17012000: reporter [uart_reg2ahb_adapter] reg2bus: addr = 0x14, data = 0x0, kind = READ
# UVM_INFO ./../vip/ahb_vip/ahb_driver.sv(63) @ 17012000: uvm_test_top.env.ahb_agt.drv [ahb_driver] READ! addr = 14, data = 0
# UVM_INFO ./../vip/ahb_vip/ahb_monitor.sv(45) @ 17012000: uvm_test_top.env.ahb_agt.mnt [ahb_monitor] Observed transaction: 
# ----------------------------------------------
# Name          Type             Size  Value    
# ----------------------------------------------
# trans         ahb_transaction  -     @2949    
#   xact_type   xact_type_enum   1     READ     
#   xfer_size   xfer_size_enum   3     SIZE_8BIT
#   burst_type  burst_type_enum  3     SINGLE   
#   addr        integral         10    'h14     
#   data        integral         32    'ha      
#   prot        integral         4     'h0      
#   lock        integral         1     'h0      
# ----------------------------------------------
# 
# UVM_INFO ./../regmodel/uart_reg2ahb_adapter.sv(42) @ 17012000: reporter [uart_reg2ahb_adapter] bus2reg: addr = 0x14, data = 0xa, kind = UVM_READ, status = UVM_IS_OK
# UVM_INFO /ictc/other/tools/QuestaDVA/questasim/verilog_src/uvm-1.2/src/reg/uvm_reg_predictor.svh(225) @ 17012000: uvm_test_top.env.ahb_predictor [REG_PREDICT] Observed READ transaction to register regmodel.FSR: value='ha
# UVM_INFO ./../tb/uart_scoreboard.sv(148) @ 17012000: uvm_test_top.env.scb [full_tx_fifo_compare] FULL TX FIFO COMPARATIVE
# size = 3
# ============================================================================================================================
# UVM_INFO ./../tb/uart_scoreboard.sv(156) @ 17012000: uvm_test_top.env.scb [uart_scoreboard] PASSED! Parity error status is correct. Exp: 0, Act: 0
# ============================================================================================================================
# UVM_INFO ./../regmodel/uart_reg2ahb_adapter.sv(42) @ 17012000: reporter [uart_reg2ahb_adapter] bus2reg: addr = 0x14, data = 0xa, kind = UVM_READ, status = UVM_IS_OK
# UVM_INFO @ 17012000: reporter [RegModel] Read  register via map regmodel.ahb_map: regmodel.FSR=a
# UVM_INFO ./../regmodel/uart_reg2ahb_adapter.sv(27) @ 18012000: reporter [uart_reg2ahb_adapter] reg2bus: addr = 0x14, data = 0x0, kind = READ
# UVM_INFO ./../vip/ahb_vip/ahb_driver.sv(63) @ 18012000: uvm_test_top.env.ahb_agt.drv [ahb_driver] READ! addr = 14, data = 0
# UVM_INFO ./../vip/ahb_vip/ahb_monitor.sv(45) @ 18012000: uvm_test_top.env.ahb_agt.mnt [ahb_monitor] Observed transaction: 
# ----------------------------------------------
# Name          Type             Size  Value    
# ----------------------------------------------
# trans         ahb_transaction  -     @2993    
#   xact_type   xact_type_enum   1     READ     
#   xfer_size   xfer_size_enum   3     SIZE_8BIT
#   burst_type  burst_type_enum  3     SINGLE   
#   addr        integral         10    'h14     
#   data        integral         32    'ha      
#   prot        integral         4     'h0      
#   lock        integral         1     'h0      
# ----------------------------------------------
# 
# UVM_INFO ./../regmodel/uart_reg2ahb_adapter.sv(42) @ 18012000: reporter [uart_reg2ahb_adapter] bus2reg: addr = 0x14, data = 0xa, kind = UVM_READ, status = UVM_IS_OK
# UVM_INFO /ictc/other/tools/QuestaDVA/questasim/verilog_src/uvm-1.2/src/reg/uvm_reg_predictor.svh(225) @ 18012000: uvm_test_top.env.ahb_predictor [REG_PREDICT] Observed READ transaction to register regmodel.FSR: value='ha
# UVM_INFO ./../tb/uart_scoreboard.sv(148) @ 18012000: uvm_test_top.env.scb [full_tx_fifo_compare] FULL TX FIFO COMPARATIVE
# size = 3
# ============================================================================================================================
# UVM_INFO ./../tb/uart_scoreboard.sv(156) @ 18012000: uvm_test_top.env.scb [uart_scoreboard] PASSED! Parity error status is correct. Exp: 0, Act: 0
# ============================================================================================================================
# UVM_INFO ./../regmodel/uart_reg2ahb_adapter.sv(42) @ 18012000: reporter [uart_reg2ahb_adapter] bus2reg: addr = 0x14, data = 0xa, kind = UVM_READ, status = UVM_IS_OK
# UVM_INFO @ 18012000: reporter [RegModel] Read  register via map regmodel.ahb_map: regmodel.FSR=a
# UVM_INFO ./../regmodel/uart_reg2ahb_adapter.sv(27) @ 19012000: reporter [uart_reg2ahb_adapter] reg2bus: addr = 0x14, data = 0x0, kind = READ
# UVM_INFO ./../vip/ahb_vip/ahb_driver.sv(63) @ 19012000: uvm_test_top.env.ahb_agt.drv [ahb_driver] READ! addr = 14, data = 0
# UVM_INFO ./../vip/ahb_vip/ahb_monitor.sv(45) @ 19012000: uvm_test_top.env.ahb_agt.mnt [ahb_monitor] Observed transaction: 
# ----------------------------------------------
# Name          Type             Size  Value    
# ----------------------------------------------
# trans         ahb_transaction  -     @3037    
#   xact_type   xact_type_enum   1     READ     
#   xfer_size   xfer_size_enum   3     SIZE_8BIT
#   burst_type  burst_type_enum  3     SINGLE   
#   addr        integral         10    'h14     
#   data        integral         32    'ha      
#   prot        integral         4     'h0      
#   lock        integral         1     'h0      
# ----------------------------------------------
# 
# UVM_INFO ./../regmodel/uart_reg2ahb_adapter.sv(42) @ 19012000: reporter [uart_reg2ahb_adapter] bus2reg: addr = 0x14, data = 0xa, kind = UVM_READ, status = UVM_IS_OK
# UVM_INFO /ictc/other/tools/QuestaDVA/questasim/verilog_src/uvm-1.2/src/reg/uvm_reg_predictor.svh(225) @ 19012000: uvm_test_top.env.ahb_predictor [REG_PREDICT] Observed READ transaction to register regmodel.FSR: value='ha
# UVM_INFO ./../tb/uart_scoreboard.sv(148) @ 19012000: uvm_test_top.env.scb [full_tx_fifo_compare] FULL TX FIFO COMPARATIVE
# size = 3
# ============================================================================================================================
# UVM_INFO ./../tb/uart_scoreboard.sv(156) @ 19012000: uvm_test_top.env.scb [uart_scoreboard] PASSED! Parity error status is correct. Exp: 0, Act: 0
# ============================================================================================================================
