# vsim -sv_seed 1 -voptargs="+acc" -assertdebug -c testbench -do " log -r /*;run -all;" -l register_reset_test_1.log "+UVM_TESTNAME=register_reset_test" "+UVM_VERBOSITY=UVM_HIGH" 
# Start time: 15:54:05 on Aug 04,2026
# Loading /tmp/vannghia_1108@ictc-eda-ldap.ipa.test_dpi_107462/linux_x86_64_gcc-11/export_tramp.so
# ** Note: (vsim-8009) Loading existing optimized design _opt
# //  Questa Sim-64
# //  Version 10.6d_1 linux_x86_64 Apr 11 2018
# //
# //  Copyright 1991-2018 Mentor Graphics Corporation
# //  All Rights Reserved.
# //
# //  QuestaSim and its associated documentation contain trade
# //  secrets and commercial or financial information that are the property of
# //  Mentor Graphics Corporation and are privileged, confidential,
# //  and exempt from disclosure under the Freedom of Information Act,
# //  5 U.S.C. Section 552. Furthermore, this information
# //  is prohibited from disclosure under the Trade Secrets Act,
# //  18 U.S.C. Section 1905.
# //
# Loading sv_std.std
# Loading work.uart_if(fast)
# Loading work.ahb_if(fast)
# Loading work.uvm_pkg(fast)
# Loading work.ahb_pkg(fast)
# ** Note: (vsim-8785) UVM-aware debugging capabilities will be disabled since no compiled "questa_uvm_pkg" can be found.
# This also means that later if you turn on UVM-aware debugging your debug simulations may have
# different random seeds from your non-debug simulations.
# Loading work.uart_pkg(fast)
# Loading work.seq_pkg(fast)
# Loading work.uart_register_pkg(fast)
# Loading work.uart_regmodel_pkg(fast)
# Loading work.env_pkg(fast)
# Loading work.test_pkg(fast)
# Loading work.testbench(fast)
# Loading work.ahb_if(fast)
# Loading work.uart_if(fast)
# Loading work.uart_top(fast)
# Loading work.cmsdk_ahb_to_apb(fast)
# Loading work.apb_decoder(fast)
# Loading work.uart_fifo(fast)
# Loading work.uart_transmitter(fast)
# Loading work.uart_receiver(fast)
# Loading work.uart_interrupt(fast)
# Loading work.baud_generator(fast)
# Compiling /tmp/vannghia_1108@ictc-eda-ldap.ipa.test_dpi_107462/linux_x86_64_gcc-5.3.0/exportwrapper.c
# Compiling /tmp/vannghia_1108@ictc-eda-ldap.ipa.test_dpi_107462/linux_x86_64_gcc-11/exportwrapper.c
# Loading /tmp/vannghia_1108@ictc-eda-ldap.ipa.test_dpi_107462/linux_x86_64_gcc-11/vsim_auto_compile.so
#  log -r /*
# run -all
# UVM_INFO /ictc/other/tools/QuestaDVA/questasim/verilog_src/uvm-1.2/src/base/uvm_root.svh(392) @ 0: reporter [UVM/RELNOTES] 
# ----------------------------------------------------------------
# UVM-1.2
# (C) 2007-2014 Mentor Graphics Corporation
# (C) 2007-2014 Cadence Design Systems, Inc.
# (C) 2006-2014 Synopsys, Inc.
# (C) 2011-2013 Cypress Semiconductor Corp.
# (C) 2013-2014 NVIDIA Corporation
# ----------------------------------------------------------------
# 
#   ***********       IMPORTANT RELEASE NOTES         ************
# 
#   You are using a version of the UVM library that has been compiled
#   with `UVM_NO_DEPRECATED undefined.
#   See http://www.eda.org/svdb/view.php?id=3313 for more details.
# 
#   You are using a version of the UVM library that has been compiled
#   with `UVM_OBJECT_DO_NOT_NEED_CONSTRUCTOR undefined.
#   See http://www.eda.org/svdb/view.php?id=3770 for more details.
# 
#       (Specify +UVM_NO_RELNOTES to turn off this notice)
# 
# UVM_INFO /ictc/other/tools/QuestaDVA/questasim/verilog_src/uvm-1.2/src/base/uvm_root.svh(453) @ 0: reporter [NO_DPI_TSTNAME] UVM_NO_DPI defined--getting UVM_TESTNAME directly, without DPI
# UVM_INFO @ 0: reporter [RNTST] Running test register_reset_test...
# UVM_INFO ./../testcases/uart_base_test.sv(19) @ 0: uvm_test_top [build_phase] Entered...
# UVM_INFO ./../testcases/uart_base_test.sv(34) @ 0: uvm_test_top [build_phase] Exiting...
# UVM_INFO ./../tb/uart_environment.sv(21) @ 0: uvm_test_top.env [build phase] Entered...
# UVM_INFO ./../tb/uart_environment.sv(45) @ 0: uvm_test_top.env [build_phase] Exiting...
# UVM_INFO ./../vip/ahb_vip/ahb_agent.sv(16) @ 0: uvm_test_top.env.ahb_agt [build_phase] Entered...
# UVM_INFO ./../vip/ahb_vip/ahb_agent.sv(21) @ 0: uvm_test_top.env.ahb_agt [ahb_agent] Active agent is configued
# UVM_INFO ./../vip/ahb_vip/ahb_agent.sv(31) @ 0: uvm_test_top.env.ahb_agt [build_phase] Exiting...
# UVM_INFO ./../vip/ahb_vip/ahb_driver.sv(12) @ 0: uvm_test_top.env.ahb_agt.drv [build_phase] Entered...
# UVM_INFO ./../vip/ahb_vip/ahb_driver.sv(17) @ 0: uvm_test_top.env.ahb_agt.drv [build_phase] Exiting...
# UVM_INFO ./../vip/ahb_vip/ahb_monitor.sv(16) @ 0: uvm_test_top.env.ahb_agt.mnt [build_phase] Entered...
# UVM_INFO ./../vip/ahb_vip/ahb_monitor.sv(21) @ 0: uvm_test_top.env.ahb_agt.mnt [build_phase] Exiting...
# UVM_INFO ./../tb/uart_scoreboard.sv(48) @ 0: uvm_test_top.env.scb [build_phase] Entered...
# UVM_INFO ./../tb/uart_scoreboard.sv(55) @ 0: uvm_test_top.env.scb [build_phase] Exiting...
# UVM_INFO ./../vip/uart_vip/uart_agent.sv(17) @ 0: uvm_test_top.env.uart_agt [build_phase] Entered...
# UVM_INFO ./../vip/uart_vip/uart_agent.sv(28) @ 0: uvm_test_top.env.uart_agt [uart_agent] Active agent is configured
# UVM_INFO ./../vip/uart_vip/uart_agent.sv(43) @ 0: uvm_test_top.env.uart_agt [build_phase] Exiting...
# UVM_INFO ./../vip/uart_vip/uart_driver.sv(19) @ 0: uvm_test_top.env.uart_agt.drv [build_phase] Entered...
# UVM_INFO ./../vip/uart_vip/uart_driver.sv(30) @ 0: uvm_test_top.env.uart_agt.drv [build_phase] Exiting...
# UVM_INFO ./../vip/uart_vip/uart_monitor.sv(20) @ 0: uvm_test_top.env.uart_agt.mnt [build_phase] Entered...
# UVM_INFO ./../vip/uart_vip/uart_monitor.sv(31) @ 0: uvm_test_top.env.uart_agt.mnt [build_phase] Exiting...
# UVM_INFO /ictc/other/tools/QuestaDVA/questasim/verilog_src/uvm-1.2/src/base/uvm_root.svh(579) @ 0: reporter [UVMTOP] UVM testbench topology:
# --------------------------------------------------------------------------------
# Name                           Type                                  Size  Value
# --------------------------------------------------------------------------------
# uvm_test_top                   register_reset_test                   -     @347 
#   env                          uart_environment                      -     @364 
#     ahb_agt                    ahb_agent                             -     @399 
#       drv                      ahb_driver                            -     @511 
#         rsp_port               uvm_analysis_port                     -     @530 
#         seq_item_port          uvm_seq_item_pull_port                -     @520 
#       mnt                      ahb_monitor                           -     @677 
#         ahb_observed_port      uvm_analysis_port                     -     @686 
#       seq                      ahb_sequencer                         -     @540 
#         rsp_export             uvm_analysis_export                   -     @549 
#         seq_item_export        uvm_seq_item_pull_imp                 -     @667 
#         arbitration_queue      array                                 0     -    
#         lock_queue             array                                 0     -    
#         num_last_reqs          integral                              32    'd1  
#         num_last_rsps          integral                              32    'd1  
#     ahb_predictor              uvm_reg_predictor #(ahb_transaction)  -     @417 
#       bus_in                   uvm_analysis_imp                      -     @426 
#       reg_ap                   uvm_analysis_port                     -     @436 
#     scb                        uart_scoreboard                       -     @408 
#       ahb_export               uvm_analysis_imp_ahb                  -     @738 
#       uart_rx_export           uvm_analysis_imp_rx                   -     @728 
#       uart_tx_export           uvm_analysis_imp_tx                   -     @718 
#     uart_agt                   uart_agent                            -     @390 
#       drv                      uart_driver                           -     @896 
#         item_observed_port     uvm_analysis_port                     -     @925 
#         rsp_port               uvm_analysis_port                     -     @915 
#         seq_item_port          uvm_seq_item_pull_port                -     @905 
#       mnt                      uart_monitor                          -     @935 
#         uart_observed_port_rx  uvm_analysis_port                     -     @954 
#         uart_observed_port_tx  uvm_analysis_port                     -     @944 
#       seq                      uart_sequencer                        -     @759 
#         rsp_export             uvm_analysis_export                   -     @768 
#         seq_item_export        uvm_seq_item_pull_imp                 -     @886 
#         arbitration_queue      array                                 0     -    
#         lock_queue             array                                 0     -    
#         num_last_reqs          integral                              32    'd1  
#         num_last_rsps          integral                              32    'd1  
# --------------------------------------------------------------------------------
# 
# UVM_INFO /ictc/other/tools/QuestaDVA/questasim/verilog_src/uvm-1.2/src/base/uvm_traversal.svh(279) @ 0: reporter [UVM/COMP/NAMECHECK] This implementation of the component name checks requires DPI to be enabled
# UVM_INFO ./../vip/uart_vip/uart_monitor.sv(35) @ 0: uvm_test_top.env.uart_agt.mnt [run_phase] Entered...
# UVM_INFO ./../vip/uart_vip/uart_driver.sv(34) @ 0: uvm_test_top.env.uart_agt.drv [run_phase] Entered...
# UVM_INFO ./../vip/ahb_vip/ahb_monitor.sv(25) @ 0: uvm_test_top.env.ahb_agt.mnt [run_phase] Entered...
# UVM_INFO ./../vip/ahb_vip/ahb_driver.sv(22) @ 0: uvm_test_top.env.ahb_agt.drv [run_phase] Entered...
# UVM_INFO @ 0: uvm_test_top.env.ahb_agt.seq@@reg_hw_reset_seq [STARTING_SEQ] 
# 
# Starting reg_hw_reset_seq sequence...
# 
# UVM_INFO /ictc/other/tools/QuestaDVA/questasim/verilog_src/uvm-1.2/src/reg/sequences/uvm_reg_hw_reset_seq.svh(130) @ 0: uvm_test_top.env.ahb_agt.seq@@reg_hw_reset_seq [uvm_reg_hw_reset_seq] Verifying reset value of register regmodel.MDR in map "regmodel.ahb_map"...
# UVM_INFO ./../regmodel/uart_reg2ahb_adapter.sv(27) @ 0: reporter [uart_reg2ahb_adapter] reg2bus: addr = 0x0, data = 0x0, kind = READ
# UVM_INFO ./../vip/ahb_vip/ahb_driver.sv(63) @ 0: uvm_test_top.env.ahb_agt.drv [ahb_driver] READ! addr = 0, data = 0
# UVM_INFO ./../vip/ahb_vip/ahb_monitor.sv(46) @ 0: uvm_test_top.env.ahb_agt.mnt [ahb_monitor] Observed transaction: 
# ----------------------------------------------
# Name          Type             Size  Value    
# ----------------------------------------------
# trans         ahb_transaction  -     @1037    
#   xact_type   xact_type_enum   1     READ     
#   xfer_size   xfer_size_enum   3     SIZE_8BIT
#   burst_type  burst_type_enum  3     SINGLE   
#   addr        integral         10    'h0      
#   data        integral         32    'h0      
#   prot        integral         4     'h0      
#   lock        integral         1     'h0      
#   resp        integral         1     'h0      
# ----------------------------------------------
# 
# UVM_INFO ./../regmodel/uart_reg2ahb_adapter.sv(42) @ 0: reporter [uart_reg2ahb_adapter] bus2reg: addr = 0x0, data = 0x0, kind = UVM_READ, status = UVM_IS_OK
# UVM_INFO /ictc/other/tools/QuestaDVA/questasim/verilog_src/uvm-1.2/src/reg/uvm_reg_predictor.svh(225) @ 0: uvm_test_top.env.ahb_predictor [REG_PREDICT] Observed READ transaction to register regmodel.MDR: value='h0
# UVM_INFO ./../regmodel/uart_reg2ahb_adapter.sv(42) @ 0: reporter [uart_reg2ahb_adapter] bus2reg: addr = 0x0, data = 0x0, kind = UVM_READ, status = UVM_IS_OK
# UVM_INFO @ 0: reporter [RegModel] Read  register via map regmodel.ahb_map: regmodel.MDR=0
# UVM_INFO /ictc/other/tools/QuestaDVA/questasim/verilog_src/uvm-1.2/src/reg/sequences/uvm_reg_hw_reset_seq.svh(130) @ 0: uvm_test_top.env.ahb_agt.seq@@reg_hw_reset_seq [uvm_reg_hw_reset_seq] Verifying reset value of register regmodel.DLL in map "regmodel.ahb_map"...
# UVM_INFO ./../regmodel/uart_reg2ahb_adapter.sv(27) @ 0: reporter [uart_reg2ahb_adapter] reg2bus: addr = 0x4, data = 0x0, kind = READ
# UVM_INFO ./../vip/ahb_vip/ahb_driver.sv(63) @ 0: uvm_test_top.env.ahb_agt.drv [ahb_driver] READ! addr = 4, data = 0
# UVM_INFO ./../vip/ahb_vip/ahb_monitor.sv(46) @ 0: uvm_test_top.env.ahb_agt.mnt [ahb_monitor] Observed transaction: 
# ----------------------------------------------
# Name          Type             Size  Value    
# ----------------------------------------------
# trans         ahb_transaction  -     @1115    
#   xact_type   xact_type_enum   1     READ     
#   xfer_size   xfer_size_enum   3     SIZE_8BIT
#   burst_type  burst_type_enum  3     SINGLE   
#   addr        integral         10    'h4      
#   data        integral         32    'h0      
#   prot        integral         4     'h0      
#   lock        integral         1     'h0      
#   resp        integral         1     'h0      
# ----------------------------------------------
# 
# UVM_INFO ./../regmodel/uart_reg2ahb_adapter.sv(42) @ 0: reporter [uart_reg2ahb_adapter] bus2reg: addr = 0x4, data = 0x0, kind = UVM_READ, status = UVM_IS_OK
# UVM_INFO /ictc/other/tools/QuestaDVA/questasim/verilog_src/uvm-1.2/src/reg/uvm_reg_predictor.svh(225) @ 0: uvm_test_top.env.ahb_predictor [REG_PREDICT] Observed READ transaction to register regmodel.DLL: value='h0
# UVM_INFO ./../regmodel/uart_reg2ahb_adapter.sv(42) @ 0: reporter [uart_reg2ahb_adapter] bus2reg: addr = 0x4, data = 0x0, kind = UVM_READ, status = UVM_IS_OK
# UVM_INFO @ 0: reporter [RegModel] Read  register via map regmodel.ahb_map: regmodel.DLL=0
# UVM_INFO /ictc/other/tools/QuestaDVA/questasim/verilog_src/uvm-1.2/src/reg/sequences/uvm_reg_hw_reset_seq.svh(130) @ 0: uvm_test_top.env.ahb_agt.seq@@reg_hw_reset_seq [uvm_reg_hw_reset_seq] Verifying reset value of register regmodel.DLH in map "regmodel.ahb_map"...
# UVM_INFO ./../regmodel/uart_reg2ahb_adapter.sv(27) @ 0: reporter [uart_reg2ahb_adapter] reg2bus: addr = 0x8, data = 0x0, kind = READ
# UVM_INFO ./../vip/ahb_vip/ahb_driver.sv(63) @ 0: uvm_test_top.env.ahb_agt.drv [ahb_driver] READ! addr = 8, data = 0
# UVM_INFO ./../vip/ahb_vip/ahb_monitor.sv(46) @ 0: uvm_test_top.env.ahb_agt.mnt [ahb_monitor] Observed transaction: 
# ----------------------------------------------
# Name          Type             Size  Value    
# ----------------------------------------------
# trans         ahb_transaction  -     @1153    
#   xact_type   xact_type_enum   1     READ     
#   xfer_size   xfer_size_enum   3     SIZE_8BIT
#   burst_type  burst_type_enum  3     SINGLE   
#   addr        integral         10    'h8      
#   data        integral         32    'h0      
#   prot        integral         4     'h0      
#   lock        integral         1     'h0      
#   resp        integral         1     'h0      
# ----------------------------------------------
# 
# UVM_INFO ./../regmodel/uart_reg2ahb_adapter.sv(42) @ 0: reporter [uart_reg2ahb_adapter] bus2reg: addr = 0x8, data = 0x0, kind = UVM_READ, status = UVM_IS_OK
# UVM_INFO /ictc/other/tools/QuestaDVA/questasim/verilog_src/uvm-1.2/src/reg/uvm_reg_predictor.svh(225) @ 0: uvm_test_top.env.ahb_predictor [REG_PREDICT] Observed READ transaction to register regmodel.DLH: value='h0
# UVM_INFO ./../regmodel/uart_reg2ahb_adapter.sv(42) @ 0: reporter [uart_reg2ahb_adapter] bus2reg: addr = 0x8, data = 0x0, kind = UVM_READ, status = UVM_IS_OK
# UVM_INFO @ 0: reporter [RegModel] Read  register via map regmodel.ahb_map: regmodel.DLH=0
# UVM_INFO /ictc/other/tools/QuestaDVA/questasim/verilog_src/uvm-1.2/src/reg/sequences/uvm_reg_hw_reset_seq.svh(130) @ 0: uvm_test_top.env.ahb_agt.seq@@reg_hw_reset_seq [uvm_reg_hw_reset_seq] Verifying reset value of register regmodel.LCR in map "regmodel.ahb_map"...
# UVM_INFO ./../regmodel/uart_reg2ahb_adapter.sv(27) @ 0: reporter [uart_reg2ahb_adapter] reg2bus: addr = 0xc, data = 0x0, kind = READ
# UVM_INFO ./../vip/ahb_vip/ahb_driver.sv(63) @ 0: uvm_test_top.env.ahb_agt.drv [ahb_driver] READ! addr = c, data = 0
# UVM_INFO ./../vip/ahb_vip/ahb_monitor.sv(46) @ 0: uvm_test_top.env.ahb_agt.mnt [ahb_monitor] Observed transaction: 
# ----------------------------------------------
# Name          Type             Size  Value    
# ----------------------------------------------
# trans         ahb_transaction  -     @1191    
#   xact_type   xact_type_enum   1     READ     
#   xfer_size   xfer_size_enum   3     SIZE_8BIT
#   burst_type  burst_type_enum  3     SINGLE   
#   addr        integral         10    'hc      
#   data        integral         32    'h3      
#   prot        integral         4     'h0      
#   lock        integral         1     'h0      
#   resp        integral         1     'h0      
# ----------------------------------------------
# 
# UVM_INFO ./../regmodel/uart_reg2ahb_adapter.sv(42) @ 0: reporter [uart_reg2ahb_adapter] bus2reg: addr = 0xc, data = 0x3, kind = UVM_READ, status = UVM_IS_OK
# UVM_INFO /ictc/other/tools/QuestaDVA/questasim/verilog_src/uvm-1.2/src/reg/uvm_reg_predictor.svh(225) @ 0: uvm_test_top.env.ahb_predictor [REG_PREDICT] Observed READ transaction to register regmodel.LCR: value='h3
# UVM_INFO ./../regmodel/uart_reg2ahb_adapter.sv(42) @ 0: reporter [uart_reg2ahb_adapter] bus2reg: addr = 0xc, data = 0x3, kind = UVM_READ, status = UVM_IS_OK
# UVM_INFO @ 0: reporter [RegModel] Read  register via map regmodel.ahb_map: regmodel.LCR=3
# UVM_INFO /ictc/other/tools/QuestaDVA/questasim/verilog_src/uvm-1.2/src/reg/sequences/uvm_reg_hw_reset_seq.svh(130) @ 0: uvm_test_top.env.ahb_agt.seq@@reg_hw_reset_seq [uvm_reg_hw_reset_seq] Verifying reset value of register regmodel.IER in map "regmodel.ahb_map"...
# UVM_INFO ./../regmodel/uart_reg2ahb_adapter.sv(27) @ 0: reporter [uart_reg2ahb_adapter] reg2bus: addr = 0x10, data = 0x0, kind = READ
# UVM_INFO ./../vip/ahb_vip/ahb_driver.sv(63) @ 0: uvm_test_top.env.ahb_agt.drv [ahb_driver] READ! addr = 10, data = 0
# UVM_INFO ./../vip/ahb_vip/ahb_monitor.sv(46) @ 0: uvm_test_top.env.ahb_agt.mnt [ahb_monitor] Observed transaction: 
# ----------------------------------------------
# Name          Type             Size  Value    
# ----------------------------------------------
# trans         ahb_transaction  -     @1229    
#   xact_type   xact_type_enum   1     READ     
#   xfer_size   xfer_size_enum   3     SIZE_8BIT
#   burst_type  burst_type_enum  3     SINGLE   
#   addr        integral         10    'h10     
#   data        integral         32    'h0      
#   prot        integral         4     'h0      
#   lock        integral         1     'h0      
#   resp        integral         1     'h0      
# ----------------------------------------------
# 
# UVM_INFO ./../regmodel/uart_reg2ahb_adapter.sv(42) @ 0: reporter [uart_reg2ahb_adapter] bus2reg: addr = 0x10, data = 0x0, kind = UVM_READ, status = UVM_IS_OK
# UVM_INFO /ictc/other/tools/QuestaDVA/questasim/verilog_src/uvm-1.2/src/reg/uvm_reg_predictor.svh(225) @ 0: uvm_test_top.env.ahb_predictor [REG_PREDICT] Observed READ transaction to register regmodel.IER: value='h0
# UVM_INFO ./../regmodel/uart_reg2ahb_adapter.sv(42) @ 0: reporter [uart_reg2ahb_adapter] bus2reg: addr = 0x10, data = 0x0, kind = UVM_READ, status = UVM_IS_OK
# UVM_INFO @ 0: reporter [RegModel] Read  register via map regmodel.ahb_map: regmodel.IER=0
# UVM_INFO /ictc/other/tools/QuestaDVA/questasim/verilog_src/uvm-1.2/src/reg/sequences/uvm_reg_hw_reset_seq.svh(130) @ 0: uvm_test_top.env.ahb_agt.seq@@reg_hw_reset_seq [uvm_reg_hw_reset_seq] Verifying reset value of register regmodel.FSR in map "regmodel.ahb_map"...
# UVM_INFO ./../regmodel/uart_reg2ahb_adapter.sv(27) @ 0: reporter [uart_reg2ahb_adapter] reg2bus: addr = 0x14, data = 0x0, kind = READ
# UVM_INFO ./../vip/ahb_vip/ahb_driver.sv(63) @ 0: uvm_test_top.env.ahb_agt.drv [ahb_driver] READ! addr = 14, data = 0
# UVM_INFO ./../vip/ahb_vip/ahb_monitor.sv(46) @ 0: uvm_test_top.env.ahb_agt.mnt [ahb_monitor] Observed transaction: 
# ----------------------------------------------
# Name          Type             Size  Value    
# ----------------------------------------------
# trans         ahb_transaction  -     @1267    
#   xact_type   xact_type_enum   1     READ     
#   xfer_size   xfer_size_enum   3     SIZE_8BIT
#   burst_type  burst_type_enum  3     SINGLE   
#   addr        integral         10    'h14     
#   data        integral         32    'ha      
#   prot        integral         4     'h0      
#   lock        integral         1     'h0      
#   resp        integral         1     'h0      
# ----------------------------------------------
# 
# UVM_INFO ./../regmodel/uart_reg2ahb_adapter.sv(42) @ 0: reporter [uart_reg2ahb_adapter] bus2reg: addr = 0x14, data = 0xa, kind = UVM_READ, status = UVM_IS_OK
# UVM_INFO /ictc/other/tools/QuestaDVA/questasim/verilog_src/uvm-1.2/src/reg/uvm_reg_predictor.svh(225) @ 0: uvm_test_top.env.ahb_predictor [REG_PREDICT] Observed READ transaction to register regmodel.FSR: value='ha
# UVM_INFO ./../regmodel/uart_reg2ahb_adapter.sv(42) @ 0: reporter [uart_reg2ahb_adapter] bus2reg: addr = 0x14, data = 0xa, kind = UVM_READ, status = UVM_IS_OK
# UVM_INFO @ 0: reporter [RegModel] Read  register via map regmodel.ahb_map: regmodel.FSR=a
# UVM_INFO /ictc/other/tools/QuestaDVA/questasim/verilog_src/uvm-1.2/src/reg/sequences/uvm_reg_hw_reset_seq.svh(130) @ 0: uvm_test_top.env.ahb_agt.seq@@reg_hw_reset_seq [uvm_reg_hw_reset_seq] Verifying reset value of register regmodel.TBR in map "regmodel.ahb_map"...
# UVM_INFO ./../regmodel/uart_reg2ahb_adapter.sv(27) @ 0: reporter [uart_reg2ahb_adapter] reg2bus: addr = 0x18, data = 0x0, kind = READ
# UVM_INFO ./../vip/ahb_vip/ahb_driver.sv(63) @ 0: uvm_test_top.env.ahb_agt.drv [ahb_driver] READ! addr = 18, data = 0
# UVM_INFO ./../vip/ahb_vip/ahb_monitor.sv(46) @ 0: uvm_test_top.env.ahb_agt.mnt [ahb_monitor] Observed transaction: 
# ----------------------------------------------
# Name          Type             Size  Value    
# ----------------------------------------------
# trans         ahb_transaction  -     @1305    
#   xact_type   xact_type_enum   1     READ     
#   xfer_size   xfer_size_enum   3     SIZE_8BIT
#   burst_type  burst_type_enum  3     SINGLE   
#   addr        integral         10    'h18     
#   data        integral         32    'h0      
#   prot        integral         4     'h0      
#   lock        integral         1     'h0      
#   resp        integral         1     'h0      
# ----------------------------------------------
# 
# UVM_INFO ./../regmodel/uart_reg2ahb_adapter.sv(42) @ 0: reporter [uart_reg2ahb_adapter] bus2reg: addr = 0x18, data = 0x0, kind = UVM_READ, status = UVM_IS_OK
# UVM_INFO /ictc/other/tools/QuestaDVA/questasim/verilog_src/uvm-1.2/src/reg/uvm_reg_predictor.svh(225) @ 0: uvm_test_top.env.ahb_predictor [REG_PREDICT] Observed READ transaction to register regmodel.TBR: value='h0
# UVM_INFO ./../regmodel/uart_reg2ahb_adapter.sv(42) @ 0: reporter [uart_reg2ahb_adapter] bus2reg: addr = 0x18, data = 0x0, kind = UVM_READ, status = UVM_IS_OK
# UVM_INFO @ 0: reporter [RegModel] Read  register via map regmodel.ahb_map: regmodel.TBR=0
# UVM_INFO /ictc/other/tools/QuestaDVA/questasim/verilog_src/uvm-1.2/src/reg/sequences/uvm_reg_hw_reset_seq.svh(130) @ 0: uvm_test_top.env.ahb_agt.seq@@reg_hw_reset_seq [uvm_reg_hw_reset_seq] Verifying reset value of register regmodel.RBR in map "regmodel.ahb_map"...
# UVM_INFO ./../regmodel/uart_reg2ahb_adapter.sv(27) @ 0: reporter [uart_reg2ahb_adapter] reg2bus: addr = 0x1c, data = 0x0, kind = READ
# UVM_INFO ./../vip/ahb_vip/ahb_driver.sv(63) @ 0: uvm_test_top.env.ahb_agt.drv [ahb_driver] READ! addr = 1c, data = 0
# UVM_INFO ./../vip/ahb_vip/ahb_monitor.sv(46) @ 0: uvm_test_top.env.ahb_agt.mnt [ahb_monitor] Observed transaction: 
# ----------------------------------------------
# Name          Type             Size  Value    
# ----------------------------------------------
# trans         ahb_transaction  -     @1343    
#   xact_type   xact_type_enum   1     READ     
#   xfer_size   xfer_size_enum   3     SIZE_8BIT
#   burst_type  burst_type_enum  3     SINGLE   
#   addr        integral         10    'h1c     
#   data        integral         32    'h0      
#   prot        integral         4     'h0      
#   lock        integral         1     'h0      
#   resp        integral         1     'h0      
# ----------------------------------------------
# 
# UVM_INFO ./../regmodel/uart_reg2ahb_adapter.sv(42) @ 0: reporter [uart_reg2ahb_adapter] bus2reg: addr = 0x1c, data = 0x0, kind = UVM_READ, status = UVM_IS_OK
# UVM_INFO /ictc/other/tools/QuestaDVA/questasim/verilog_src/uvm-1.2/src/reg/uvm_reg_predictor.svh(225) @ 0: uvm_test_top.env.ahb_predictor [REG_PREDICT] Observed READ transaction to register regmodel.RBR: value='h0
# UVM_INFO ./../regmodel/uart_reg2ahb_adapter.sv(42) @ 0: reporter [uart_reg2ahb_adapter] bus2reg: addr = 0x1c, data = 0x0, kind = UVM_READ, status = UVM_IS_OK
# UVM_INFO @ 0: reporter [RegModel] Read  register via map regmodel.ahb_map: regmodel.RBR=0
# UVM_INFO @ 0: uvm_test_top.env.ahb_agt.seq@@reg_bit_bash_seq [STARTING_SEQ] 
# 
# Starting reg_bit_bash_seq sequence...
# 
# UVM_INFO /ictc/other/tools/QuestaDVA/questasim/verilog_src/uvm-1.2/src/reg/sequences/uvm_reg_bit_bash_seq.svh(129) @ 0: uvm_test_top.env.ahb_agt.seq@@reg_bit_bash_seq.reg_single_bit_bash_seq [uvm_reg_bit_bash_seq] Verifying bits in register regmodel.MDR in map "regmodel.ahb_map"...
# UVM_INFO /ictc/other/tools/QuestaDVA/questasim/verilog_src/uvm-1.2/src/reg/sequences/uvm_reg_bit_bash_seq.svh(152) @ 0: uvm_test_top.env.ahb_agt.seq@@reg_bit_bash_seq.reg_single_bit_bash_seq [uvm_reg_bit_bash_seq] ...Bashing RW bit #0
# UVM_INFO ./../regmodel/uart_reg2ahb_adapter.sv(27) @ 0: reporter [uart_reg2ahb_adapter] reg2bus: addr = 0x0, data = 0x1, kind = WRITE
# UVM_INFO ./../vip/ahb_vip/ahb_driver.sv(65) @ 0: uvm_test_top.env.ahb_agt.drv [ahb_driver] WRITE! addr = 0, data = 1
# UVM_INFO ./../vip/ahb_vip/ahb_monitor.sv(46) @ 0: uvm_test_top.env.ahb_agt.mnt [ahb_monitor] Observed transaction: 
# ----------------------------------------------
# Name          Type             Size  Value    
# ----------------------------------------------
# trans         ahb_transaction  -     @1381    
#   xact_type   xact_type_enum   1     WRITE    
#   xfer_size   xfer_size_enum   3     SIZE_8BIT
#   burst_type  burst_type_enum  3     SINGLE   
#   addr        integral         10    'h0      
#   data        integral         32    'h1      
#   prot        integral         4     'h0      
#   lock        integral         1     'h0      
#   resp        integral         1     'h0      
# ----------------------------------------------
# 
# UVM_INFO ./../regmodel/uart_reg2ahb_adapter.sv(42) @ 0: reporter [uart_reg2ahb_adapter] bus2reg: addr = 0x0, data = 0x1, kind = UVM_WRITE, status = UVM_IS_OK
# UVM_INFO /ictc/other/tools/QuestaDVA/questasim/verilog_src/uvm-1.2/src/reg/uvm_reg_predictor.svh(221) @ 0: uvm_test_top.env.ahb_predictor [REG_PREDICT] Observed WRITE transaction to register regmodel.MDR: value='h1 : updated value = 'h1
# UVM_INFO ./../regmodel/uart_reg2ahb_adapter.sv(42) @ 0: reporter [uart_reg2ahb_adapter] bus2reg: addr = 0x0, data = 0x1, kind = UVM_WRITE, status = UVM_IS_OK
# UVM_INFO @ 0: reporter [RegModel] Wrote register via map regmodel.ahb_map: regmodel.MDR=0x1
# UVM_INFO ./../regmodel/uart_reg2ahb_adapter.sv(27) @ 0: reporter [uart_reg2ahb_adapter] reg2bus: addr = 0x0, data = 0x0, kind = READ
# UVM_INFO ./../vip/ahb_vip/ahb_driver.sv(63) @ 1000: uvm_test_top.env.ahb_agt.drv [ahb_driver] READ! addr = 0, data = 0
# UVM_INFO ./../vip/ahb_vip/ahb_monitor.sv(46) @ 1000: uvm_test_top.env.ahb_agt.mnt [ahb_monitor] Observed transaction: 
# ----------------------------------------------
# Name          Type             Size  Value    
# ----------------------------------------------
# trans         ahb_transaction  -     @1443    
#   xact_type   xact_type_enum   1     READ     
#   xfer_size   xfer_size_enum   3     SIZE_8BIT
#   burst_type  burst_type_enum  3     SINGLE   
#   addr        integral         10    'h0      
#   data        integral         32    'h1      
#   prot        integral         4     'h0      
#   lock        integral         1     'h0      
#   resp        integral         1     'h0      
# ----------------------------------------------
# 
# UVM_INFO ./../regmodel/uart_reg2ahb_adapter.sv(42) @ 1000: reporter [uart_reg2ahb_adapter] bus2reg: addr = 0x0, data = 0x1, kind = UVM_READ, status = UVM_IS_OK
# UVM_INFO /ictc/other/tools/QuestaDVA/questasim/verilog_src/uvm-1.2/src/reg/uvm_reg_predictor.svh(225) @ 1000: uvm_test_top.env.ahb_predictor [REG_PREDICT] Observed READ transaction to register regmodel.MDR: value='h1
# UVM_INFO ./../regmodel/uart_reg2ahb_adapter.sv(42) @ 1000: reporter [uart_reg2ahb_adapter] bus2reg: addr = 0x0, data = 0x1, kind = UVM_READ, status = UVM_IS_OK
# UVM_INFO @ 1000: reporter [RegModel] Read  register via map regmodel.ahb_map: regmodel.MDR=1
# UVM_INFO ./../regmodel/uart_reg2ahb_adapter.sv(27) @ 1000: reporter [uart_reg2ahb_adapter] reg2bus: addr = 0x0, data = 0x0, kind = WRITE
# UVM_INFO ./../vip/ahb_vip/ahb_driver.sv(65) @ 1000: uvm_test_top.env.ahb_agt.drv [ahb_driver] WRITE! addr = 0, data = 0
# UVM_INFO ./../vip/ahb_vip/ahb_monitor.sv(46) @ 1000: uvm_test_top.env.ahb_agt.mnt [ahb_monitor] Observed transaction: 
# ----------------------------------------------
# Name          Type             Size  Value    
# ----------------------------------------------
# trans         ahb_transaction  -     @1477    
#   xact_type   xact_type_enum   1     WRITE    
#   xfer_size   xfer_size_enum   3     SIZE_8BIT
#   burst_type  burst_type_enum  3     SINGLE   
#   addr        integral         10    'h0      
#   data        integral         32    'h0      
#   prot        integral         4     'h0      
#   lock        integral         1     'h0      
#   resp        integral         1     'h0      
# ----------------------------------------------
# 
# UVM_INFO ./../regmodel/uart_reg2ahb_adapter.sv(42) @ 1000: reporter [uart_reg2ahb_adapter] bus2reg: addr = 0x0, data = 0x0, kind = UVM_WRITE, status = UVM_IS_OK
# UVM_INFO /ictc/other/tools/QuestaDVA/questasim/verilog_src/uvm-1.2/src/reg/uvm_reg_predictor.svh(221) @ 1000: uvm_test_top.env.ahb_predictor [REG_PREDICT] Observed WRITE transaction to register regmodel.MDR: value='h0 : updated value = 'h0
# UVM_INFO ./../regmodel/uart_reg2ahb_adapter.sv(42) @ 1000: reporter [uart_reg2ahb_adapter] bus2reg: addr = 0x0, data = 0x0, kind = UVM_WRITE, status = UVM_IS_OK
# UVM_INFO @ 1000: reporter [RegModel] Wrote register via map regmodel.ahb_map: regmodel.MDR=0x0
# UVM_INFO ./../regmodel/uart_reg2ahb_adapter.sv(27) @ 1000: reporter [uart_reg2ahb_adapter] reg2bus: addr = 0x0, data = 0x0, kind = READ
# UVM_INFO ./../vip/ahb_vip/ahb_driver.sv(63) @ 1000: uvm_test_top.env.ahb_agt.drv [ahb_driver] READ! addr = 0, data = 0
# UVM_INFO ./../vip/ahb_vip/ahb_monitor.sv(46) @ 1000: uvm_test_top.env.ahb_agt.mnt [ahb_monitor] Observed transaction: 
# ----------------------------------------------
# Name          Type             Size  Value    
# ----------------------------------------------
# trans         ahb_transaction  -     @1511    
#   xact_type   xact_type_enum   1     READ     
#   xfer_size   xfer_size_enum   3     SIZE_8BIT
#   burst_type  burst_type_enum  3     SINGLE   
#   addr        integral         10    'h0      
#   data        integral         32    'h0      
#   prot        integral         4     'h0      
#   lock        integral         1     'h0      
#   resp        integral         1     'h0      
# ----------------------------------------------
# 
# UVM_INFO ./../regmodel/uart_reg2ahb_adapter.sv(42) @ 1000: reporter [uart_reg2ahb_adapter] bus2reg: addr = 0x0, data = 0x0, kind = UVM_READ, status = UVM_IS_OK
# UVM_INFO /ictc/other/tools/QuestaDVA/questasim/verilog_src/uvm-1.2/src/reg/uvm_reg_predictor.svh(225) @ 1000: uvm_test_top.env.ahb_predictor [REG_PREDICT] Observed READ transaction to register regmodel.MDR: value='h0
# UVM_INFO ./../regmodel/uart_reg2ahb_adapter.sv(42) @ 1000: reporter [uart_reg2ahb_adapter] bus2reg: addr = 0x0, data = 0x0, kind = UVM_READ, status = UVM_IS_OK
# UVM_INFO @ 1000: reporter [RegModel] Read  register via map regmodel.ahb_map: regmodel.MDR=0
# UVM_INFO /ictc/other/tools/QuestaDVA/questasim/verilog_src/uvm-1.2/src/reg/sequences/uvm_reg_bit_bash_seq.svh(152) @ 1000: uvm_test_top.env.ahb_agt.seq@@reg_bit_bash_seq.reg_single_bit_bash_seq [uvm_reg_bit_bash_seq] ...Bashing RO bit #1
# UVM_INFO ./../regmodel/uart_reg2ahb_adapter.sv(27) @ 1000: reporter [uart_reg2ahb_adapter] reg2bus: addr = 0x0, data = 0x2, kind = WRITE
# UVM_INFO ./../vip/ahb_vip/ahb_driver.sv(65) @ 1000: uvm_test_top.env.ahb_agt.drv [ahb_driver] WRITE! addr = 0, data = 2
# UVM_INFO ./../vip/ahb_vip/ahb_monitor.sv(46) @ 1000: uvm_test_top.env.ahb_agt.mnt [ahb_monitor] Observed transaction: 
# ----------------------------------------------
# Name          Type             Size  Value    
# ----------------------------------------------
# trans         ahb_transaction  -     @1545    
#   xact_type   xact_type_enum   1     WRITE    
#   xfer_size   xfer_size_enum   3     SIZE_8BIT
#   burst_type  burst_type_enum  3     SINGLE   
#   addr        integral         10    'h0      
#   data        integral         32    'h2      
#   prot        integral         4     'h0      
#   lock        integral         1     'h0      
#   resp        integral         1     'h0      
# ----------------------------------------------
# 
# UVM_INFO ./../regmodel/uart_reg2ahb_adapter.sv(42) @ 1000: reporter [uart_reg2ahb_adapter] bus2reg: addr = 0x0, data = 0x2, kind = UVM_WRITE, status = UVM_IS_OK
# UVM_INFO /ictc/other/tools/QuestaDVA/questasim/verilog_src/uvm-1.2/src/reg/uvm_reg_predictor.svh(221) @ 1000: uvm_test_top.env.ahb_predictor [REG_PREDICT] Observed WRITE transaction to register regmodel.MDR: value='h2 : updated value = 'h0
# UVM_INFO ./../regmodel/uart_reg2ahb_adapter.sv(42) @ 1000: reporter [uart_reg2ahb_adapter] bus2reg: addr = 0x0, data = 0x2, kind = UVM_WRITE, status = UVM_IS_OK
# UVM_INFO @ 1000: reporter [RegModel] Wrote register via map regmodel.ahb_map: regmodel.MDR=0x2
# UVM_INFO ./../regmodel/uart_reg2ahb_adapter.sv(27) @ 1000: reporter [uart_reg2ahb_adapter] reg2bus: addr = 0x0, data = 0x0, kind = READ
# UVM_INFO ./../vip/ahb_vip/ahb_driver.sv(63) @ 1000: uvm_test_top.env.ahb_agt.drv [ahb_driver] READ! addr = 0, data = 0
# UVM_INFO ./../vip/ahb_vip/ahb_monitor.sv(46) @ 1000: uvm_test_top.env.ahb_agt.mnt [ahb_monitor] Observed transaction: 
# ----------------------------------------------
# Name          Type             Size  Value    
# ----------------------------------------------
# trans         ahb_transaction  -     @1581    
#   xact_type   xact_type_enum   1     READ     
#   xfer_size   xfer_size_enum   3     SIZE_8BIT
#   burst_type  burst_type_enum  3     SINGLE   
#   addr        integral         10    'h0      
#   data        integral         32    'h0      
#   prot        integral         4     'h0      
#   lock        integral         1     'h0      
#   resp        integral         1     'h0      
# ----------------------------------------------
# 
# UVM_INFO ./../regmodel/uart_reg2ahb_adapter.sv(42) @ 1000: reporter [uart_reg2ahb_adapter] bus2reg: addr = 0x0, data = 0x0, kind = UVM_READ, status = UVM_IS_OK
# UVM_INFO /ictc/other/tools/QuestaDVA/questasim/verilog_src/uvm-1.2/src/reg/uvm_reg_predictor.svh(225) @ 1000: uvm_test_top.env.ahb_predictor [REG_PREDICT] Observed READ transaction to register regmodel.MDR: value='h0
# UVM_INFO ./../regmodel/uart_reg2ahb_adapter.sv(42) @ 1000: reporter [uart_reg2ahb_adapter] bus2reg: addr = 0x0, data = 0x0, kind = UVM_READ, status = UVM_IS_OK
# UVM_INFO @ 1000: reporter [RegModel] Read  register via map regmodel.ahb_map: regmodel.MDR=0
# UVM_INFO ./../regmodel/uart_reg2ahb_adapter.sv(27) @ 1000: reporter [uart_reg2ahb_adapter] reg2bus: addr = 0x0, data = 0x2, kind = WRITE
# UVM_INFO ./../vip/ahb_vip/ahb_driver.sv(65) @ 1000: uvm_test_top.env.ahb_agt.drv [ahb_driver] WRITE! addr = 0, data = 2
# UVM_INFO ./../vip/ahb_vip/ahb_monitor.sv(46) @ 1000: uvm_test_top.env.ahb_agt.mnt [ahb_monitor] Observed transaction: 
# ----------------------------------------------
# Name          Type             Size  Value    
# ----------------------------------------------
# trans         ahb_transaction  -     @1615    
#   xact_type   xact_type_enum   1     WRITE    
#   xfer_size   xfer_size_enum   3     SIZE_8BIT
#   burst_type  burst_type_enum  3     SINGLE   
#   addr        integral         10    'h0      
#   data        integral         32    'h2      
#   prot        integral         4     'h0      
#   lock        integral         1     'h0      
#   resp        integral         1     'h0      
# ----------------------------------------------
# 
# UVM_INFO ./../regmodel/uart_reg2ahb_adapter.sv(42) @ 1000: reporter [uart_reg2ahb_adapter] bus2reg: addr = 0x0, data = 0x2, kind = UVM_WRITE, status = UVM_IS_OK
# UVM_INFO /ictc/other/tools/QuestaDVA/questasim/verilog_src/uvm-1.2/src/reg/uvm_reg_predictor.svh(221) @ 1000: uvm_test_top.env.ahb_predictor [REG_PREDICT] Observed WRITE transaction to register regmodel.MDR: value='h2 : updated value = 'h0
# UVM_INFO ./../regmodel/uart_reg2ahb_adapter.sv(42) @ 1000: reporter [uart_reg2ahb_adapter] bus2reg: addr = 0x0, data = 0x2, kind = UVM_WRITE, status = UVM_IS_OK
# UVM_INFO @ 1000: reporter [RegModel] Wrote register via map regmodel.ahb_map: regmodel.MDR=0x2
# UVM_INFO ./../regmodel/uart_reg2ahb_adapter.sv(27) @ 1000: reporter [uart_reg2ahb_adapter] reg2bus: addr = 0x0, data = 0x0, kind = READ
# UVM_INFO ./../vip/ahb_vip/ahb_driver.sv(63) @ 1000: uvm_test_top.env.ahb_agt.drv [ahb_driver] READ! addr = 0, data = 0
# UVM_INFO ./../vip/ahb_vip/ahb_monitor.sv(46) @ 1000: uvm_test_top.env.ahb_agt.mnt [ahb_monitor] Observed transaction: 
# ----------------------------------------------
# Name          Type             Size  Value    
# ----------------------------------------------
# trans         ahb_transaction  -     @1649    
#   xact_type   xact_type_enum   1     READ     
#   xfer_size   xfer_size_enum   3     SIZE_8BIT
#   burst_type  burst_type_enum  3     SINGLE   
#   addr        integral         10    'h0      
#   data        integral         32    'h0      
#   prot        integral         4     'h0      
#   lock        integral         1     'h0      
#   resp        integral         1     'h0      
# ----------------------------------------------
# 
# UVM_INFO ./../regmodel/uart_reg2ahb_adapter.sv(42) @ 1000: reporter [uart_reg2ahb_adapter] bus2reg: addr = 0x0, data = 0x0, kind = UVM_READ, status = UVM_IS_OK
# UVM_INFO /ictc/other/tools/QuestaDVA/questasim/verilog_src/uvm-1.2/src/reg/uvm_reg_predictor.svh(225) @ 1000: uvm_test_top.env.ahb_predictor [REG_PREDICT] Observed READ transaction to register regmodel.MDR: value='h0
# UVM_INFO ./../regmodel/uart_reg2ahb_adapter.sv(42) @ 1000: reporter [uart_reg2ahb_adapter] bus2reg: addr = 0x0, data = 0x0, kind = UVM_READ, status = UVM_IS_OK
# UVM_INFO @ 1000: reporter [RegModel] Read  register via map regmodel.ahb_map: regmodel.MDR=0
# UVM_INFO /ictc/other/tools/QuestaDVA/questasim/verilog_src/uvm-1.2/src/reg/sequences/uvm_reg_bit_bash_seq.svh(152) @ 1000: uvm_test_top.env.ahb_agt.seq@@reg_bit_bash_seq.reg_single_bit_bash_seq [uvm_reg_bit_bash_seq] ...Bashing RO bit #2
# UVM_INFO ./../regmodel/uart_reg2ahb_adapter.sv(27) @ 1000: reporter [uart_reg2ahb_adapter] reg2bus: addr = 0x0, data = 0x4, kind = WRITE
# UVM_INFO ./../vip/ahb_vip/ahb_driver.sv(65) @ 1000: uvm_test_top.env.ahb_agt.drv [ahb_driver] WRITE! addr = 0, data = 4
# UVM_INFO ./../vip/ahb_vip/ahb_monitor.sv(46) @ 1000: uvm_test_top.env.ahb_agt.mnt [ahb_monitor] Observed transaction: 
# ----------------------------------------------
# Name          Type             Size  Value    
# ----------------------------------------------
# trans         ahb_transaction  -     @1683    
#   xact_type   xact_type_enum   1     WRITE    
#   xfer_size   xfer_size_enum   3     SIZE_8BIT
#   burst_type  burst_type_enum  3     SINGLE   
#   addr        integral         10    'h0      
#   data        integral         32    'h4      
#   prot        integral         4     'h0      
#   lock        integral         1     'h0      
#   resp        integral         1     'h0      
# ----------------------------------------------
# 
# UVM_INFO ./../regmodel/uart_reg2ahb_adapter.sv(42) @ 1000: reporter [uart_reg2ahb_adapter] bus2reg: addr = 0x0, data = 0x4, kind = UVM_WRITE, status = UVM_IS_OK
# UVM_INFO /ictc/other/tools/QuestaDVA/questasim/verilog_src/uvm-1.2/src/reg/uvm_reg_predictor.svh(221) @ 1000: uvm_test_top.env.ahb_predictor [REG_PREDICT] Observed WRITE transaction to register regmodel.MDR: value='h4 : updated value = 'h0
# UVM_INFO ./../regmodel/uart_reg2ahb_adapter.sv(42) @ 1000: reporter [uart_reg2ahb_adapter] bus2reg: addr = 0x0, data = 0x4, kind = UVM_WRITE, status = UVM_IS_OK
# UVM_INFO @ 1000: reporter [RegModel] Wrote register via map regmodel.ahb_map: regmodel.MDR=0x4
# UVM_INFO ./../regmodel/uart_reg2ahb_adapter.sv(27) @ 1000: reporter [uart_reg2ahb_adapter] reg2bus: addr = 0x0, data = 0x0, kind = READ
# UVM_INFO ./../vip/ahb_vip/ahb_driver.sv(63) @ 1000: uvm_test_top.env.ahb_agt.drv [ahb_driver] READ! addr = 0, data = 0
# UVM_INFO ./../vip/ahb_vip/ahb_monitor.sv(46) @ 1000: uvm_test_top.env.ahb_agt.mnt [ahb_monitor] Observed transaction: 
# ----------------------------------------------
# Name          Type             Size  Value    
# ----------------------------------------------
# trans         ahb_transaction  -     @1719    
#   xact_type   xact_type_enum   1     READ     
#   xfer_size   xfer_size_enum   3     SIZE_8BIT
#   burst_type  burst_type_enum  3     SINGLE   
#   addr        integral         10    'h0      
#   data        integral         32    'h0      
#   prot        integral         4     'h0      
#   lock        integral         1     'h0      
#   resp        integral         1     'h0      
# ----------------------------------------------
# 
# UVM_INFO ./../regmodel/uart_reg2ahb_adapter.sv(42) @ 1000: reporter [uart_reg2ahb_adapter] bus2reg: addr = 0x0, data = 0x0, kind = UVM_READ, status = UVM_IS_OK
# UVM_INFO /ictc/other/tools/QuestaDVA/questasim/verilog_src/uvm-1.2/src/reg/uvm_reg_predictor.svh(225) @ 1000: uvm_test_top.env.ahb_predictor [REG_PREDICT] Observed READ transaction to register regmodel.MDR: value='h0
# UVM_INFO ./../regmodel/uart_reg2ahb_adapter.sv(42) @ 1000: reporter [uart_reg2ahb_adapter] bus2reg: addr = 0x0, data = 0x0, kind = UVM_READ, status = UVM_IS_OK
# UVM_INFO @ 1000: reporter [RegModel] Read  register via map regmodel.ahb_map: regmodel.MDR=0
# UVM_INFO ./../regmodel/uart_reg2ahb_adapter.sv(27) @ 1000: reporter [uart_reg2ahb_adapter] reg2bus: addr = 0x0, data = 0x4, kind = WRITE
# UVM_INFO ./../vip/ahb_vip/ahb_driver.sv(65) @ 1000: uvm_test_top.env.ahb_agt.drv [ahb_driver] WRITE! addr = 0, data = 4
# UVM_INFO ./../vip/ahb_vip/ahb_monitor.sv(46) @ 1000: uvm_test_top.env.ahb_agt.mnt [ahb_monitor] Observed transaction: 
# ----------------------------------------------
# Name          Type             Size  Value    
# ----------------------------------------------
# trans         ahb_transaction  -     @1753    
#   xact_type   xact_type_enum   1     WRITE    
#   xfer_size   xfer_size_enum   3     SIZE_8BIT
#   burst_type  burst_type_enum  3     SINGLE   
#   addr        integral         10    'h0      
#   data        integral         32    'h4      
#   prot        integral         4     'h0      
#   lock        integral         1     'h0      
#   resp        integral         1     'h0      
# ----------------------------------------------
# 
# UVM_INFO ./../regmodel/uart_reg2ahb_adapter.sv(42) @ 1000: reporter [uart_reg2ahb_adapter] bus2reg: addr = 0x0, data = 0x4, kind = UVM_WRITE, status = UVM_IS_OK
# UVM_INFO /ictc/other/tools/QuestaDVA/questasim/verilog_src/uvm-1.2/src/reg/uvm_reg_predictor.svh(221) @ 1000: uvm_test_top.env.ahb_predictor [REG_PREDICT] Observed WRITE transaction to register regmodel.MDR: value='h4 : updated value = 'h0
# UVM_INFO ./../regmodel/uart_reg2ahb_adapter.sv(42) @ 1000: reporter [uart_reg2ahb_adapter] bus2reg: addr = 0x0, data = 0x4, kind = UVM_WRITE, status = UVM_IS_OK
# UVM_INFO @ 1000: reporter [RegModel] Wrote register via map regmodel.ahb_map: regmodel.MDR=0x4
# UVM_INFO ./../regmodel/uart_reg2ahb_adapter.sv(27) @ 1000: reporter [uart_reg2ahb_adapter] reg2bus: addr = 0x0, data = 0x0, kind = READ
# UVM_INFO ./../vip/ahb_vip/ahb_driver.sv(63) @ 1000: uvm_test_top.env.ahb_agt.drv [ahb_driver] READ! addr = 0, data = 0
# UVM_INFO ./../vip/ahb_vip/ahb_monitor.sv(46) @ 1000: uvm_test_top.env.ahb_agt.mnt [ahb_monitor] Observed transaction: 
# ----------------------------------------------
# Name          Type             Size  Value    
# ----------------------------------------------
# trans         ahb_transaction  -     @1787    
#   xact_type   xact_type_enum   1     READ     
#   xfer_size   xfer_size_enum   3     SIZE_8BIT
#   burst_type  burst_type_enum  3     SINGLE   
#   addr        integral         10    'h0      
#   data        integral         32    'h0      
#   prot        integral         4     'h0      
#   lock        integral         1     'h0      
#   resp        integral         1     'h0      
# ----------------------------------------------
# 
# UVM_INFO ./../regmodel/uart_reg2ahb_adapter.sv(42) @ 1000: reporter [uart_reg2ahb_adapter] bus2reg: addr = 0x0, data = 0x0, kind = UVM_READ, status = UVM_IS_OK
# UVM_INFO /ictc/other/tools/QuestaDVA/questasim/verilog_src/uvm-1.2/src/reg/uvm_reg_predictor.svh(225) @ 1000: uvm_test_top.env.ahb_predictor [REG_PREDICT] Observed READ transaction to register regmodel.MDR: value='h0
# UVM_INFO ./../regmodel/uart_reg2ahb_adapter.sv(42) @ 1000: reporter [uart_reg2ahb_adapter] bus2reg: addr = 0x0, data = 0x0, kind = UVM_READ, status = UVM_IS_OK
# UVM_INFO @ 1000: reporter [RegModel] Read  register via map regmodel.ahb_map: regmodel.MDR=0
# UVM_INFO /ictc/other/tools/QuestaDVA/questasim/verilog_src/uvm-1.2/src/reg/sequences/uvm_reg_bit_bash_seq.svh(152) @ 1000: uvm_test_top.env.ahb_agt.seq@@reg_bit_bash_seq.reg_single_bit_bash_seq [uvm_reg_bit_bash_seq] ...Bashing RO bit #3
# UVM_INFO ./../regmodel/uart_reg2ahb_adapter.sv(27) @ 1000: reporter [uart_reg2ahb_adapter] reg2bus: addr = 0x0, data = 0x8, kind = WRITE
# UVM_INFO ./../vip/ahb_vip/ahb_driver.sv(65) @ 1000: uvm_test_top.env.ahb_agt.drv [ahb_driver] WRITE! addr = 0, data = 8
# UVM_INFO ./../vip/ahb_vip/ahb_monitor.sv(46) @ 1000: uvm_test_top.env.ahb_agt.mnt [ahb_monitor] Observed transaction: 
# ----------------------------------------------
# Name          Type             Size  Value    
# ----------------------------------------------
# trans         ahb_transaction  -     @1821    
#   xact_type   xact_type_enum   1     WRITE    
#   xfer_size   xfer_size_enum   3     SIZE_8BIT
#   burst_type  burst_type_enum  3     SINGLE   
#   addr        integral         10    'h0      
#   data        integral         32    'h8      
#   prot        integral         4     'h0      
#   lock        integral         1     'h0      
#   resp        integral         1     'h0      
# ----------------------------------------------
# 
# UVM_INFO ./../regmodel/uart_reg2ahb_adapter.sv(42) @ 1000: reporter [uart_reg2ahb_adapter] bus2reg: addr = 0x0, data = 0x8, kind = UVM_WRITE, status = UVM_IS_OK
# UVM_INFO /ictc/other/tools/QuestaDVA/questasim/verilog_src/uvm-1.2/src/reg/uvm_reg_predictor.svh(221) @ 1000: uvm_test_top.env.ahb_predictor [REG_PREDICT] Observed WRITE transaction to register regmodel.MDR: value='h8 : updated value = 'h0
# UVM_INFO ./../regmodel/uart_reg2ahb_adapter.sv(42) @ 1000: reporter [uart_reg2ahb_adapter] bus2reg: addr = 0x0, data = 0x8, kind = UVM_WRITE, status = UVM_IS_OK
# UVM_INFO @ 1000: reporter [RegModel] Wrote register via map regmodel.ahb_map: regmodel.MDR=0x8
# UVM_INFO ./../regmodel/uart_reg2ahb_adapter.sv(27) @ 1000: reporter [uart_reg2ahb_adapter] reg2bus: addr = 0x0, data = 0x0, kind = READ
# UVM_INFO ./../vip/ahb_vip/ahb_driver.sv(63) @ 1000: uvm_test_top.env.ahb_agt.drv [ahb_driver] READ! addr = 0, data = 0
# UVM_INFO ./../vip/ahb_vip/ahb_monitor.sv(46) @ 1000: uvm_test_top.env.ahb_agt.mnt [ahb_monitor] Observed transaction: 
# ----------------------------------------------
# Name          Type             Size  Value    
# ----------------------------------------------
# trans         ahb_transaction  -     @1857    
#   xact_type   xact_type_enum   1     READ     
#   xfer_size   xfer_size_enum   3     SIZE_8BIT
#   burst_type  burst_type_enum  3     SINGLE   
#   addr        integral         10    'h0      
#   data        integral         32    'h0      
#   prot        integral         4     'h0      
#   lock        integral         1     'h0      
#   resp        integral         1     'h0      
# ----------------------------------------------
# 
# UVM_INFO ./../regmodel/uart_reg2ahb_adapter.sv(42) @ 1000: reporter [uart_reg2ahb_adapter] bus2reg: addr = 0x0, data = 0x0, kind = UVM_READ, status = UVM_IS_OK
# UVM_INFO /ictc/other/tools/QuestaDVA/questasim/verilog_src/uvm-1.2/src/reg/uvm_reg_predictor.svh(225) @ 1000: uvm_test_top.env.ahb_predictor [REG_PREDICT] Observed READ transaction to register regmodel.MDR: value='h0
# UVM_INFO ./../regmodel/uart_reg2ahb_adapter.sv(42) @ 1000: reporter [uart_reg2ahb_adapter] bus2reg: addr = 0x0, data = 0x0, kind = UVM_READ, status = UVM_IS_OK
# UVM_INFO @ 1000: reporter [RegModel] Read  register via map regmodel.ahb_map: regmodel.MDR=0
# UVM_INFO ./../regmodel/uart_reg2ahb_adapter.sv(27) @ 1000: reporter [uart_reg2ahb_adapter] reg2bus: addr = 0x0, data = 0x8, kind = WRITE
# UVM_INFO ./../vip/ahb_vip/ahb_driver.sv(65) @ 1000: uvm_test_top.env.ahb_agt.drv [ahb_driver] WRITE! addr = 0, data = 8
# UVM_INFO ./../vip/ahb_vip/ahb_monitor.sv(46) @ 1000: uvm_test_top.env.ahb_agt.mnt [ahb_monitor] Observed transaction: 
# ----------------------------------------------
# Name          Type             Size  Value    
# ----------------------------------------------
# trans         ahb_transaction  -     @1891    
#   xact_type   xact_type_enum   1     WRITE    
#   xfer_size   xfer_size_enum   3     SIZE_8BIT
#   burst_type  burst_type_enum  3     SINGLE   
#   addr        integral         10    'h0      
#   data        integral         32    'h8      
#   prot        integral         4     'h0      
#   lock        integral         1     'h0      
#   resp        integral         1     'h0      
# ----------------------------------------------
# 
# UVM_INFO ./../regmodel/uart_reg2ahb_adapter.sv(42) @ 1000: reporter [uart_reg2ahb_adapter] bus2reg: addr = 0x0, data = 0x8, kind = UVM_WRITE, status = UVM_IS_OK
# UVM_INFO /ictc/other/tools/QuestaDVA/questasim/verilog_src/uvm-1.2/src/reg/uvm_reg_predictor.svh(221) @ 1000: uvm_test_top.env.ahb_predictor [REG_PREDICT] Observed WRITE transaction to register regmodel.MDR: value='h8 : updated value = 'h0
# UVM_INFO ./../regmodel/uart_reg2ahb_adapter.sv(42) @ 1000: reporter [uart_reg2ahb_adapter] bus2reg: addr = 0x0, data = 0x8, kind = UVM_WRITE, status = UVM_IS_OK
# UVM_INFO @ 1000: reporter [RegModel] Wrote register via map regmodel.ahb_map: regmodel.MDR=0x8
# UVM_INFO ./../regmodel/uart_reg2ahb_adapter.sv(27) @ 1000: reporter [uart_reg2ahb_adapter] reg2bus: addr = 0x0, data = 0x0, kind = READ
# UVM_INFO ./../vip/ahb_vip/ahb_driver.sv(63) @ 1000: uvm_test_top.env.ahb_agt.drv [ahb_driver] READ! addr = 0, data = 0
# UVM_INFO ./../vip/ahb_vip/ahb_monitor.sv(46) @ 1000: uvm_test_top.env.ahb_agt.mnt [ahb_monitor] Observed transaction: 
# ----------------------------------------------
# Name          Type             Size  Value    
# ----------------------------------------------
# trans         ahb_transaction  -     @1925    
#   xact_type   xact_type_enum   1     READ     
#   xfer_size   xfer_size_enum   3     SIZE_8BIT
#   burst_type  burst_type_enum  3     SINGLE   
#   addr        integral         10    'h0      
#   data        integral         32    'h0      
#   prot        integral         4     'h0      
#   lock        integral         1     'h0      
#   resp        integral         1     'h0      
# ----------------------------------------------
# 
# UVM_INFO ./../regmodel/uart_reg2ahb_adapter.sv(42) @ 1000: reporter [uart_reg2ahb_adapter] bus2reg: addr = 0x0, data = 0x0, kind = UVM_READ, status = UVM_IS_OK
# UVM_INFO /ictc/other/tools/QuestaDVA/questasim/verilog_src/uvm-1.2/src/reg/uvm_reg_predictor.svh(225) @ 1000: uvm_test_top.env.ahb_predictor [REG_PREDICT] Observed READ transaction to register regmodel.MDR: value='h0
# UVM_INFO ./../regmodel/uart_reg2ahb_adapter.sv(42) @ 1000: reporter [uart_reg2ahb_adapter] bus2reg: addr = 0x0, data = 0x0, kind = UVM_READ, status = UVM_IS_OK
# UVM_INFO @ 1000: reporter [RegModel] Read  register via map regmodel.ahb_map: regmodel.MDR=0
# UVM_INFO /ictc/other/tools/QuestaDVA/questasim/verilog_src/uvm-1.2/src/reg/sequences/uvm_reg_bit_bash_seq.svh(152) @ 1000: uvm_test_top.env.ahb_agt.seq@@reg_bit_bash_seq.reg_single_bit_bash_seq [uvm_reg_bit_bash_seq] ...Bashing RO bit #4
# UVM_INFO ./../regmodel/uart_reg2ahb_adapter.sv(27) @ 1000: reporter [uart_reg2ahb_adapter] reg2bus: addr = 0x0, data = 0x10, kind = WRITE
# UVM_INFO ./../vip/ahb_vip/ahb_driver.sv(65) @ 1000: uvm_test_top.env.ahb_agt.drv [ahb_driver] WRITE! addr = 0, data = 10
# UVM_INFO ./../vip/ahb_vip/ahb_monitor.sv(46) @ 1000: uvm_test_top.env.ahb_agt.mnt [ahb_monitor] Observed transaction: 
# ----------------------------------------------
# Name          Type             Size  Value    
# ----------------------------------------------
# trans         ahb_transaction  -     @1959    
#   xact_type   xact_type_enum   1     WRITE    
#   xfer_size   xfer_size_enum   3     SIZE_8BIT
#   burst_type  burst_type_enum  3     SINGLE   
#   addr        integral         10    'h0      
#   data        integral         32    'h10     
#   prot        integral         4     'h0      
#   lock        integral         1     'h0      
#   resp        integral         1     'h0      
# ----------------------------------------------
# 
# UVM_INFO ./../regmodel/uart_reg2ahb_adapter.sv(42) @ 1000: reporter [uart_reg2ahb_adapter] bus2reg: addr = 0x0, data = 0x10, kind = UVM_WRITE, status = UVM_IS_OK
# UVM_INFO /ictc/other/tools/QuestaDVA/questasim/verilog_src/uvm-1.2/src/reg/uvm_reg_predictor.svh(221) @ 1000: uvm_test_top.env.ahb_predictor [REG_PREDICT] Observed WRITE transaction to register regmodel.MDR: value='h10 : updated value = 'h0
# UVM_INFO ./../regmodel/uart_reg2ahb_adapter.sv(42) @ 1000: reporter [uart_reg2ahb_adapter] bus2reg: addr = 0x0, data = 0x10, kind = UVM_WRITE, status = UVM_IS_OK
# UVM_INFO @ 1000: reporter [RegModel] Wrote register via map regmodel.ahb_map: regmodel.MDR=0x10
# UVM_INFO ./../regmodel/uart_reg2ahb_adapter.sv(27) @ 1000: reporter [uart_reg2ahb_adapter] reg2bus: addr = 0x0, data = 0x0, kind = READ
# UVM_INFO ./../vip/ahb_vip/ahb_driver.sv(63) @ 1000: uvm_test_top.env.ahb_agt.drv [ahb_driver] READ! addr = 0, data = 0
# UVM_INFO ./../vip/ahb_vip/ahb_monitor.sv(46) @ 1000: uvm_test_top.env.ahb_agt.mnt [ahb_monitor] Observed transaction: 
# ----------------------------------------------
# Name          Type             Size  Value    
# ----------------------------------------------
# trans         ahb_transaction  -     @1995    
#   xact_type   xact_type_enum   1     READ     
#   xfer_size   xfer_size_enum   3     SIZE_8BIT
#   burst_type  burst_type_enum  3     SINGLE   
#   addr        integral         10    'h0      
#   data        integral         32    'h0      
#   prot        integral         4     'h0      
#   lock        integral         1     'h0      
#   resp        integral         1     'h0      
# ----------------------------------------------
# 
# UVM_INFO ./../regmodel/uart_reg2ahb_adapter.sv(42) @ 1000: reporter [uart_reg2ahb_adapter] bus2reg: addr = 0x0, data = 0x0, kind = UVM_READ, status = UVM_IS_OK
# UVM_INFO /ictc/other/tools/QuestaDVA/questasim/verilog_src/uvm-1.2/src/reg/uvm_reg_predictor.svh(225) @ 1000: uvm_test_top.env.ahb_predictor [REG_PREDICT] Observed READ transaction to register regmodel.MDR: value='h0
# UVM_INFO ./../regmodel/uart_reg2ahb_adapter.sv(42) @ 1000: reporter [uart_reg2ahb_adapter] bus2reg: addr = 0x0, data = 0x0, kind = UVM_READ, status = UVM_IS_OK
# UVM_INFO @ 1000: reporter [RegModel] Read  register via map regmodel.ahb_map: regmodel.MDR=0
# UVM_INFO ./../regmodel/uart_reg2ahb_adapter.sv(27) @ 1000: reporter [uart_reg2ahb_adapter] reg2bus: addr = 0x0, data = 0x10, kind = WRITE
# UVM_INFO ./../vip/ahb_vip/ahb_driver.sv(65) @ 1000: uvm_test_top.env.ahb_agt.drv [ahb_driver] WRITE! addr = 0, data = 10
# UVM_INFO ./../vip/ahb_vip/ahb_monitor.sv(46) @ 1000: uvm_test_top.env.ahb_agt.mnt [ahb_monitor] Observed transaction: 
# ----------------------------------------------
# Name          Type             Size  Value    
# ----------------------------------------------
# trans         ahb_transaction  -     @2029    
#   xact_type   xact_type_enum   1     WRITE    
#   xfer_size   xfer_size_enum   3     SIZE_8BIT
#   burst_type  burst_type_enum  3     SINGLE   
#   addr        integral         10    'h0      
#   data        integral         32    'h10     
#   prot        integral         4     'h0      
#   lock        integral         1     'h0      
#   resp        integral         1     'h0      
# ----------------------------------------------
# 
# UVM_INFO ./../regmodel/uart_reg2ahb_adapter.sv(42) @ 1000: reporter [uart_reg2ahb_adapter] bus2reg: addr = 0x0, data = 0x10, kind = UVM_WRITE, status = UVM_IS_OK
# UVM_INFO /ictc/other/tools/QuestaDVA/questasim/verilog_src/uvm-1.2/src/reg/uvm_reg_predictor.svh(221) @ 1000: uvm_test_top.env.ahb_predictor [REG_PREDICT] Observed WRITE transaction to register regmodel.MDR: value='h10 : updated value = 'h0
# UVM_INFO ./../regmodel/uart_reg2ahb_adapter.sv(42) @ 1000: reporter [uart_reg2ahb_adapter] bus2reg: addr = 0x0, data = 0x10, kind = UVM_WRITE, status = UVM_IS_OK
# UVM_INFO @ 1000: reporter [RegModel] Wrote register via map regmodel.ahb_map: regmodel.MDR=0x10
# UVM_INFO ./../regmodel/uart_reg2ahb_adapter.sv(27) @ 1000: reporter [uart_reg2ahb_adapter] reg2bus: addr = 0x0, data = 0x0, kind = READ
# UVM_INFO ./../vip/ahb_vip/ahb_driver.sv(63) @ 1000: uvm_test_top.env.ahb_agt.drv [ahb_driver] READ! addr = 0, data = 0
# UVM_INFO ./../vip/ahb_vip/ahb_monitor.sv(46) @ 1000: uvm_test_top.env.ahb_agt.mnt [ahb_monitor] Observed transaction: 
# ----------------------------------------------
# Name          Type             Size  Value    
# ----------------------------------------------
# trans         ahb_transaction  -     @2063    
#   xact_type   xact_type_enum   1     READ     
#   xfer_size   xfer_size_enum   3     SIZE_8BIT
#   burst_type  burst_type_enum  3     SINGLE   
#   addr        integral         10    'h0      
#   data        integral         32    'h0      
#   prot        integral         4     'h0      
#   lock        integral         1     'h0      
#   resp        integral         1     'h0      
# ----------------------------------------------
# 
# UVM_INFO ./../regmodel/uart_reg2ahb_adapter.sv(42) @ 1000: reporter [uart_reg2ahb_adapter] bus2reg: addr = 0x0, data = 0x0, kind = UVM_READ, status = UVM_IS_OK
# UVM_INFO /ictc/other/tools/QuestaDVA/questasim/verilog_src/uvm-1.2/src/reg/uvm_reg_predictor.svh(225) @ 1000: uvm_test_top.env.ahb_predictor [REG_PREDICT] Observed READ transaction to register regmodel.MDR: value='h0
# UVM_INFO ./../regmodel/uart_reg2ahb_adapter.sv(42) @ 1000: reporter [uart_reg2ahb_adapter] bus2reg: addr = 0x0, data = 0x0, kind = UVM_READ, status = UVM_IS_OK
# UVM_INFO @ 1000: reporter [RegModel] Read  register via map regmodel.ahb_map: regmodel.MDR=0
# UVM_INFO /ictc/other/tools/QuestaDVA/questasim/verilog_src/uvm-1.2/src/reg/sequences/uvm_reg_bit_bash_seq.svh(152) @ 1000: uvm_test_top.env.ahb_agt.seq@@reg_bit_bash_seq.reg_single_bit_bash_seq [uvm_reg_bit_bash_seq] ...Bashing RO bit #5
# UVM_INFO ./../regmodel/uart_reg2ahb_adapter.sv(27) @ 1000: reporter [uart_reg2ahb_adapter] reg2bus: addr = 0x0, data = 0x20, kind = WRITE
# UVM_INFO ./../vip/ahb_vip/ahb_driver.sv(65) @ 1000: uvm_test_top.env.ahb_agt.drv [ahb_driver] WRITE! addr = 0, data = 20
# UVM_INFO ./../vip/ahb_vip/ahb_monitor.sv(46) @ 1000: uvm_test_top.env.ahb_agt.mnt [ahb_monitor] Observed transaction: 
# ----------------------------------------------
# Name          Type             Size  Value    
# ----------------------------------------------
# trans         ahb_transaction  -     @2097    
#   xact_type   xact_type_enum   1     WRITE    
#   xfer_size   xfer_size_enum   3     SIZE_8BIT
#   burst_type  burst_type_enum  3     SINGLE   
#   addr        integral         10    'h0      
#   data        integral         32    'h20     
#   prot        integral         4     'h0      
#   lock        integral         1     'h0      
#   resp        integral         1     'h0      
# ----------------------------------------------
# 
# UVM_INFO ./../regmodel/uart_reg2ahb_adapter.sv(42) @ 1000: reporter [uart_reg2ahb_adapter] bus2reg: addr = 0x0, data = 0x20, kind = UVM_WRITE, status = UVM_IS_OK
# UVM_INFO /ictc/other/tools/QuestaDVA/questasim/verilog_src/uvm-1.2/src/reg/uvm_reg_predictor.svh(221) @ 1000: uvm_test_top.env.ahb_predictor [REG_PREDICT] Observed WRITE transaction to register regmodel.MDR: value='h20 : updated value = 'h0
# UVM_INFO ./../regmodel/uart_reg2ahb_adapter.sv(42) @ 1000: reporter [uart_reg2ahb_adapter] bus2reg: addr = 0x0, data = 0x20, kind = UVM_WRITE, status = UVM_IS_OK
# UVM_INFO @ 1000: reporter [RegModel] Wrote register via map regmodel.ahb_map: regmodel.MDR=0x20
# UVM_INFO ./../regmodel/uart_reg2ahb_adapter.sv(27) @ 1000: reporter [uart_reg2ahb_adapter] reg2bus: addr = 0x0, data = 0x0, kind = READ
# UVM_INFO ./../vip/ahb_vip/ahb_driver.sv(63) @ 2000: uvm_test_top.env.ahb_agt.drv [ahb_driver] READ! addr = 0, data = 0
# UVM_INFO ./../vip/ahb_vip/ahb_monitor.sv(46) @ 2000: uvm_test_top.env.ahb_agt.mnt [ahb_monitor] Observed transaction: 
# ----------------------------------------------
# Name          Type             Size  Value    
# ----------------------------------------------
# trans         ahb_transaction  -     @2133    
#   xact_type   xact_type_enum   1     READ     
#   xfer_size   xfer_size_enum   3     SIZE_8BIT
#   burst_type  burst_type_enum  3     SINGLE   
#   addr        integral         10    'h0      
#   data        integral         32    'h0      
#   prot        integral         4     'h0      
#   lock        integral         1     'h0      
#   resp        integral         1     'h0      
# ----------------------------------------------
# 
# UVM_INFO ./../regmodel/uart_reg2ahb_adapter.sv(42) @ 2000: reporter [uart_reg2ahb_adapter] bus2reg: addr = 0x0, data = 0x0, kind = UVM_READ, status = UVM_IS_OK
# UVM_INFO /ictc/other/tools/QuestaDVA/questasim/verilog_src/uvm-1.2/src/reg/uvm_reg_predictor.svh(225) @ 2000: uvm_test_top.env.ahb_predictor [REG_PREDICT] Observed READ transaction to register regmodel.MDR: value='h0
# UVM_INFO ./../regmodel/uart_reg2ahb_adapter.sv(42) @ 2000: reporter [uart_reg2ahb_adapter] bus2reg: addr = 0x0, data = 0x0, kind = UVM_READ, status = UVM_IS_OK
# UVM_INFO @ 2000: reporter [RegModel] Read  register via map regmodel.ahb_map: regmodel.MDR=0
# UVM_INFO ./../regmodel/uart_reg2ahb_adapter.sv(27) @ 2000: reporter [uart_reg2ahb_adapter] reg2bus: addr = 0x0, data = 0x20, kind = WRITE
# UVM_INFO ./../vip/ahb_vip/ahb_driver.sv(65) @ 2000: uvm_test_top.env.ahb_agt.drv [ahb_driver] WRITE! addr = 0, data = 20
# UVM_INFO ./../vip/ahb_vip/ahb_monitor.sv(46) @ 2000: uvm_test_top.env.ahb_agt.mnt [ahb_monitor] Observed transaction: 
# ----------------------------------------------
# Name          Type             Size  Value    
# ----------------------------------------------
# trans         ahb_transaction  -     @2167    
#   xact_type   xact_type_enum   1     WRITE    
#   xfer_size   xfer_size_enum   3     SIZE_8BIT
#   burst_type  burst_type_enum  3     SINGLE   
#   addr        integral         10    'h0      
#   data        integral         32    'h20     
#   prot        integral         4     'h0      
#   lock        integral         1     'h0      
#   resp        integral         1     'h0      
# ----------------------------------------------
# 
# UVM_INFO ./../regmodel/uart_reg2ahb_adapter.sv(42) @ 2000: reporter [uart_reg2ahb_adapter] bus2reg: addr = 0x0, data = 0x20, kind = UVM_WRITE, status = UVM_IS_OK
# UVM_INFO /ictc/other/tools/QuestaDVA/questasim/verilog_src/uvm-1.2/src/reg/uvm_reg_predictor.svh(221) @ 2000: uvm_test_top.env.ahb_predictor [REG_PREDICT] Observed WRITE transaction to register regmodel.MDR: value='h20 : updated value = 'h0
# UVM_INFO ./../regmodel/uart_reg2ahb_adapter.sv(42) @ 2000: reporter [uart_reg2ahb_adapter] bus2reg: addr = 0x0, data = 0x20, kind = UVM_WRITE, status = UVM_IS_OK
# UVM_INFO @ 2000: reporter [RegModel] Wrote register via map regmodel.ahb_map: regmodel.MDR=0x20
# UVM_INFO ./../regmodel/uart_reg2ahb_adapter.sv(27) @ 2000: reporter [uart_reg2ahb_adapter] reg2bus: addr = 0x0, data = 0x0, kind = READ
# UVM_INFO ./../vip/ahb_vip/ahb_driver.sv(63) @ 2000: uvm_test_top.env.ahb_agt.drv [ahb_driver] READ! addr = 0, data = 0
# UVM_INFO ./../vip/ahb_vip/ahb_monitor.sv(46) @ 2000: uvm_test_top.env.ahb_agt.mnt [ahb_monitor] Observed transaction: 
# ----------------------------------------------
# Name          Type             Size  Value    
# ----------------------------------------------
# trans         ahb_transaction  -     @2201    
#   xact_type   xact_type_enum   1     READ     
#   xfer_size   xfer_size_enum   3     SIZE_8BIT
#   burst_type  burst_type_enum  3     SINGLE   
#   addr        integral         10    'h0      
#   data        integral         32    'h0      
#   prot        integral         4     'h0      
#   lock        integral         1     'h0      
#   resp        integral         1     'h0      
# ----------------------------------------------
# 
# UVM_INFO ./../regmodel/uart_reg2ahb_adapter.sv(42) @ 2000: reporter [uart_reg2ahb_adapter] bus2reg: addr = 0x0, data = 0x0, kind = UVM_READ, status = UVM_IS_OK
# UVM_INFO /ictc/other/tools/QuestaDVA/questasim/verilog_src/uvm-1.2/src/reg/uvm_reg_predictor.svh(225) @ 2000: uvm_test_top.env.ahb_predictor [REG_PREDICT] Observed READ transaction to register regmodel.MDR: value='h0
# UVM_INFO ./../regmodel/uart_reg2ahb_adapter.sv(42) @ 2000: reporter [uart_reg2ahb_adapter] bus2reg: addr = 0x0, data = 0x0, kind = UVM_READ, status = UVM_IS_OK
# UVM_INFO @ 2000: reporter [RegModel] Read  register via map regmodel.ahb_map: regmodel.MDR=0
# UVM_INFO /ictc/other/tools/QuestaDVA/questasim/verilog_src/uvm-1.2/src/reg/sequences/uvm_reg_bit_bash_seq.svh(152) @ 2000: uvm_test_top.env.ahb_agt.seq@@reg_bit_bash_seq.reg_single_bit_bash_seq [uvm_reg_bit_bash_seq] ...Bashing RO bit #6
# UVM_INFO ./../regmodel/uart_reg2ahb_adapter.sv(27) @ 2000: reporter [uart_reg2ahb_adapter] reg2bus: addr = 0x0, data = 0x40, kind = WRITE
# UVM_INFO ./../vip/ahb_vip/ahb_driver.sv(65) @ 2000: uvm_test_top.env.ahb_agt.drv [ahb_driver] WRITE! addr = 0, data = 40
# UVM_INFO ./../vip/ahb_vip/ahb_monitor.sv(46) @ 2000: uvm_test_top.env.ahb_agt.mnt [ahb_monitor] Observed transaction: 
# ----------------------------------------------
# Name          Type             Size  Value    
# ----------------------------------------------
# trans         ahb_transaction  -     @2235    
#   xact_type   xact_type_enum   1     WRITE    
#   xfer_size   xfer_size_enum   3     SIZE_8BIT
#   burst_type  burst_type_enum  3     SINGLE   
#   addr        integral         10    'h0      
#   data        integral         32    'h40     
#   prot        integral         4     'h0      
#   lock        integral         1     'h0      
#   resp        integral         1     'h0      
# ----------------------------------------------
# 
# UVM_INFO ./../regmodel/uart_reg2ahb_adapter.sv(42) @ 2000: reporter [uart_reg2ahb_adapter] bus2reg: addr = 0x0, data = 0x40, kind = UVM_WRITE, status = UVM_IS_OK
# UVM_INFO /ictc/other/tools/QuestaDVA/questasim/verilog_src/uvm-1.2/src/reg/uvm_reg_predictor.svh(221) @ 2000: uvm_test_top.env.ahb_predictor [REG_PREDICT] Observed WRITE transaction to register regmodel.MDR: value='h40 : updated value = 'h0
# UVM_INFO ./../regmodel/uart_reg2ahb_adapter.sv(42) @ 2000: reporter [uart_reg2ahb_adapter] bus2reg: addr = 0x0, data = 0x40, kind = UVM_WRITE, status = UVM_IS_OK
# UVM_INFO @ 2000: reporter [RegModel] Wrote register via map regmodel.ahb_map: regmodel.MDR=0x40
# UVM_INFO ./../regmodel/uart_reg2ahb_adapter.sv(27) @ 2000: reporter [uart_reg2ahb_adapter] reg2bus: addr = 0x0, data = 0x0, kind = READ
# UVM_INFO ./../vip/ahb_vip/ahb_driver.sv(63) @ 2000: uvm_test_top.env.ahb_agt.drv [ahb_driver] READ! addr = 0, data = 0
# UVM_INFO ./../vip/ahb_vip/ahb_monitor.sv(46) @ 2000: uvm_test_top.env.ahb_agt.mnt [ahb_monitor] Observed transaction: 
# ----------------------------------------------
# Name          Type             Size  Value    
# ----------------------------------------------
# trans         ahb_transaction  -     @2271    
#   xact_type   xact_type_enum   1     READ     
#   xfer_size   xfer_size_enum   3     SIZE_8BIT
#   burst_type  burst_type_enum  3     SINGLE   
#   addr        integral         10    'h0      
#   data        integral         32    'h0      
#   prot        integral         4     'h0      
#   lock        integral         1     'h0      
#   resp        integral         1     'h0      
# ----------------------------------------------
# 
# UVM_INFO ./../regmodel/uart_reg2ahb_adapter.sv(42) @ 2000: reporter [uart_reg2ahb_adapter] bus2reg: addr = 0x0, data = 0x0, kind = UVM_READ, status = UVM_IS_OK
# UVM_INFO /ictc/other/tools/QuestaDVA/questasim/verilog_src/uvm-1.2/src/reg/uvm_reg_predictor.svh(225) @ 2000: uvm_test_top.env.ahb_predictor [REG_PREDICT] Observed READ transaction to register regmodel.MDR: value='h0
# UVM_INFO ./../regmodel/uart_reg2ahb_adapter.sv(42) @ 2000: reporter [uart_reg2ahb_adapter] bus2reg: addr = 0x0, data = 0x0, kind = UVM_READ, status = UVM_IS_OK
# UVM_INFO @ 2000: reporter [RegModel] Read  register via map regmodel.ahb_map: regmodel.MDR=0
# UVM_INFO ./../regmodel/uart_reg2ahb_adapter.sv(27) @ 2000: reporter [uart_reg2ahb_adapter] reg2bus: addr = 0x0, data = 0x40, kind = WRITE
# UVM_INFO ./../vip/ahb_vip/ahb_driver.sv(65) @ 2000: uvm_test_top.env.ahb_agt.drv [ahb_driver] WRITE! addr = 0, data = 40
# UVM_INFO ./../vip/ahb_vip/ahb_monitor.sv(46) @ 2000: uvm_test_top.env.ahb_agt.mnt [ahb_monitor] Observed transaction: 
# ----------------------------------------------
# Name          Type             Size  Value    
# ----------------------------------------------
# trans         ahb_transaction  -     @2305    
#   xact_type   xact_type_enum   1     WRITE    
#   xfer_size   xfer_size_enum   3     SIZE_8BIT
#   burst_type  burst_type_enum  3     SINGLE   
#   addr        integral         10    'h0      
#   data        integral         32    'h40     
#   prot        integral         4     'h0      
#   lock        integral         1     'h0      
#   resp        integral         1     'h0      
# ----------------------------------------------
# 
# UVM_INFO ./../regmodel/uart_reg2ahb_adapter.sv(42) @ 2000: reporter [uart_reg2ahb_adapter] bus2reg: addr = 0x0, data = 0x40, kind = UVM_WRITE, status = UVM_IS_OK
# UVM_INFO /ictc/other/tools/QuestaDVA/questasim/verilog_src/uvm-1.2/src/reg/uvm_reg_predictor.svh(221) @ 2000: uvm_test_top.env.ahb_predictor [REG_PREDICT] Observed WRITE transaction to register regmodel.MDR: value='h40 : updated value = 'h0
# UVM_INFO ./../regmodel/uart_reg2ahb_adapter.sv(42) @ 2000: reporter [uart_reg2ahb_adapter] bus2reg: addr = 0x0, data = 0x40, kind = UVM_WRITE, status = UVM_IS_OK
# UVM_INFO @ 2000: reporter [RegModel] Wrote register via map regmodel.ahb_map: regmodel.MDR=0x40
# UVM_INFO ./../regmodel/uart_reg2ahb_adapter.sv(27) @ 2000: reporter [uart_reg2ahb_adapter] reg2bus: addr = 0x0, data = 0x0, kind = READ
# UVM_INFO ./../vip/ahb_vip/ahb_driver.sv(63) @ 2000: uvm_test_top.env.ahb_agt.drv [ahb_driver] READ! addr = 0, data = 0
# UVM_INFO ./../vip/ahb_vip/ahb_monitor.sv(46) @ 2000: uvm_test_top.env.ahb_agt.mnt [ahb_monitor] Observed transaction: 
# ----------------------------------------------
# Name          Type             Size  Value    
# ----------------------------------------------
# trans         ahb_transaction  -     @2339    
#   xact_type   xact_type_enum   1     READ     
#   xfer_size   xfer_size_enum   3     SIZE_8BIT
#   burst_type  burst_type_enum  3     SINGLE   
#   addr        integral         10    'h0      
#   data        integral         32    'h0      
#   prot        integral         4     'h0      
#   lock        integral         1     'h0      
#   resp        integral         1     'h0      
# ----------------------------------------------
# 
# UVM_INFO ./../regmodel/uart_reg2ahb_adapter.sv(42) @ 2000: reporter [uart_reg2ahb_adapter] bus2reg: addr = 0x0, data = 0x0, kind = UVM_READ, status = UVM_IS_OK
# UVM_INFO /ictc/other/tools/QuestaDVA/questasim/verilog_src/uvm-1.2/src/reg/uvm_reg_predictor.svh(225) @ 2000: uvm_test_top.env.ahb_predictor [REG_PREDICT] Observed READ transaction to register regmodel.MDR: value='h0
# UVM_INFO ./../regmodel/uart_reg2ahb_adapter.sv(42) @ 2000: reporter [uart_reg2ahb_adapter] bus2reg: addr = 0x0, data = 0x0, kind = UVM_READ, status = UVM_IS_OK
# UVM_INFO @ 2000: reporter [RegModel] Read  register via map regmodel.ahb_map: regmodel.MDR=0
# UVM_INFO /ictc/other/tools/QuestaDVA/questasim/verilog_src/uvm-1.2/src/reg/sequences/uvm_reg_bit_bash_seq.svh(152) @ 2000: uvm_test_top.env.ahb_agt.seq@@reg_bit_bash_seq.reg_single_bit_bash_seq [uvm_reg_bit_bash_seq] ...Bashing RO bit #7
# UVM_INFO ./../regmodel/uart_reg2ahb_adapter.sv(27) @ 2000: reporter [uart_reg2ahb_adapter] reg2bus: addr = 0x0, data = 0x80, kind = WRITE
# UVM_INFO ./../vip/ahb_vip/ahb_driver.sv(65) @ 2000: uvm_test_top.env.ahb_agt.drv [ahb_driver] WRITE! addr = 0, data = 80
# UVM_INFO ./../vip/ahb_vip/ahb_monitor.sv(46) @ 2000: uvm_test_top.env.ahb_agt.mnt [ahb_monitor] Observed transaction: 
# ----------------------------------------------
# Name          Type             Size  Value    
# ----------------------------------------------
# trans         ahb_transaction  -     @2373    
#   xact_type   xact_type_enum   1     WRITE    
#   xfer_size   xfer_size_enum   3     SIZE_8BIT
#   burst_type  burst_type_enum  3     SINGLE   
#   addr        integral         10    'h0      
#   data        integral         32    'h80     
#   prot        integral         4     'h0      
#   lock        integral         1     'h0      
#   resp        integral         1     'h0      
# ----------------------------------------------
# 
# UVM_INFO ./../regmodel/uart_reg2ahb_adapter.sv(42) @ 2000: reporter [uart_reg2ahb_adapter] bus2reg: addr = 0x0, data = 0x80, kind = UVM_WRITE, status = UVM_IS_OK
# UVM_INFO /ictc/other/tools/QuestaDVA/questasim/verilog_src/uvm-1.2/src/reg/uvm_reg_predictor.svh(221) @ 2000: uvm_test_top.env.ahb_predictor [REG_PREDICT] Observed WRITE transaction to register regmodel.MDR: value='h80 : updated value = 'h0
# UVM_INFO ./../regmodel/uart_reg2ahb_adapter.sv(42) @ 2000: reporter [uart_reg2ahb_adapter] bus2reg: addr = 0x0, data = 0x80, kind = UVM_WRITE, status = UVM_IS_OK
# UVM_INFO @ 2000: reporter [RegModel] Wrote register via map regmodel.ahb_map: regmodel.MDR=0x80
# UVM_INFO ./../regmodel/uart_reg2ahb_adapter.sv(27) @ 2000: reporter [uart_reg2ahb_adapter] reg2bus: addr = 0x0, data = 0x0, kind = READ
# UVM_INFO ./../vip/ahb_vip/ahb_driver.sv(63) @ 2000: uvm_test_top.env.ahb_agt.drv [ahb_driver] READ! addr = 0, data = 0
# UVM_INFO ./../vip/ahb_vip/ahb_monitor.sv(46) @ 2000: uvm_test_top.env.ahb_agt.mnt [ahb_monitor] Observed transaction: 
# ----------------------------------------------
# Name          Type             Size  Value    
# ----------------------------------------------
# trans         ahb_transaction  -     @2409    
#   xact_type   xact_type_enum   1     READ     
#   xfer_size   xfer_size_enum   3     SIZE_8BIT
#   burst_type  burst_type_enum  3     SINGLE   
#   addr        integral         10    'h0      
#   data        integral         32    'h0      
#   prot        integral         4     'h0      
#   lock        integral         1     'h0      
#   resp        integral         1     'h0      
# ----------------------------------------------
# 
# UVM_INFO ./../regmodel/uart_reg2ahb_adapter.sv(42) @ 2000: reporter [uart_reg2ahb_adapter] bus2reg: addr = 0x0, data = 0x0, kind = UVM_READ, status = UVM_IS_OK
# UVM_INFO /ictc/other/tools/QuestaDVA/questasim/verilog_src/uvm-1.2/src/reg/uvm_reg_predictor.svh(225) @ 2000: uvm_test_top.env.ahb_predictor [REG_PREDICT] Observed READ transaction to register regmodel.MDR: value='h0
# UVM_INFO ./../regmodel/uart_reg2ahb_adapter.sv(42) @ 2000: reporter [uart_reg2ahb_adapter] bus2reg: addr = 0x0, data = 0x0, kind = UVM_READ, status = UVM_IS_OK
# UVM_INFO @ 2000: reporter [RegModel] Read  register via map regmodel.ahb_map: regmodel.MDR=0
# UVM_INFO ./../regmodel/uart_reg2ahb_adapter.sv(27) @ 2000: reporter [uart_reg2ahb_adapter] reg2bus: addr = 0x0, data = 0x80, kind = WRITE
# UVM_INFO ./../vip/ahb_vip/ahb_driver.sv(65) @ 2000: uvm_test_top.env.ahb_agt.drv [ahb_driver] WRITE! addr = 0, data = 80
# UVM_INFO ./../vip/ahb_vip/ahb_monitor.sv(46) @ 2000: uvm_test_top.env.ahb_agt.mnt [ahb_monitor] Observed transaction: 
# ----------------------------------------------
# Name          Type             Size  Value    
# ----------------------------------------------
# trans         ahb_transaction  -     @2443    
#   xact_type   xact_type_enum   1     WRITE    
#   xfer_size   xfer_size_enum   3     SIZE_8BIT
#   burst_type  burst_type_enum  3     SINGLE   
#   addr        integral         10    'h0      
#   data        integral         32    'h80     
#   prot        integral         4     'h0      
#   lock        integral         1     'h0      
#   resp        integral         1     'h0      
# ----------------------------------------------
# 
# UVM_INFO ./../regmodel/uart_reg2ahb_adapter.sv(42) @ 2000: reporter [uart_reg2ahb_adapter] bus2reg: addr = 0x0, data = 0x80, kind = UVM_WRITE, status = UVM_IS_OK
# UVM_INFO /ictc/other/tools/QuestaDVA/questasim/verilog_src/uvm-1.2/src/reg/uvm_reg_predictor.svh(221) @ 2000: uvm_test_top.env.ahb_predictor [REG_PREDICT] Observed WRITE transaction to register regmodel.MDR: value='h80 : updated value = 'h0
# UVM_INFO ./../regmodel/uart_reg2ahb_adapter.sv(42) @ 2000: reporter [uart_reg2ahb_adapter] bus2reg: addr = 0x0, data = 0x80, kind = UVM_WRITE, status = UVM_IS_OK
# UVM_INFO @ 2000: reporter [RegModel] Wrote register via map regmodel.ahb_map: regmodel.MDR=0x80
# UVM_INFO ./../regmodel/uart_reg2ahb_adapter.sv(27) @ 2000: reporter [uart_reg2ahb_adapter] reg2bus: addr = 0x0, data = 0x0, kind = READ
# UVM_INFO ./../vip/ahb_vip/ahb_driver.sv(63) @ 2000: uvm_test_top.env.ahb_agt.drv [ahb_driver] READ! addr = 0, data = 0
# UVM_INFO ./../vip/ahb_vip/ahb_monitor.sv(46) @ 2000: uvm_test_top.env.ahb_agt.mnt [ahb_monitor] Observed transaction: 
# ----------------------------------------------
# Name          Type             Size  Value    
# ----------------------------------------------
# trans         ahb_transaction  -     @2477    
#   xact_type   xact_type_enum   1     READ     
#   xfer_size   xfer_size_enum   3     SIZE_8BIT
#   burst_type  burst_type_enum  3     SINGLE   
#   addr        integral         10    'h0      
#   data        integral         32    'h0      
#   prot        integral         4     'h0      
#   lock        integral         1     'h0      
#   resp        integral         1     'h0      
# ----------------------------------------------
# 
# UVM_INFO ./../regmodel/uart_reg2ahb_adapter.sv(42) @ 2000: reporter [uart_reg2ahb_adapter] bus2reg: addr = 0x0, data = 0x0, kind = UVM_READ, status = UVM_IS_OK
# UVM_INFO /ictc/other/tools/QuestaDVA/questasim/verilog_src/uvm-1.2/src/reg/uvm_reg_predictor.svh(225) @ 2000: uvm_test_top.env.ahb_predictor [REG_PREDICT] Observed READ transaction to register regmodel.MDR: value='h0
# UVM_INFO ./../regmodel/uart_reg2ahb_adapter.sv(42) @ 2000: reporter [uart_reg2ahb_adapter] bus2reg: addr = 0x0, data = 0x0, kind = UVM_READ, status = UVM_IS_OK
# UVM_INFO @ 2000: reporter [RegModel] Read  register via map regmodel.ahb_map: regmodel.MDR=0
# UVM_INFO /ictc/other/tools/QuestaDVA/questasim/verilog_src/uvm-1.2/src/reg/sequences/uvm_reg_bit_bash_seq.svh(152) @ 2000: uvm_test_top.env.ahb_agt.seq@@reg_bit_bash_seq.reg_single_bit_bash_seq [uvm_reg_bit_bash_seq] ...Bashing RO bit #8
# UVM_INFO ./../regmodel/uart_reg2ahb_adapter.sv(27) @ 2000: reporter [uart_reg2ahb_adapter] reg2bus: addr = 0x0, data = 0x100, kind = WRITE
# UVM_INFO ./../vip/ahb_vip/ahb_driver.sv(65) @ 2000: uvm_test_top.env.ahb_agt.drv [ahb_driver] WRITE! addr = 0, data = 100
# UVM_INFO ./../vip/ahb_vip/ahb_monitor.sv(46) @ 2000: uvm_test_top.env.ahb_agt.mnt [ahb_monitor] Observed transaction: 
# ----------------------------------------------
# Name          Type             Size  Value    
# ----------------------------------------------
# trans         ahb_transaction  -     @2511    
#   xact_type   xact_type_enum   1     WRITE    
#   xfer_size   xfer_size_enum   3     SIZE_8BIT
#   burst_type  burst_type_enum  3     SINGLE   
#   addr        integral         10    'h0      
#   data        integral         32    'h100    
#   prot        integral         4     'h0      
#   lock        integral         1     'h0      
#   resp        integral         1     'h0      
# ----------------------------------------------
# 
# UVM_INFO ./../regmodel/uart_reg2ahb_adapter.sv(42) @ 2000: reporter [uart_reg2ahb_adapter] bus2reg: addr = 0x0, data = 0x100, kind = UVM_WRITE, status = UVM_IS_OK
# UVM_INFO /ictc/other/tools/QuestaDVA/questasim/verilog_src/uvm-1.2/src/reg/uvm_reg_predictor.svh(221) @ 2000: uvm_test_top.env.ahb_predictor [REG_PREDICT] Observed WRITE transaction to register regmodel.MDR: value='h100 : updated value = 'h0
# UVM_INFO ./../regmodel/uart_reg2ahb_adapter.sv(42) @ 2000: reporter [uart_reg2ahb_adapter] bus2reg: addr = 0x0, data = 0x100, kind = UVM_WRITE, status = UVM_IS_OK
# UVM_INFO @ 2000: reporter [RegModel] Wrote register via map regmodel.ahb_map: regmodel.MDR=0x100
# UVM_INFO ./../regmodel/uart_reg2ahb_adapter.sv(27) @ 2000: reporter [uart_reg2ahb_adapter] reg2bus: addr = 0x0, data = 0x0, kind = READ
# UVM_INFO ./../vip/ahb_vip/ahb_driver.sv(63) @ 2000: uvm_test_top.env.ahb_agt.drv [ahb_driver] READ! addr = 0, data = 0
# UVM_INFO ./../vip/ahb_vip/ahb_monitor.sv(46) @ 2000: uvm_test_top.env.ahb_agt.mnt [ahb_monitor] Observed transaction: 
# ----------------------------------------------
# Name          Type             Size  Value    
# ----------------------------------------------
# trans         ahb_transaction  -     @2547    
#   xact_type   xact_type_enum   1     READ     
#   xfer_size   xfer_size_enum   3     SIZE_8BIT
#   burst_type  burst_type_enum  3     SINGLE   
#   addr        integral         10    'h0      
#   data        integral         32    'h0      
#   prot        integral         4     'h0      
#   lock        integral         1     'h0      
#   resp        integral         1     'h0      
# ----------------------------------------------
# 
# UVM_INFO ./../regmodel/uart_reg2ahb_adapter.sv(42) @ 2000: reporter [uart_reg2ahb_adapter] bus2reg: addr = 0x0, data = 0x0, kind = UVM_READ, status = UVM_IS_OK
# UVM_INFO /ictc/other/tools/QuestaDVA/questasim/verilog_src/uvm-1.2/src/reg/uvm_reg_predictor.svh(225) @ 2000: uvm_test_top.env.ahb_predictor [REG_PREDICT] Observed READ transaction to register regmodel.MDR: value='h0
# UVM_INFO ./../regmodel/uart_reg2ahb_adapter.sv(42) @ 2000: reporter [uart_reg2ahb_adapter] bus2reg: addr = 0x0, data = 0x0, kind = UVM_READ, status = UVM_IS_OK
# UVM_INFO @ 2000: reporter [RegModel] Read  register via map regmodel.ahb_map: regmodel.MDR=0
# UVM_INFO ./../regmodel/uart_reg2ahb_adapter.sv(27) @ 2000: reporter [uart_reg2ahb_adapter] reg2bus: addr = 0x0, data = 0x100, kind = WRITE
# UVM_INFO ./../vip/ahb_vip/ahb_driver.sv(65) @ 2000: uvm_test_top.env.ahb_agt.drv [ahb_driver] WRITE! addr = 0, data = 100
# UVM_INFO ./../vip/ahb_vip/ahb_monitor.sv(46) @ 2000: uvm_test_top.env.ahb_agt.mnt [ahb_monitor] Observed transaction: 
# ----------------------------------------------
# Name          Type             Size  Value    
# ----------------------------------------------
# trans         ahb_transaction  -     @2581    
#   xact_type   xact_type_enum   1     WRITE    
#   xfer_size   xfer_size_enum   3     SIZE_8BIT
#   burst_type  burst_type_enum  3     SINGLE   
#   addr        integral         10    'h0      
#   data        integral         32    'h100    
#   prot        integral         4     'h0      
#   lock        integral         1     'h0      
#   resp        integral         1     'h0      
# ----------------------------------------------
# 
# UVM_INFO ./../regmodel/uart_reg2ahb_adapter.sv(42) @ 2000: reporter [uart_reg2ahb_adapter] bus2reg: addr = 0x0, data = 0x100, kind = UVM_WRITE, status = UVM_IS_OK
# UVM_INFO /ictc/other/tools/QuestaDVA/questasim/verilog_src/uvm-1.2/src/reg/uvm_reg_predictor.svh(221) @ 2000: uvm_test_top.env.ahb_predictor [REG_PREDICT] Observed WRITE transaction to register regmodel.MDR: value='h100 : updated value = 'h0
# UVM_INFO ./../regmodel/uart_reg2ahb_adapter.sv(42) @ 2000: reporter [uart_reg2ahb_adapter] bus2reg: addr = 0x0, data = 0x100, kind = UVM_WRITE, status = UVM_IS_OK
# UVM_INFO @ 2000: reporter [RegModel] Wrote register via map regmodel.ahb_map: regmodel.MDR=0x100
# UVM_INFO ./../regmodel/uart_reg2ahb_adapter.sv(27) @ 2000: reporter [uart_reg2ahb_adapter] reg2bus: addr = 0x0, data = 0x0, kind = READ
# UVM_INFO ./../vip/ahb_vip/ahb_driver.sv(63) @ 2000: uvm_test_top.env.ahb_agt.drv [ahb_driver] READ! addr = 0, data = 0
# UVM_INFO ./../vip/ahb_vip/ahb_monitor.sv(46) @ 2000: uvm_test_top.env.ahb_agt.mnt [ahb_monitor] Observed transaction: 
# ----------------------------------------------
# Name          Type             Size  Value    
# ----------------------------------------------
# trans         ahb_transaction  -     @2615    
#   xact_type   xact_type_enum   1     READ     
#   xfer_size   xfer_size_enum   3     SIZE_8BIT
#   burst_type  burst_type_enum  3     SINGLE   
#   addr        integral         10    'h0      
#   data        integral         32    'h0      
#   prot        integral         4     'h0      
#   lock        integral         1     'h0      
#   resp        integral         1     'h0      
# ----------------------------------------------
# 
# UVM_INFO ./../regmodel/uart_reg2ahb_adapter.sv(42) @ 2000: reporter [uart_reg2ahb_adapter] bus2reg: addr = 0x0, data = 0x0, kind = UVM_READ, status = UVM_IS_OK
# UVM_INFO /ictc/other/tools/QuestaDVA/questasim/verilog_src/uvm-1.2/src/reg/uvm_reg_predictor.svh(225) @ 2000: uvm_test_top.env.ahb_predictor [REG_PREDICT] Observed READ transaction to register regmodel.MDR: value='h0
# UVM_INFO ./../regmodel/uart_reg2ahb_adapter.sv(42) @ 2000: reporter [uart_reg2ahb_adapter] bus2reg: addr = 0x0, data = 0x0, kind = UVM_READ, status = UVM_IS_OK
# UVM_INFO @ 2000: reporter [RegModel] Read  register via map regmodel.ahb_map: regmodel.MDR=0
# UVM_INFO /ictc/other/tools/QuestaDVA/questasim/verilog_src/uvm-1.2/src/reg/sequences/uvm_reg_bit_bash_seq.svh(152) @ 2000: uvm_test_top.env.ahb_agt.seq@@reg_bit_bash_seq.reg_single_bit_bash_seq [uvm_reg_bit_bash_seq] ...Bashing RO bit #9
# UVM_INFO ./../regmodel/uart_reg2ahb_adapter.sv(27) @ 2000: reporter [uart_reg2ahb_adapter] reg2bus: addr = 0x0, data = 0x200, kind = WRITE
# UVM_INFO ./../vip/ahb_vip/ahb_driver.sv(65) @ 2000: uvm_test_top.env.ahb_agt.drv [ahb_driver] WRITE! addr = 0, data = 200
# UVM_INFO ./../vip/ahb_vip/ahb_monitor.sv(46) @ 2000: uvm_test_top.env.ahb_agt.mnt [ahb_monitor] Observed transaction: 
# ----------------------------------------------
# Name          Type             Size  Value    
# ----------------------------------------------
# trans         ahb_transaction  -     @2649    
#   xact_type   xact_type_enum   1     WRITE    
#   xfer_size   xfer_size_enum   3     SIZE_8BIT
#   burst_type  burst_type_enum  3     SINGLE   
#   addr        integral         10    'h0      
#   data        integral         32    'h200    
#   prot        integral         4     'h0      
#   lock        integral         1     'h0      
#   resp        integral         1     'h0      
# ----------------------------------------------
# 
# UVM_INFO ./../regmodel/uart_reg2ahb_adapter.sv(42) @ 2000: reporter [uart_reg2ahb_adapter] bus2reg: addr = 0x0, data = 0x200, kind = UVM_WRITE, status = UVM_IS_OK
# UVM_INFO /ictc/other/tools/QuestaDVA/questasim/verilog_src/uvm-1.2/src/reg/uvm_reg_predictor.svh(221) @ 2000: uvm_test_top.env.ahb_predictor [REG_PREDICT] Observed WRITE transaction to register regmodel.MDR: value='h200 : updated value = 'h0
# UVM_INFO ./../regmodel/uart_reg2ahb_adapter.sv(42) @ 2000: reporter [uart_reg2ahb_adapter] bus2reg: addr = 0x0, data = 0x200, kind = UVM_WRITE, status = UVM_IS_OK
# UVM_INFO @ 2000: reporter [RegModel] Wrote register via map regmodel.ahb_map: regmodel.MDR=0x200
# UVM_INFO ./../regmodel/uart_reg2ahb_adapter.sv(27) @ 2000: reporter [uart_reg2ahb_adapter] reg2bus: addr = 0x0, data = 0x0, kind = READ
# UVM_INFO ./../vip/ahb_vip/ahb_driver.sv(63) @ 2000: uvm_test_top.env.ahb_agt.drv [ahb_driver] READ! addr = 0, data = 0
# UVM_INFO ./../vip/ahb_vip/ahb_monitor.sv(46) @ 2000: uvm_test_top.env.ahb_agt.mnt [ahb_monitor] Observed transaction: 
# ----------------------------------------------
# Name          Type             Size  Value    
# ----------------------------------------------
# trans         ahb_transaction  -     @2685    
#   xact_type   xact_type_enum   1     READ     
#   xfer_size   xfer_size_enum   3     SIZE_8BIT
#   burst_type  burst_type_enum  3     SINGLE   
#   addr        integral         10    'h0      
#   data        integral         32    'h0      
#   prot        integral         4     'h0      
#   lock        integral         1     'h0      
#   resp        integral         1     'h0      
# ----------------------------------------------
# 
# UVM_INFO ./../regmodel/uart_reg2ahb_adapter.sv(42) @ 2000: reporter [uart_reg2ahb_adapter] bus2reg: addr = 0x0, data = 0x0, kind = UVM_READ, status = UVM_IS_OK
# UVM_INFO /ictc/other/tools/QuestaDVA/questasim/verilog_src/uvm-1.2/src/reg/uvm_reg_predictor.svh(225) @ 2000: uvm_test_top.env.ahb_predictor [REG_PREDICT] Observed READ transaction to register regmodel.MDR: value='h0
# UVM_INFO ./../regmodel/uart_reg2ahb_adapter.sv(42) @ 2000: reporter [uart_reg2ahb_adapter] bus2reg: addr = 0x0, data = 0x0, kind = UVM_READ, status = UVM_IS_OK
# UVM_INFO @ 2000: reporter [RegModel] Read  register via map regmodel.ahb_map: regmodel.MDR=0
# UVM_INFO ./../regmodel/uart_reg2ahb_adapter.sv(27) @ 2000: reporter [uart_reg2ahb_adapter] reg2bus: addr = 0x0, data = 0x200, kind = WRITE
# UVM_INFO ./../vip/ahb_vip/ahb_driver.sv(65) @ 2000: uvm_test_top.env.ahb_agt.drv [ahb_driver] WRITE! addr = 0, data = 200
# UVM_INFO ./../vip/ahb_vip/ahb_monitor.sv(46) @ 2000: uvm_test_top.env.ahb_agt.mnt [ahb_monitor] Observed transaction: 
# ----------------------------------------------
# Name          Type             Size  Value    
# ----------------------------------------------
# trans         ahb_transaction  -     @2719    
#   xact_type   xact_type_enum   1     WRITE    
#   xfer_size   xfer_size_enum   3     SIZE_8BIT
#   burst_type  burst_type_enum  3     SINGLE   
#   addr        integral         10    'h0      
#   data        integral         32    'h200    
#   prot        integral         4     'h0      
#   lock        integral         1     'h0      
#   resp        integral         1     'h0      
# ----------------------------------------------
# 
# UVM_INFO ./../regmodel/uart_reg2ahb_adapter.sv(42) @ 2000: reporter [uart_reg2ahb_adapter] bus2reg: addr = 0x0, data = 0x200, kind = UVM_WRITE, status = UVM_IS_OK
# UVM_INFO /ictc/other/tools/QuestaDVA/questasim/verilog_src/uvm-1.2/src/reg/uvm_reg_predictor.svh(221) @ 2000: uvm_test_top.env.ahb_predictor [REG_PREDICT] Observed WRITE transaction to register regmodel.MDR: value='h200 : updated value = 'h0
# UVM_INFO ./../regmodel/uart_reg2ahb_adapter.sv(42) @ 2000: reporter [uart_reg2ahb_adapter] bus2reg: addr = 0x0, data = 0x200, kind = UVM_WRITE, status = UVM_IS_OK
# UVM_INFO @ 2000: reporter [RegModel] Wrote register via map regmodel.ahb_map: regmodel.MDR=0x200
# UVM_INFO ./../regmodel/uart_reg2ahb_adapter.sv(27) @ 2000: reporter [uart_reg2ahb_adapter] reg2bus: addr = 0x0, data = 0x0, kind = READ
# UVM_INFO ./../vip/ahb_vip/ahb_driver.sv(63) @ 2000: uvm_test_top.env.ahb_agt.drv [ahb_driver] READ! addr = 0, data = 0
# UVM_INFO ./../vip/ahb_vip/ahb_monitor.sv(46) @ 2000: uvm_test_top.env.ahb_agt.mnt [ahb_monitor] Observed transaction: 
# ----------------------------------------------
# Name          Type             Size  Value    
# ----------------------------------------------
# trans         ahb_transaction  -     @2753    
#   xact_type   xact_type_enum   1     READ     
#   xfer_size   xfer_size_enum   3     SIZE_8BIT
#   burst_type  burst_type_enum  3     SINGLE   
#   addr        integral         10    'h0      
#   data        integral         32    'h0      
#   prot        integral         4     'h0      
#   lock        integral         1     'h0      
#   resp        integral         1     'h0      
# ----------------------------------------------
# 
# UVM_INFO ./../regmodel/uart_reg2ahb_adapter.sv(42) @ 2000: reporter [uart_reg2ahb_adapter] bus2reg: addr = 0x0, data = 0x0, kind = UVM_READ, status = UVM_IS_OK
# UVM_INFO /ictc/other/tools/QuestaDVA/questasim/verilog_src/uvm-1.2/src/reg/uvm_reg_predictor.svh(225) @ 2000: uvm_test_top.env.ahb_predictor [REG_PREDICT] Observed READ transaction to register regmodel.MDR: value='h0
# UVM_INFO ./../regmodel/uart_reg2ahb_adapter.sv(42) @ 2000: reporter [uart_reg2ahb_adapter] bus2reg: addr = 0x0, data = 0x0, kind = UVM_READ, status = UVM_IS_OK
# UVM_INFO @ 2000: reporter [RegModel] Read  register via map regmodel.ahb_map: regmodel.MDR=0
# UVM_INFO /ictc/other/tools/QuestaDVA/questasim/verilog_src/uvm-1.2/src/reg/sequences/uvm_reg_bit_bash_seq.svh(152) @ 2000: uvm_test_top.env.ahb_agt.seq@@reg_bit_bash_seq.reg_single_bit_bash_seq [uvm_reg_bit_bash_seq] ...Bashing RO bit #10
# UVM_INFO ./../regmodel/uart_reg2ahb_adapter.sv(27) @ 2000: reporter [uart_reg2ahb_adapter] reg2bus: addr = 0x0, data = 0x400, kind = WRITE
# UVM_INFO ./../vip/ahb_vip/ahb_driver.sv(65) @ 2000: uvm_test_top.env.ahb_agt.drv [ahb_driver] WRITE! addr = 0, data = 400
# UVM_INFO ./../vip/ahb_vip/ahb_monitor.sv(46) @ 2000: uvm_test_top.env.ahb_agt.mnt [ahb_monitor] Observed transaction: 
# ----------------------------------------------
# Name          Type             Size  Value    
# ----------------------------------------------
# trans         ahb_transaction  -     @2787    
#   xact_type   xact_type_enum   1     WRITE    
#   xfer_size   xfer_size_enum   3     SIZE_8BIT
#   burst_type  burst_type_enum  3     SINGLE   
#   addr        integral         10    'h0      
#   data        integral         32    'h400    
#   prot        integral         4     'h0      
#   lock        integral         1     'h0      
#   resp        integral         1     'h0      
# ----------------------------------------------
# 
# UVM_INFO ./../regmodel/uart_reg2ahb_adapter.sv(42) @ 2000: reporter [uart_reg2ahb_adapter] bus2reg: addr = 0x0, data = 0x400, kind = UVM_WRITE, status = UVM_IS_OK
# UVM_INFO /ictc/other/tools/QuestaDVA/questasim/verilog_src/uvm-1.2/src/reg/uvm_reg_predictor.svh(221) @ 2000: uvm_test_top.env.ahb_predictor [REG_PREDICT] Observed WRITE transaction to register regmodel.MDR: value='h400 : updated value = 'h0
# UVM_INFO ./../regmodel/uart_reg2ahb_adapter.sv(42) @ 2000: reporter [uart_reg2ahb_adapter] bus2reg: addr = 0x0, data = 0x400, kind = UVM_WRITE, status = UVM_IS_OK
# UVM_INFO @ 2000: reporter [RegModel] Wrote register via map regmodel.ahb_map: regmodel.MDR=0x400
# UVM_INFO ./../regmodel/uart_reg2ahb_adapter.sv(27) @ 2000: reporter [uart_reg2ahb_adapter] reg2bus: addr = 0x0, data = 0x0, kind = READ
# UVM_INFO ./../vip/ahb_vip/ahb_driver.sv(63) @ 3000: uvm_test_top.env.ahb_agt.drv [ahb_driver] READ! addr = 0, data = 0
# UVM_INFO ./../vip/ahb_vip/ahb_monitor.sv(46) @ 3000: uvm_test_top.env.ahb_agt.mnt [ahb_monitor] Observed transaction: 
# ----------------------------------------------
# Name          Type             Size  Value    
# ----------------------------------------------
# trans         ahb_transaction  -     @2823    
#   xact_type   xact_type_enum   1     READ     
#   xfer_size   xfer_size_enum   3     SIZE_8BIT
#   burst_type  burst_type_enum  3     SINGLE   
#   addr        integral         10    'h0      
#   data        integral         32    'h0      
#   prot        integral         4     'h0      
#   lock        integral         1     'h0      
#   resp        integral         1     'h0      
# ----------------------------------------------
# 
# UVM_INFO ./../regmodel/uart_reg2ahb_adapter.sv(42) @ 3000: reporter [uart_reg2ahb_adapter] bus2reg: addr = 0x0, data = 0x0, kind = UVM_READ, status = UVM_IS_OK
# UVM_INFO /ictc/other/tools/QuestaDVA/questasim/verilog_src/uvm-1.2/src/reg/uvm_reg_predictor.svh(225) @ 3000: uvm_test_top.env.ahb_predictor [REG_PREDICT] Observed READ transaction to register regmodel.MDR: value='h0
# UVM_INFO ./../regmodel/uart_reg2ahb_adapter.sv(42) @ 3000: reporter [uart_reg2ahb_adapter] bus2reg: addr = 0x0, data = 0x0, kind = UVM_READ, status = UVM_IS_OK
# UVM_INFO @ 3000: reporter [RegModel] Read  register via map regmodel.ahb_map: regmodel.MDR=0
# UVM_INFO ./../regmodel/uart_reg2ahb_adapter.sv(27) @ 3000: reporter [uart_reg2ahb_adapter] reg2bus: addr = 0x0, data = 0x400, kind = WRITE
# UVM_INFO ./../vip/ahb_vip/ahb_driver.sv(65) @ 3000: uvm_test_top.env.ahb_agt.drv [ahb_driver] WRITE! addr = 0, data = 400
# UVM_INFO ./../vip/ahb_vip/ahb_monitor.sv(46) @ 3000: uvm_test_top.env.ahb_agt.mnt [ahb_monitor] Observed transaction: 
# ----------------------------------------------
# Name          Type             Size  Value    
# ----------------------------------------------
# trans         ahb_transaction  -     @2857    
#   xact_type   xact_type_enum   1     WRITE    
#   xfer_size   xfer_size_enum   3     SIZE_8BIT
#   burst_type  burst_type_enum  3     SINGLE   
#   addr        integral         10    'h0      
#   data        integral         32    'h400    
#   prot        integral         4     'h0      
#   lock        integral         1     'h0      
#   resp        integral         1     'h0      
# ----------------------------------------------
# 
# UVM_INFO ./../regmodel/uart_reg2ahb_adapter.sv(42) @ 3000: reporter [uart_reg2ahb_adapter] bus2reg: addr = 0x0, data = 0x400, kind = UVM_WRITE, status = UVM_IS_OK
# UVM_INFO /ictc/other/tools/QuestaDVA/questasim/verilog_src/uvm-1.2/src/reg/uvm_reg_predictor.svh(221) @ 3000: uvm_test_top.env.ahb_predictor [REG_PREDICT] Observed WRITE transaction to register regmodel.MDR: value='h400 : updated value = 'h0
