# vsim -sv_seed 1 -voptargs="+acc" -assertdebug -c testbench -do " log -r /*;run -all;" -l RX_16x_5bits_data_test_1.log "+UVM_TESTNAME=RX_16x_5bits_data_test" "+UVM_VERBOSITY=UVM_HIGH" 
# Start time: 13:08:09 on Jul 28,2026
# Loading /tmp/vannghia_1108@ictc-eda-ldap.ipa.test_dpi_40111/linux_x86_64_gcc-11/export_tramp.so
# ** Note: (vsim-3813) Design is being optimized due to module recompilation...
# //  Questa Sim-64
# //  Version 10.6d_1 linux_x86_64 Apr 11 2018
# //
# //  Copyright 1991-2018 Mentor Graphics Corporation
# //  All Rights Reserved.
# //
# //  QuestaSim and its associated documentation contain trade
# //  secrets and commercial or financial information that are the property of
# //  Mentor Graphics Corporation and are privileged, confidential,
# //  and exempt from disclosure under the Freedom of Information Act,
# //  5 U.S.C. Section 552. Furthermore, this information
# //  is prohibited from disclosure under the Trade Secrets Act,
# //  18 U.S.C. Section 1905.
# //
# Loading sv_std.std
# Loading work.uart_if(fast)
# Loading work.ahb_if(fast)
# Loading work.uvm_pkg(fast)
# Loading work.ahb_pkg(fast)
# ** Note: (vsim-8785) UVM-aware debugging capabilities will be disabled since no compiled "questa_uvm_pkg" can be found.
# This also means that later if you turn on UVM-aware debugging your debug simulations may have
# different random seeds from your non-debug simulations.
# Loading work.uart_pkg(fast)
# Loading work.seq_pkg(fast)
# Loading work.uart_register_pkg(fast)
# Loading work.uart_regmodel_pkg(fast)
# Loading work.env_pkg(fast)
# Loading work.test_pkg(fast)
# Loading work.testbench(fast)
# Loading work.ahb_if(fast)
# Loading work.uart_if(fast)
# Loading work.uart_top(fast)
# Loading work.cmsdk_ahb_to_apb(fast)
# Loading work.apb_decoder(fast)
# Loading work.uart_fifo(fast)
# Loading work.uart_transmitter(fast)
# Loading work.uart_receiver(fast)
# Loading work.uart_interrupt(fast)
# Loading work.baud_generator(fast)
# Compiling /tmp/vannghia_1108@ictc-eda-ldap.ipa.test_dpi_40111/linux_x86_64_gcc-5.3.0/exportwrapper.c
# Compiling /tmp/vannghia_1108@ictc-eda-ldap.ipa.test_dpi_40111/linux_x86_64_gcc-11/exportwrapper.c
# Loading /tmp/vannghia_1108@ictc-eda-ldap.ipa.test_dpi_40111/linux_x86_64_gcc-11/vsim_auto_compile.so
#  log -r /*
# run -all
# UVM_INFO /ictc/other/tools/QuestaDVA/questasim/verilog_src/uvm-1.2/src/base/uvm_root.svh(392) @ 0: reporter [UVM/RELNOTES] 
# ----------------------------------------------------------------
# UVM-1.2
# (C) 2007-2014 Mentor Graphics Corporation
# (C) 2007-2014 Cadence Design Systems, Inc.
# (C) 2006-2014 Synopsys, Inc.
# (C) 2011-2013 Cypress Semiconductor Corp.
# (C) 2013-2014 NVIDIA Corporation
# ----------------------------------------------------------------
# 
#   ***********       IMPORTANT RELEASE NOTES         ************
# 
#   You are using a version of the UVM library that has been compiled
#   with `UVM_NO_DEPRECATED undefined.
#   See http://www.eda.org/svdb/view.php?id=3313 for more details.
# 
#   You are using a version of the UVM library that has been compiled
#   with `UVM_OBJECT_DO_NOT_NEED_CONSTRUCTOR undefined.
#   See http://www.eda.org/svdb/view.php?id=3770 for more details.
# 
#       (Specify +UVM_NO_RELNOTES to turn off this notice)
# 
# UVM_INFO /ictc/other/tools/QuestaDVA/questasim/verilog_src/uvm-1.2/src/base/uvm_root.svh(453) @ 0: reporter [NO_DPI_TSTNAME] UVM_NO_DPI defined--getting UVM_TESTNAME directly, without DPI
# UVM_INFO @ 0: reporter [RNTST] Running test RX_16x_5bits_data_test...
# UVM_INFO ./../testcases/uart_base_test.sv(19) @ 0: uvm_test_top [build_phase] Entered...
# UVM_INFO ./../testcases/uart_base_test.sv(34) @ 0: uvm_test_top [build_phase] Exiting...
# UVM_INFO ./../tb/uart_environment.sv(21) @ 0: uvm_test_top.env [build phase] Entered...
# UVM_INFO ./../tb/uart_environment.sv(45) @ 0: uvm_test_top.env [build_phase] Exiting...
# UVM_INFO ./../vip/ahb_vip/ahb_agent.sv(16) @ 0: uvm_test_top.env.ahb_agt [build_phase] Entered...
# UVM_INFO ./../vip/ahb_vip/ahb_agent.sv(21) @ 0: uvm_test_top.env.ahb_agt [ahb_agent] Active agent is configued
# UVM_INFO ./../vip/ahb_vip/ahb_agent.sv(31) @ 0: uvm_test_top.env.ahb_agt [build_phase] Exiting...
# UVM_INFO ./../vip/ahb_vip/ahb_driver.sv(12) @ 0: uvm_test_top.env.ahb_agt.drv [build_phase] Entered...
# UVM_INFO ./../vip/ahb_vip/ahb_driver.sv(17) @ 0: uvm_test_top.env.ahb_agt.drv [build_phase] Exiting...
# UVM_INFO ./../vip/ahb_vip/ahb_monitor.sv(16) @ 0: uvm_test_top.env.ahb_agt.mnt [build_phase] Entered...
# UVM_INFO ./../vip/ahb_vip/ahb_monitor.sv(21) @ 0: uvm_test_top.env.ahb_agt.mnt [build_phase] Exiting...
# UVM_INFO ./../tb/uart_scoreboard.sv(34) @ 0: uvm_test_top.env.scb [build_phase] Entered...
# UVM_INFO ./../tb/uart_scoreboard.sv(41) @ 0: uvm_test_top.env.scb [build_phase] Exiting...
# UVM_INFO ./../vip/uart_vip/uart_agent.sv(17) @ 0: uvm_test_top.env.uart_agt [build_phase] Entered...
# UVM_INFO ./../vip/uart_vip/uart_agent.sv(28) @ 0: uvm_test_top.env.uart_agt [uart_agent] Active agent is configured
# UVM_INFO ./../vip/uart_vip/uart_agent.sv(43) @ 0: uvm_test_top.env.uart_agt [build_phase] Exiting...
# UVM_INFO ./../vip/uart_vip/uart_driver.sv(18) @ 0: uvm_test_top.env.uart_agt.drv [build_phase] Entered...
# UVM_INFO ./../vip/uart_vip/uart_driver.sv(29) @ 0: uvm_test_top.env.uart_agt.drv [build_phase] Exiting...
# UVM_INFO ./../vip/uart_vip/uart_monitor.sv(21) @ 0: uvm_test_top.env.uart_agt.mnt [build_phase] Entered...
# UVM_INFO ./../vip/uart_vip/uart_monitor.sv(32) @ 0: uvm_test_top.env.uart_agt.mnt [build_phase] Exiting...
# UVM_INFO /ictc/other/tools/QuestaDVA/questasim/verilog_src/uvm-1.2/src/base/uvm_root.svh(579) @ 0: reporter [UVMTOP] UVM testbench topology:
# --------------------------------------------------------------------------------
# Name                           Type                                  Size  Value
# --------------------------------------------------------------------------------
# uvm_test_top                   RX_16x_5bits_data_test                -     @347 
#   env                          uart_environment                      -     @364 
#     ahb_agt                    ahb_agent                             -     @399 
#       drv                      ahb_driver                            -     @511 
#         rsp_port               uvm_analysis_port                     -     @530 
#         seq_item_port          uvm_seq_item_pull_port                -     @520 
#       mnt                      ahb_monitor                           -     @677 
#         ahb_observed_port      uvm_analysis_port                     -     @686 
#       seq                      ahb_sequencer                         -     @540 
#         rsp_export             uvm_analysis_export                   -     @549 
#         seq_item_export        uvm_seq_item_pull_imp                 -     @667 
#         arbitration_queue      array                                 0     -    
#         lock_queue             array                                 0     -    
#         num_last_reqs          integral                              32    'd1  
#         num_last_rsps          integral                              32    'd1  
#     ahb_predictor              uvm_reg_predictor #(ahb_transaction)  -     @417 
#       bus_in                   uvm_analysis_imp                      -     @426 
#       reg_ap                   uvm_analysis_port                     -     @436 
#     scb                        uart_scoreboard                       -     @408 
#       ahb_export               uvm_analysis_imp_ahb                  -     @738 
#       uart_rx_export           uvm_analysis_imp_rx                   -     @728 
#       uart_tx_export           uvm_analysis_imp_tx                   -     @718 
#     uart_agt                   uart_agent                            -     @390 
#       drv                      uart_driver                           -     @896 
#         item_observed_port     uvm_analysis_port                     -     @925 
#         rsp_port               uvm_analysis_port                     -     @915 
#         seq_item_port          uvm_seq_item_pull_port                -     @905 
#       mnt                      uart_monitor                          -     @935 
#         uart_observed_port_rx  uvm_analysis_port                     -     @954 
#         uart_observed_port_tx  uvm_analysis_port                     -     @944 
#       seq                      uart_sequencer                        -     @759 
#         rsp_export             uvm_analysis_export                   -     @768 
#         seq_item_export        uvm_seq_item_pull_imp                 -     @886 
#         arbitration_queue      array                                 0     -    
#         lock_queue             array                                 0     -    
#         num_last_reqs          integral                              32    'd1  
#         num_last_rsps          integral                              32    'd1  
# --------------------------------------------------------------------------------
# 
# UVM_INFO /ictc/other/tools/QuestaDVA/questasim/verilog_src/uvm-1.2/src/base/uvm_traversal.svh(279) @ 0: reporter [UVM/COMP/NAMECHECK] This implementation of the component name checks requires DPI to be enabled
# UVM_INFO ./../vip/uart_vip/uart_monitor.sv(36) @ 0: uvm_test_top.env.uart_agt.mnt [run_phase] Entered...
# UVM_INFO ./../vip/uart_vip/uart_driver.sv(33) @ 0: uvm_test_top.env.uart_agt.drv [run_phase] Entered...
# UVM_INFO ./../vip/ahb_vip/ahb_monitor.sv(25) @ 0: uvm_test_top.env.ahb_agt.mnt [run_phase] Entered...
# UVM_INFO ./../vip/ahb_vip/ahb_driver.sv(22) @ 0: uvm_test_top.env.ahb_agt.drv [run_phase] Entered...
# ============================================================================================================================
# =================================================  ### RX UART | 16x  ###  =================================================
# ============================================================================================================================
# UVM_INFO ./../testcases/RX_16x_5bits_data_test.sv(40) @ 10000: uvm_test_top [run_phase] Configuration randomize is: 
# ----------------------------------------------------
# Name               Type                 Size  Value 
# ----------------------------------------------------
# cfg                uart_configuration   -     @373  
#   parity_mode      parity_mode_config   2     NONE  
#   data_width       integral             32    'd5   
#   num_of_stop_bit  integral             32    'd1   
#   baud_rate        integral             32    'd2400
#   ovsmpl           ovs_config           1     X16   
#   parity_error     parity_error_config  1     NORMAL
#   uart_mode        mode_config          1     TX    
# ----------------------------------------------------
# 
# UVM_INFO ./../regmodel/uart_reg2ahb_adapter.sv(27) @ 10000: reporter [uart_reg2ahb_adapter] reg2bus: addr = 0x0, data = 0x0, kind = WRITE
# UVM_INFO ./../vip/ahb_vip/ahb_driver.sv(65) @ 10000: uvm_test_top.env.ahb_agt.drv [ahb_driver] WRITE! addr = 0, data = 0
# UVM_INFO ./../vip/ahb_vip/ahb_monitor.sv(45) @ 10000: uvm_test_top.env.ahb_agt.mnt [ahb_monitor] Observed transaction: 
# ----------------------------------------------
# Name          Type             Size  Value    
# ----------------------------------------------
# trans         ahb_transaction  -     @1026    
#   xact_type   xact_type_enum   1     WRITE    
#   xfer_size   xfer_size_enum   3     SIZE_8BIT
#   burst_type  burst_type_enum  3     SINGLE   
#   addr        integral         10    'h0      
#   data        integral         32    'h0      
#   prot        integral         4     'h0      
#   lock        integral         1     'h0      
# ----------------------------------------------
# 
# UVM_INFO ./../regmodel/uart_reg2ahb_adapter.sv(42) @ 10000: reporter [uart_reg2ahb_adapter] bus2reg: addr = 0x0, data = 0x0, kind = UVM_WRITE, status = UVM_IS_OK
# UVM_INFO /ictc/other/tools/QuestaDVA/questasim/verilog_src/uvm-1.2/src/reg/uvm_reg_predictor.svh(221) @ 10000: uvm_test_top.env.ahb_predictor [REG_PREDICT] Observed WRITE transaction to register regmodel.MDR: value='h0 : updated value = 'h0
# UVM_INFO ./../regmodel/uart_reg2ahb_adapter.sv(42) @ 10000: reporter [uart_reg2ahb_adapter] bus2reg: addr = 0x0, data = 0x0, kind = UVM_WRITE, status = UVM_IS_OK
# UVM_INFO @ 10000: reporter [RegModel] Wrote register via map regmodel.ahb_map: regmodel.MDR=0x0
# UVM_INFO ./../regmodel/uart_reg2ahb_adapter.sv(27) @ 10000: reporter [uart_reg2ahb_adapter] reg2bus: addr = 0x4, data = 0x2c, kind = WRITE
# UVM_INFO ./../vip/ahb_vip/ahb_driver.sv(65) @ 10000: uvm_test_top.env.ahb_agt.drv [ahb_driver] WRITE! addr = 4, data = 2c
# UVM_INFO ./../vip/ahb_vip/ahb_monitor.sv(45) @ 10000: uvm_test_top.env.ahb_agt.mnt [ahb_monitor] Observed transaction: 
# ----------------------------------------------
# Name          Type             Size  Value    
# ----------------------------------------------
# trans         ahb_transaction  -     @1113    
#   xact_type   xact_type_enum   1     WRITE    
#   xfer_size   xfer_size_enum   3     SIZE_8BIT
#   burst_type  burst_type_enum  3     SINGLE   
#   addr        integral         10    'h4      
#   data        integral         32    'h2c     
#   prot        integral         4     'h0      
#   lock        integral         1     'h0      
# ----------------------------------------------
# 
# UVM_INFO ./../regmodel/uart_reg2ahb_adapter.sv(42) @ 10000: reporter [uart_reg2ahb_adapter] bus2reg: addr = 0x4, data = 0x2c, kind = UVM_WRITE, status = UVM_IS_OK
# UVM_INFO /ictc/other/tools/QuestaDVA/questasim/verilog_src/uvm-1.2/src/reg/uvm_reg_predictor.svh(221) @ 10000: uvm_test_top.env.ahb_predictor [REG_PREDICT] Observed WRITE transaction to register regmodel.DLL: value='h2c : updated value = 'h2c
# UVM_INFO ./../regmodel/uart_reg2ahb_adapter.sv(42) @ 10000: reporter [uart_reg2ahb_adapter] bus2reg: addr = 0x4, data = 0x2c, kind = UVM_WRITE, status = UVM_IS_OK
# UVM_INFO @ 10000: reporter [RegModel] Wrote register via map regmodel.ahb_map: regmodel.DLL=0x2c
# UVM_INFO ./../regmodel/uart_reg2ahb_adapter.sv(27) @ 10000: reporter [uart_reg2ahb_adapter] reg2bus: addr = 0x8, data = 0xa, kind = WRITE
# UVM_INFO ./../vip/ahb_vip/ahb_driver.sv(65) @ 10000: uvm_test_top.env.ahb_agt.drv [ahb_driver] WRITE! addr = 8, data = a
# UVM_INFO ./../vip/ahb_vip/ahb_monitor.sv(45) @ 10000: uvm_test_top.env.ahb_agt.mnt [ahb_monitor] Observed transaction: 
# ----------------------------------------------
# Name          Type             Size  Value    
# ----------------------------------------------
# trans         ahb_transaction  -     @1153    
#   xact_type   xact_type_enum   1     WRITE    
#   xfer_size   xfer_size_enum   3     SIZE_8BIT
#   burst_type  burst_type_enum  3     SINGLE   
#   addr        integral         10    'h8      
#   data        integral         32    'ha      
#   prot        integral         4     'h0      
#   lock        integral         1     'h0      
# ----------------------------------------------
# 
# UVM_INFO ./../regmodel/uart_reg2ahb_adapter.sv(42) @ 10000: reporter [uart_reg2ahb_adapter] bus2reg: addr = 0x8, data = 0xa, kind = UVM_WRITE, status = UVM_IS_OK
# UVM_INFO /ictc/other/tools/QuestaDVA/questasim/verilog_src/uvm-1.2/src/reg/uvm_reg_predictor.svh(221) @ 10000: uvm_test_top.env.ahb_predictor [REG_PREDICT] Observed WRITE transaction to register regmodel.DLH: value='ha : updated value = 'ha
# UVM_INFO ./../regmodel/uart_reg2ahb_adapter.sv(42) @ 10000: reporter [uart_reg2ahb_adapter] bus2reg: addr = 0x8, data = 0xa, kind = UVM_WRITE, status = UVM_IS_OK
# UVM_INFO @ 10000: reporter [RegModel] Wrote register via map regmodel.ahb_map: regmodel.DLH=0xa
# UVM_INFO ./../regmodel/uart_reg2ahb_adapter.sv(27) @ 10000: reporter [uart_reg2ahb_adapter] reg2bus: addr = 0xc, data = 0x20, kind = WRITE
# UVM_INFO ./../vip/ahb_vip/ahb_driver.sv(65) @ 10000: uvm_test_top.env.ahb_agt.drv [ahb_driver] WRITE! addr = c, data = 20
# UVM_INFO ./../vip/ahb_vip/ahb_monitor.sv(45) @ 10000: uvm_test_top.env.ahb_agt.mnt [ahb_monitor] Observed transaction: 
# ----------------------------------------------
# Name          Type             Size  Value    
# ----------------------------------------------
# trans         ahb_transaction  -     @1193    
#   xact_type   xact_type_enum   1     WRITE    
#   xfer_size   xfer_size_enum   3     SIZE_8BIT
#   burst_type  burst_type_enum  3     SINGLE   
#   addr        integral         10    'hc      
#   data        integral         32    'h20     
#   prot        integral         4     'h0      
#   lock        integral         1     'h0      
# ----------------------------------------------
# 
# UVM_INFO ./../regmodel/uart_reg2ahb_adapter.sv(42) @ 10000: reporter [uart_reg2ahb_adapter] bus2reg: addr = 0xc, data = 0x20, kind = UVM_WRITE, status = UVM_IS_OK
# UVM_INFO /ictc/other/tools/QuestaDVA/questasim/verilog_src/uvm-1.2/src/reg/uvm_reg_predictor.svh(221) @ 10000: uvm_test_top.env.ahb_predictor [REG_PREDICT] Observed WRITE transaction to register regmodel.LCR: value='h20 : updated value = 'h20
# UVM_INFO ./../regmodel/uart_reg2ahb_adapter.sv(42) @ 10000: reporter [uart_reg2ahb_adapter] bus2reg: addr = 0xc, data = 0x20, kind = UVM_WRITE, status = UVM_IS_OK
# UVM_INFO @ 10000: reporter [RegModel] Wrote register via map regmodel.ahb_map: regmodel.LCR=0x20
# UVM_INFO ./../sequences/uart_sequence.sv(9) @ 10000: uvm_test_top.env.uart_agt.seq@@seq [body] Entered...
# UVM_INFO ./../sequences/uart_sequence.sv(13) @ 10000: uvm_test_top.env.uart_agt.seq@@seq [body] Transaction randomize is: 
# ----------------------------------------------------------------------------------------
# Name                           Type              Size  Value                            
# ----------------------------------------------------------------------------------------
# req                            uart_transaction  -     @1246                            
#   data                         integral          8     'b11010110                       
#   parity                       integral          1     'b0                              
#   begin_time                   time              64    10000                            
#   depth                        int               32    'd2                              
#   parent sequence (name)       string            3     seq                              
#   parent sequence (full name)  string            33    uvm_test_top.env.uart_agt.seq.seq
#   sequencer                    string            29    uvm_test_top.env.uart_agt.seq    
# ----------------------------------------------------------------------------------------
# 
# UVM_INFO ./../sequences/uart_sequence.sv(18) @ 2927000: uvm_test_top.env.uart_agt.seq@@seq [body] Exiting...
# UVM_INFO ./../tb/uart_scoreboard.sv(62) @ 3135000: uvm_test_top.env.scb [write_rx] Add RX's drive trans into queue
# UVM_INFO ./../regmodel/uart_reg2ahb_adapter.sv(27) @ 9927000: reporter [uart_reg2ahb_adapter] reg2bus: addr = 0x14, data = 0x0, kind = READ
# UVM_INFO ./../vip/ahb_vip/ahb_driver.sv(63) @ 9927000: uvm_test_top.env.ahb_agt.drv [ahb_driver] READ! addr = 14, data = 0
# UVM_INFO ./../vip/ahb_vip/ahb_monitor.sv(45) @ 9927000: uvm_test_top.env.ahb_agt.mnt [ahb_monitor] Observed transaction: 
# ----------------------------------------------
# Name          Type             Size  Value    
# ----------------------------------------------
# trans         ahb_transaction  -     @1233    
#   xact_type   xact_type_enum   1     READ     
#   xfer_size   xfer_size_enum   3     SIZE_8BIT
#   burst_type  burst_type_enum  3     SINGLE   
#   addr        integral         10    'h14     
#   data        integral         32    'h2      
#   prot        integral         4     'h0      
#   lock        integral         1     'h0      
# ----------------------------------------------
# 
# UVM_INFO ./../regmodel/uart_reg2ahb_adapter.sv(42) @ 9927000: reporter [uart_reg2ahb_adapter] bus2reg: addr = 0x14, data = 0x2, kind = UVM_READ, status = UVM_IS_OK
# UVM_INFO /ictc/other/tools/QuestaDVA/questasim/verilog_src/uvm-1.2/src/reg/uvm_reg_predictor.svh(225) @ 9927000: uvm_test_top.env.ahb_predictor [REG_PREDICT] Observed READ transaction to register regmodel.FSR: value='h2
# UVM_INFO ./../regmodel/uart_reg2ahb_adapter.sv(42) @ 9927000: reporter [uart_reg2ahb_adapter] bus2reg: addr = 0x14, data = 0x2, kind = UVM_READ, status = UVM_IS_OK
# UVM_INFO @ 9927000: reporter [RegModel] Read  register via map regmodel.ahb_map: regmodel.FSR=2
# UVM_INFO ./../regmodel/uart_reg2ahb_adapter.sv(27) @ 9927000: reporter [uart_reg2ahb_adapter] reg2bus: addr = 0x1c, data = 0x0, kind = READ
# UVM_INFO ./../vip/ahb_vip/ahb_driver.sv(63) @ 9927000: uvm_test_top.env.ahb_agt.drv [ahb_driver] READ! addr = 1c, data = 0
# UVM_INFO ./../vip/ahb_vip/ahb_monitor.sv(45) @ 9927000: uvm_test_top.env.ahb_agt.mnt [ahb_monitor] Observed transaction: 
# ----------------------------------------------
# Name          Type             Size  Value    
# ----------------------------------------------
# trans         ahb_transaction  -     @1295    
#   xact_type   xact_type_enum   1     READ     
#   xfer_size   xfer_size_enum   3     SIZE_8BIT
#   burst_type  burst_type_enum  3     SINGLE   
#   addr        integral         10    'h1c     
#   data        integral         32    'h16     
#   prot        integral         4     'h0      
#   lock        integral         1     'h0      
# ----------------------------------------------
# 
# UVM_INFO ./../regmodel/uart_reg2ahb_adapter.sv(42) @ 9927000: reporter [uart_reg2ahb_adapter] bus2reg: addr = 0x1c, data = 0x16, kind = UVM_READ, status = UVM_IS_OK
# UVM_INFO /ictc/other/tools/QuestaDVA/questasim/verilog_src/uvm-1.2/src/reg/uvm_reg_predictor.svh(225) @ 9927000: uvm_test_top.env.ahb_predictor [REG_PREDICT] Observed READ transaction to register regmodel.RBR: value='h16
# UVM_INFO ./../tb/uart_scoreboard.sv(74) @ 9927000: uvm_test_top.env.scb [write_ahb] UART SIGNAL COMPARATIVE
# ============================================================================================================================
# UVM_INFO ./../tb/uart_scoreboard.sv(82) @ 9927000: uvm_test_top.env.scb [uart_scoreboard] PASSED! Signal is matching. Exp: 00010110, Act: 00010110
# ============================================================================================================================
# UVM_INFO ./../regmodel/uart_reg2ahb_adapter.sv(42) @ 9927000: reporter [uart_reg2ahb_adapter] bus2reg: addr = 0x1c, data = 0x16, kind = UVM_READ, status = UVM_IS_OK
# UVM_INFO @ 9927000: reporter [RegModel] Read  register via map regmodel.ahb_map: regmodel.RBR=16
# UVM_INFO ./../testcases/RX_16x_5bits_data_test.sv(40) @ 9927000: uvm_test_top [run_phase] Configuration randomize is: 
# ----------------------------------------------------
# Name               Type                 Size  Value 
# ----------------------------------------------------
# cfg                uart_configuration   -     @373  
#   parity_mode      parity_mode_config   2     NONE  
#   data_width       integral             32    'd5   
#   num_of_stop_bit  integral             32    'd1   
#   baud_rate        integral             32    'd4800
#   ovsmpl           ovs_config           1     X16   
#   parity_error     parity_error_config  1     NORMAL
#   uart_mode        mode_config          1     TX    
# ----------------------------------------------------
# 
# UVM_INFO ./../regmodel/uart_reg2ahb_adapter.sv(27) @ 9927000: reporter [uart_reg2ahb_adapter] reg2bus: addr = 0x0, data = 0x0, kind = WRITE
# UVM_INFO ./../vip/ahb_vip/ahb_driver.sv(65) @ 9927000: uvm_test_top.env.ahb_agt.drv [ahb_driver] WRITE! addr = 0, data = 0
# UVM_INFO ./../vip/ahb_vip/ahb_monitor.sv(45) @ 9927000: uvm_test_top.env.ahb_agt.mnt [ahb_monitor] Observed transaction: 
# ----------------------------------------------
# Name          Type             Size  Value    
# ----------------------------------------------
# trans         ahb_transaction  -     @1339    
#   xact_type   xact_type_enum   1     WRITE    
#   xfer_size   xfer_size_enum   3     SIZE_8BIT
#   burst_type  burst_type_enum  3     SINGLE   
#   addr        integral         10    'h0      
#   data        integral         32    'h0      
#   prot        integral         4     'h0      
#   lock        integral         1     'h0      
# ----------------------------------------------
# 
# UVM_INFO ./../regmodel/uart_reg2ahb_adapter.sv(42) @ 9927000: reporter [uart_reg2ahb_adapter] bus2reg: addr = 0x0, data = 0x0, kind = UVM_WRITE, status = UVM_IS_OK
# UVM_INFO /ictc/other/tools/QuestaDVA/questasim/verilog_src/uvm-1.2/src/reg/uvm_reg_predictor.svh(221) @ 9927000: uvm_test_top.env.ahb_predictor [REG_PREDICT] Observed WRITE transaction to register regmodel.MDR: value='h0 : updated value = 'h0
# UVM_INFO ./../regmodel/uart_reg2ahb_adapter.sv(42) @ 9927000: reporter [uart_reg2ahb_adapter] bus2reg: addr = 0x0, data = 0x0, kind = UVM_WRITE, status = UVM_IS_OK
# UVM_INFO @ 9927000: reporter [RegModel] Wrote register via map regmodel.ahb_map: regmodel.MDR=0x0
# UVM_INFO ./../regmodel/uart_reg2ahb_adapter.sv(27) @ 9927000: reporter [uart_reg2ahb_adapter] reg2bus: addr = 0x4, data = 0x16, kind = WRITE
# UVM_INFO ./../vip/ahb_vip/ahb_driver.sv(65) @ 9927000: uvm_test_top.env.ahb_agt.drv [ahb_driver] WRITE! addr = 4, data = 16
# UVM_INFO ./../vip/ahb_vip/ahb_monitor.sv(45) @ 9927000: uvm_test_top.env.ahb_agt.mnt [ahb_monitor] Observed transaction: 
# ----------------------------------------------
# Name          Type             Size  Value    
# ----------------------------------------------
# trans         ahb_transaction  -     @1381    
#   xact_type   xact_type_enum   1     WRITE    
#   xfer_size   xfer_size_enum   3     SIZE_8BIT
#   burst_type  burst_type_enum  3     SINGLE   
#   addr        integral         10    'h4      
#   data        integral         32    'h16     
#   prot        integral         4     'h0      
#   lock        integral         1     'h0      
# ----------------------------------------------
# 
# UVM_INFO ./../regmodel/uart_reg2ahb_adapter.sv(42) @ 9927000: reporter [uart_reg2ahb_adapter] bus2reg: addr = 0x4, data = 0x16, kind = UVM_WRITE, status = UVM_IS_OK
# UVM_INFO /ictc/other/tools/QuestaDVA/questasim/verilog_src/uvm-1.2/src/reg/uvm_reg_predictor.svh(221) @ 9927000: uvm_test_top.env.ahb_predictor [REG_PREDICT] Observed WRITE transaction to register regmodel.DLL: value='h16 : updated value = 'h16
# UVM_INFO ./../regmodel/uart_reg2ahb_adapter.sv(42) @ 9927000: reporter [uart_reg2ahb_adapter] bus2reg: addr = 0x4, data = 0x16, kind = UVM_WRITE, status = UVM_IS_OK
# UVM_INFO @ 9927000: reporter [RegModel] Wrote register via map regmodel.ahb_map: regmodel.DLL=0x16
# UVM_INFO ./../regmodel/uart_reg2ahb_adapter.sv(27) @ 9927000: reporter [uart_reg2ahb_adapter] reg2bus: addr = 0x8, data = 0x5, kind = WRITE
# UVM_INFO ./../vip/ahb_vip/ahb_driver.sv(65) @ 9927000: uvm_test_top.env.ahb_agt.drv [ahb_driver] WRITE! addr = 8, data = 5
# UVM_INFO ./../vip/ahb_vip/ahb_monitor.sv(45) @ 9927000: uvm_test_top.env.ahb_agt.mnt [ahb_monitor] Observed transaction: 
# ----------------------------------------------
# Name          Type             Size  Value    
# ----------------------------------------------
# trans         ahb_transaction  -     @1421    
#   xact_type   xact_type_enum   1     WRITE    
#   xfer_size   xfer_size_enum   3     SIZE_8BIT
#   burst_type  burst_type_enum  3     SINGLE   
#   addr        integral         10    'h8      
#   data        integral         32    'h5      
#   prot        integral         4     'h0      
#   lock        integral         1     'h0      
# ----------------------------------------------
# 
# UVM_INFO ./../regmodel/uart_reg2ahb_adapter.sv(42) @ 9927000: reporter [uart_reg2ahb_adapter] bus2reg: addr = 0x8, data = 0x5, kind = UVM_WRITE, status = UVM_IS_OK
# UVM_INFO /ictc/other/tools/QuestaDVA/questasim/verilog_src/uvm-1.2/src/reg/uvm_reg_predictor.svh(221) @ 9927000: uvm_test_top.env.ahb_predictor [REG_PREDICT] Observed WRITE transaction to register regmodel.DLH: value='h5 : updated value = 'h5
# UVM_INFO ./../regmodel/uart_reg2ahb_adapter.sv(42) @ 9927000: reporter [uart_reg2ahb_adapter] bus2reg: addr = 0x8, data = 0x5, kind = UVM_WRITE, status = UVM_IS_OK
# UVM_INFO @ 9927000: reporter [RegModel] Wrote register via map regmodel.ahb_map: regmodel.DLH=0x5
# UVM_INFO ./../regmodel/uart_reg2ahb_adapter.sv(27) @ 9927000: reporter [uart_reg2ahb_adapter] reg2bus: addr = 0xc, data = 0x20, kind = WRITE
# UVM_INFO ./../vip/ahb_vip/ahb_driver.sv(65) @ 9927000: uvm_test_top.env.ahb_agt.drv [ahb_driver] WRITE! addr = c, data = 20
# UVM_INFO ./../vip/ahb_vip/ahb_monitor.sv(45) @ 9927000: uvm_test_top.env.ahb_agt.mnt [ahb_monitor] Observed transaction: 
# ----------------------------------------------
# Name          Type             Size  Value    
# ----------------------------------------------
# trans         ahb_transaction  -     @1461    
#   xact_type   xact_type_enum   1     WRITE    
#   xfer_size   xfer_size_enum   3     SIZE_8BIT
#   burst_type  burst_type_enum  3     SINGLE   
#   addr        integral         10    'hc      
#   data        integral         32    'h20     
#   prot        integral         4     'h0      
#   lock        integral         1     'h0      
# ----------------------------------------------
# 
# UVM_INFO ./../regmodel/uart_reg2ahb_adapter.sv(42) @ 9927000: reporter [uart_reg2ahb_adapter] bus2reg: addr = 0xc, data = 0x20, kind = UVM_WRITE, status = UVM_IS_OK
# UVM_INFO /ictc/other/tools/QuestaDVA/questasim/verilog_src/uvm-1.2/src/reg/uvm_reg_predictor.svh(221) @ 9927000: uvm_test_top.env.ahb_predictor [REG_PREDICT] Observed WRITE transaction to register regmodel.LCR: value='h20 : updated value = 'h20
# UVM_INFO ./../regmodel/uart_reg2ahb_adapter.sv(42) @ 9927000: reporter [uart_reg2ahb_adapter] bus2reg: addr = 0xc, data = 0x20, kind = UVM_WRITE, status = UVM_IS_OK
# UVM_INFO @ 9927000: reporter [RegModel] Wrote register via map regmodel.ahb_map: regmodel.LCR=0x20
# UVM_INFO ./../sequences/uart_sequence.sv(9) @ 9927000: uvm_test_top.env.uart_agt.seq@@seq [body] Entered...
# UVM_INFO ./../sequences/uart_sequence.sv(13) @ 9927000: uvm_test_top.env.uart_agt.seq@@seq [body] Transaction randomize is: 
# ----------------------------------------------------------------------------------------
# Name                           Type              Size  Value                            
# ----------------------------------------------------------------------------------------
# req                            uart_transaction  -     @1511                            
#   data                         integral          8     'b1001110                        
#   parity                       integral          1     'b0                              
#   begin_time                   time              64    9927000                          
#   depth                        int               32    'd2                              
#   parent sequence (name)       string            3     seq                              
#   parent sequence (full name)  string            33    uvm_test_top.env.uart_agt.seq.seq
#   sequencer                    string            29    uvm_test_top.env.uart_agt.seq    
# ----------------------------------------------------------------------------------------
# 
# UVM_INFO ./../sequences/uart_sequence.sv(18) @ 11385000: uvm_test_top.env.uart_agt.seq@@seq [body] Exiting...
# UVM_INFO ./../tb/uart_scoreboard.sv(62) @ 11489000: uvm_test_top.env.scb [write_rx] Add RX's drive trans into queue
# UVM_INFO ./../regmodel/uart_reg2ahb_adapter.sv(27) @ 15385000: reporter [uart_reg2ahb_adapter] reg2bus: addr = 0x14, data = 0x0, kind = READ
# UVM_INFO ./../vip/ahb_vip/ahb_driver.sv(63) @ 15385000: uvm_test_top.env.ahb_agt.drv [ahb_driver] READ! addr = 14, data = 0
# UVM_INFO ./../vip/ahb_vip/ahb_monitor.sv(45) @ 15385000: uvm_test_top.env.ahb_agt.mnt [ahb_monitor] Observed transaction: 
# ----------------------------------------------
# Name          Type             Size  Value    
# ----------------------------------------------
# trans         ahb_transaction  -     @1501    
#   xact_type   xact_type_enum   1     READ     
#   xfer_size   xfer_size_enum   3     SIZE_8BIT
#   burst_type  burst_type_enum  3     SINGLE   
#   addr        integral         10    'h14     
#   data        integral         32    'h2      
#   prot        integral         4     'h0      
#   lock        integral         1     'h0      
# ----------------------------------------------
# 
# UVM_INFO ./../regmodel/uart_reg2ahb_adapter.sv(42) @ 15385000: reporter [uart_reg2ahb_adapter] bus2reg: addr = 0x14, data = 0x2, kind = UVM_READ, status = UVM_IS_OK
# UVM_INFO /ictc/other/tools/QuestaDVA/questasim/verilog_src/uvm-1.2/src/reg/uvm_reg_predictor.svh(225) @ 15385000: uvm_test_top.env.ahb_predictor [REG_PREDICT] Observed READ transaction to register regmodel.FSR: value='h2
# UVM_INFO ./../regmodel/uart_reg2ahb_adapter.sv(42) @ 15385000: reporter [uart_reg2ahb_adapter] bus2reg: addr = 0x14, data = 0x2, kind = UVM_READ, status = UVM_IS_OK
# UVM_INFO @ 15385000: reporter [RegModel] Read  register via map regmodel.ahb_map: regmodel.FSR=2
# UVM_INFO ./../regmodel/uart_reg2ahb_adapter.sv(27) @ 15385000: reporter [uart_reg2ahb_adapter] reg2bus: addr = 0x1c, data = 0x0, kind = READ
# UVM_INFO ./../vip/ahb_vip/ahb_driver.sv(63) @ 15385000: uvm_test_top.env.ahb_agt.drv [ahb_driver] READ! addr = 1c, data = 0
# UVM_INFO ./../vip/ahb_vip/ahb_monitor.sv(45) @ 15385000: uvm_test_top.env.ahb_agt.mnt [ahb_monitor] Observed transaction: 
# ----------------------------------------------
# Name          Type             Size  Value    
# ----------------------------------------------
# trans         ahb_transaction  -     @1559    
#   xact_type   xact_type_enum   1     READ     
#   xfer_size   xfer_size_enum   3     SIZE_8BIT
#   burst_type  burst_type_enum  3     SINGLE   
#   addr        integral         10    'h1c     
#   data        integral         32    'h1d     
#   prot        integral         4     'h0      
#   lock        integral         1     'h0      
# ----------------------------------------------
# 
# UVM_INFO ./../regmodel/uart_reg2ahb_adapter.sv(42) @ 15385000: reporter [uart_reg2ahb_adapter] bus2reg: addr = 0x1c, data = 0x1d, kind = UVM_READ, status = UVM_IS_OK
# UVM_INFO /ictc/other/tools/QuestaDVA/questasim/verilog_src/uvm-1.2/src/reg/uvm_reg_predictor.svh(225) @ 15385000: uvm_test_top.env.ahb_predictor [REG_PREDICT] Observed READ transaction to register regmodel.RBR: value='h1d
# UVM_INFO ./../tb/uart_scoreboard.sv(74) @ 15385000: uvm_test_top.env.scb [write_ahb] UART SIGNAL COMPARATIVE
# ============================================================================================================================
# UVM_ERROR ./../tb/uart_scoreboard.sv(84) @ 15385000: uvm_test_top.env.scb [uart_scoreboard] FAILED! Signal is not matching. Exp: 00001110, Act: 00011101
# ============================================================================================================================
# UVM_INFO ./../regmodel/uart_reg2ahb_adapter.sv(42) @ 15385000: reporter [uart_reg2ahb_adapter] bus2reg: addr = 0x1c, data = 0x1d, kind = UVM_READ, status = UVM_IS_OK
# UVM_INFO @ 15385000: reporter [RegModel] Read  register via map regmodel.ahb_map: regmodel.RBR=1d
# UVM_INFO ./../testcases/RX_16x_5bits_data_test.sv(40) @ 15385000: uvm_test_top [run_phase] Configuration randomize is: 
# ----------------------------------------------------
# Name               Type                 Size  Value 
# ----------------------------------------------------
# cfg                uart_configuration   -     @373  
#   parity_mode      parity_mode_config   2     NONE  
#   data_width       integral             32    'd5   
#   num_of_stop_bit  integral             32    'd1   
#   baud_rate        integral             32    'd9600
#   ovsmpl           ovs_config           1     X16   
#   parity_error     parity_error_config  1     NORMAL
#   uart_mode        mode_config          1     TX    
# ----------------------------------------------------
# 
# UVM_INFO ./../regmodel/uart_reg2ahb_adapter.sv(27) @ 15385000: reporter [uart_reg2ahb_adapter] reg2bus: addr = 0x0, data = 0x0, kind = WRITE
# UVM_INFO ./../vip/ahb_vip/ahb_driver.sv(65) @ 15385000: uvm_test_top.env.ahb_agt.drv [ahb_driver] WRITE! addr = 0, data = 0
# UVM_INFO ./../vip/ahb_vip/ahb_monitor.sv(45) @ 15385000: uvm_test_top.env.ahb_agt.mnt [ahb_monitor] Observed transaction: 
# ----------------------------------------------
# Name          Type             Size  Value    
# ----------------------------------------------
# trans         ahb_transaction  -     @1603    
#   xact_type   xact_type_enum   1     WRITE    
#   xfer_size   xfer_size_enum   3     SIZE_8BIT
#   burst_type  burst_type_enum  3     SINGLE   
#   addr        integral         10    'h0      
#   data        integral         32    'h0      
#   prot        integral         4     'h0      
#   lock        integral         1     'h0      
# ----------------------------------------------
# 
# UVM_INFO ./../regmodel/uart_reg2ahb_adapter.sv(42) @ 15385000: reporter [uart_reg2ahb_adapter] bus2reg: addr = 0x0, data = 0x0, kind = UVM_WRITE, status = UVM_IS_OK
# UVM_INFO /ictc/other/tools/QuestaDVA/questasim/verilog_src/uvm-1.2/src/reg/uvm_reg_predictor.svh(221) @ 15385000: uvm_test_top.env.ahb_predictor [REG_PREDICT] Observed WRITE transaction to register regmodel.MDR: value='h0 : updated value = 'h0
# UVM_INFO ./../regmodel/uart_reg2ahb_adapter.sv(42) @ 15385000: reporter [uart_reg2ahb_adapter] bus2reg: addr = 0x0, data = 0x0, kind = UVM_WRITE, status = UVM_IS_OK
# UVM_INFO @ 15385000: reporter [RegModel] Wrote register via map regmodel.ahb_map: regmodel.MDR=0x0
# UVM_INFO ./../regmodel/uart_reg2ahb_adapter.sv(27) @ 15385000: reporter [uart_reg2ahb_adapter] reg2bus: addr = 0x4, data = 0x8b, kind = WRITE
# UVM_INFO ./../vip/ahb_vip/ahb_driver.sv(65) @ 15385000: uvm_test_top.env.ahb_agt.drv [ahb_driver] WRITE! addr = 4, data = 8b
# UVM_INFO ./../vip/ahb_vip/ahb_monitor.sv(45) @ 15385000: uvm_test_top.env.ahb_agt.mnt [ahb_monitor] Observed transaction: 
# ----------------------------------------------
# Name          Type             Size  Value    
# ----------------------------------------------
# trans         ahb_transaction  -     @1645    
#   xact_type   xact_type_enum   1     WRITE    
#   xfer_size   xfer_size_enum   3     SIZE_8BIT
#   burst_type  burst_type_enum  3     SINGLE   
#   addr        integral         10    'h4      
#   data        integral         32    'h8b     
#   prot        integral         4     'h0      
#   lock        integral         1     'h0      
# ----------------------------------------------
# 
# UVM_INFO ./../regmodel/uart_reg2ahb_adapter.sv(42) @ 15385000: reporter [uart_reg2ahb_adapter] bus2reg: addr = 0x4, data = 0x8b, kind = UVM_WRITE, status = UVM_IS_OK
# UVM_INFO /ictc/other/tools/QuestaDVA/questasim/verilog_src/uvm-1.2/src/reg/uvm_reg_predictor.svh(221) @ 15385000: uvm_test_top.env.ahb_predictor [REG_PREDICT] Observed WRITE transaction to register regmodel.DLL: value='h8b : updated value = 'h8b
# UVM_INFO ./../regmodel/uart_reg2ahb_adapter.sv(42) @ 15385000: reporter [uart_reg2ahb_adapter] bus2reg: addr = 0x4, data = 0x8b, kind = UVM_WRITE, status = UVM_IS_OK
# UVM_INFO @ 15385000: reporter [RegModel] Wrote register via map regmodel.ahb_map: regmodel.DLL=0x8b
# UVM_INFO ./../regmodel/uart_reg2ahb_adapter.sv(27) @ 15385000: reporter [uart_reg2ahb_adapter] reg2bus: addr = 0x8, data = 0x2, kind = WRITE
# UVM_INFO ./../vip/ahb_vip/ahb_driver.sv(65) @ 15385000: uvm_test_top.env.ahb_agt.drv [ahb_driver] WRITE! addr = 8, data = 2
# UVM_INFO ./../vip/ahb_vip/ahb_monitor.sv(45) @ 15385000: uvm_test_top.env.ahb_agt.mnt [ahb_monitor] Observed transaction: 
# ----------------------------------------------
# Name          Type             Size  Value    
# ----------------------------------------------
# trans         ahb_transaction  -     @1685    
#   xact_type   xact_type_enum   1     WRITE    
#   xfer_size   xfer_size_enum   3     SIZE_8BIT
#   burst_type  burst_type_enum  3     SINGLE   
#   addr        integral         10    'h8      
#   data        integral         32    'h2      
#   prot        integral         4     'h0      
#   lock        integral         1     'h0      
# ----------------------------------------------
# 
# UVM_INFO ./../regmodel/uart_reg2ahb_adapter.sv(42) @ 15385000: reporter [uart_reg2ahb_adapter] bus2reg: addr = 0x8, data = 0x2, kind = UVM_WRITE, status = UVM_IS_OK
# UVM_INFO /ictc/other/tools/QuestaDVA/questasim/verilog_src/uvm-1.2/src/reg/uvm_reg_predictor.svh(221) @ 15385000: uvm_test_top.env.ahb_predictor [REG_PREDICT] Observed WRITE transaction to register regmodel.DLH: value='h2 : updated value = 'h2
# UVM_INFO ./../regmodel/uart_reg2ahb_adapter.sv(42) @ 15385000: reporter [uart_reg2ahb_adapter] bus2reg: addr = 0x8, data = 0x2, kind = UVM_WRITE, status = UVM_IS_OK
# UVM_INFO @ 15385000: reporter [RegModel] Wrote register via map regmodel.ahb_map: regmodel.DLH=0x2
# UVM_INFO ./../regmodel/uart_reg2ahb_adapter.sv(27) @ 15385000: reporter [uart_reg2ahb_adapter] reg2bus: addr = 0xc, data = 0x20, kind = WRITE
# UVM_INFO ./../vip/ahb_vip/ahb_driver.sv(65) @ 15386000: uvm_test_top.env.ahb_agt.drv [ahb_driver] WRITE! addr = c, data = 20
# UVM_INFO ./../vip/ahb_vip/ahb_monitor.sv(45) @ 15386000: uvm_test_top.env.ahb_agt.mnt [ahb_monitor] Observed transaction: 
# ----------------------------------------------
# Name          Type             Size  Value    
# ----------------------------------------------
# trans         ahb_transaction  -     @1725    
#   xact_type   xact_type_enum   1     WRITE    
#   xfer_size   xfer_size_enum   3     SIZE_8BIT
#   burst_type  burst_type_enum  3     SINGLE   
#   addr        integral         10    'hc      
#   data        integral         32    'h20     
#   prot        integral         4     'h0      
#   lock        integral         1     'h0      
# ----------------------------------------------
# 
# UVM_INFO ./../regmodel/uart_reg2ahb_adapter.sv(42) @ 15386000: reporter [uart_reg2ahb_adapter] bus2reg: addr = 0xc, data = 0x20, kind = UVM_WRITE, status = UVM_IS_OK
# UVM_INFO /ictc/other/tools/QuestaDVA/questasim/verilog_src/uvm-1.2/src/reg/uvm_reg_predictor.svh(221) @ 15386000: uvm_test_top.env.ahb_predictor [REG_PREDICT] Observed WRITE transaction to register regmodel.LCR: value='h20 : updated value = 'h20
# UVM_INFO ./../regmodel/uart_reg2ahb_adapter.sv(42) @ 15386000: reporter [uart_reg2ahb_adapter] bus2reg: addr = 0xc, data = 0x20, kind = UVM_WRITE, status = UVM_IS_OK
# UVM_INFO @ 15386000: reporter [RegModel] Wrote register via map regmodel.ahb_map: regmodel.LCR=0x20
# UVM_INFO ./../sequences/uart_sequence.sv(9) @ 15386000: uvm_test_top.env.uart_agt.seq@@seq [body] Entered...
# UVM_INFO ./../sequences/uart_sequence.sv(13) @ 15386000: uvm_test_top.env.uart_agt.seq@@seq [body] Transaction randomize is: 
# ----------------------------------------------------------------------------------------
# Name                           Type              Size  Value                            
# ----------------------------------------------------------------------------------------
# req                            uart_transaction  -     @1775                            
#   data                         integral          8     'b110011                         
#   parity                       integral          1     'b0                              
#   begin_time                   time              64    15386000                         
#   depth                        int               32    'd2                              
#   parent sequence (name)       string            3     seq                              
#   parent sequence (full name)  string            33    uvm_test_top.env.uart_agt.seq.seq
#   sequencer                    string            29    uvm_test_top.env.uart_agt.seq    
# ----------------------------------------------------------------------------------------
# 
# UVM_INFO ./../sequences/uart_sequence.sv(18) @ 16115000: uvm_test_top.env.uart_agt.seq@@seq [body] Exiting...
# UVM_INFO ./../tb/uart_scoreboard.sv(62) @ 16167000: uvm_test_top.env.scb [write_rx] Add RX's drive trans into queue
# UVM_INFO ./../regmodel/uart_reg2ahb_adapter.sv(27) @ 18115000: reporter [uart_reg2ahb_adapter] reg2bus: addr = 0x14, data = 0x0, kind = READ
# UVM_INFO ./../vip/ahb_vip/ahb_driver.sv(63) @ 18115000: uvm_test_top.env.ahb_agt.drv [ahb_driver] READ! addr = 14, data = 0
# UVM_INFO ./../vip/ahb_vip/ahb_monitor.sv(45) @ 18115000: uvm_test_top.env.ahb_agt.mnt [ahb_monitor] Observed transaction: 
# ----------------------------------------------
# Name          Type             Size  Value    
# ----------------------------------------------
# trans         ahb_transaction  -     @1765    
#   xact_type   xact_type_enum   1     READ     
#   xfer_size   xfer_size_enum   3     SIZE_8BIT
#   burst_type  burst_type_enum  3     SINGLE   
#   addr        integral         10    'h14     
#   data        integral         32    'h2      
#   prot        integral         4     'h0      
#   lock        integral         1     'h0      
# ----------------------------------------------
# 
# UVM_INFO ./../regmodel/uart_reg2ahb_adapter.sv(42) @ 18115000: reporter [uart_reg2ahb_adapter] bus2reg: addr = 0x14, data = 0x2, kind = UVM_READ, status = UVM_IS_OK
# UVM_INFO /ictc/other/tools/QuestaDVA/questasim/verilog_src/uvm-1.2/src/reg/uvm_reg_predictor.svh(225) @ 18115000: uvm_test_top.env.ahb_predictor [REG_PREDICT] Observed READ transaction to register regmodel.FSR: value='h2
# UVM_INFO ./../regmodel/uart_reg2ahb_adapter.sv(42) @ 18115000: reporter [uart_reg2ahb_adapter] bus2reg: addr = 0x14, data = 0x2, kind = UVM_READ, status = UVM_IS_OK
# UVM_INFO @ 18115000: reporter [RegModel] Read  register via map regmodel.ahb_map: regmodel.FSR=2
# UVM_INFO ./../regmodel/uart_reg2ahb_adapter.sv(27) @ 18115000: reporter [uart_reg2ahb_adapter] reg2bus: addr = 0x1c, data = 0x0, kind = READ
# UVM_INFO ./../vip/ahb_vip/ahb_driver.sv(63) @ 18115000: uvm_test_top.env.ahb_agt.drv [ahb_driver] READ! addr = 1c, data = 0
# UVM_INFO ./../vip/ahb_vip/ahb_monitor.sv(45) @ 18115000: uvm_test_top.env.ahb_agt.mnt [ahb_monitor] Observed transaction: 
# ----------------------------------------------
# Name          Type             Size  Value    
# ----------------------------------------------
# trans         ahb_transaction  -     @1823    
#   xact_type   xact_type_enum   1     READ     
#   xfer_size   xfer_size_enum   3     SIZE_8BIT
#   burst_type  burst_type_enum  3     SINGLE   
#   addr        integral         10    'h1c     
#   data        integral         32    'h1f     
#   prot        integral         4     'h0      
#   lock        integral         1     'h0      
# ----------------------------------------------
# 
# UVM_INFO ./../regmodel/uart_reg2ahb_adapter.sv(42) @ 18115000: reporter [uart_reg2ahb_adapter] bus2reg: addr = 0x1c, data = 0x1f, kind = UVM_READ, status = UVM_IS_OK
# UVM_INFO /ictc/other/tools/QuestaDVA/questasim/verilog_src/uvm-1.2/src/reg/uvm_reg_predictor.svh(225) @ 18115000: uvm_test_top.env.ahb_predictor [REG_PREDICT] Observed READ transaction to register regmodel.RBR: value='h1f
# UVM_INFO ./../tb/uart_scoreboard.sv(74) @ 18115000: uvm_test_top.env.scb [write_ahb] UART SIGNAL COMPARATIVE
# ============================================================================================================================
# UVM_ERROR ./../tb/uart_scoreboard.sv(84) @ 18115000: uvm_test_top.env.scb [uart_scoreboard] FAILED! Signal is not matching. Exp: 00010011, Act: 00011111
# ============================================================================================================================
# UVM_INFO ./../regmodel/uart_reg2ahb_adapter.sv(42) @ 18115000: reporter [uart_reg2ahb_adapter] bus2reg: addr = 0x1c, data = 0x1f, kind = UVM_READ, status = UVM_IS_OK
# UVM_INFO @ 18115000: reporter [RegModel] Read  register via map regmodel.ahb_map: regmodel.RBR=1f
# UVM_INFO ./../testcases/RX_16x_5bits_data_test.sv(40) @ 18115000: uvm_test_top [run_phase] Configuration randomize is: 
# -----------------------------------------------------
# Name               Type                 Size  Value  
# -----------------------------------------------------
# cfg                uart_configuration   -     @373   
#   parity_mode      parity_mode_config   2     NONE   
#   data_width       integral             32    'd5    
#   num_of_stop_bit  integral             32    'd1    
#   baud_rate        integral             32    'd19200
#   ovsmpl           ovs_config           1     X16    
#   parity_error     parity_error_config  1     NORMAL 
#   uart_mode        mode_config          1     TX     
# -----------------------------------------------------
# 
# UVM_INFO ./../regmodel/uart_reg2ahb_adapter.sv(27) @ 18115000: reporter [uart_reg2ahb_adapter] reg2bus: addr = 0x0, data = 0x0, kind = WRITE
# UVM_INFO ./../vip/ahb_vip/ahb_driver.sv(65) @ 18115000: uvm_test_top.env.ahb_agt.drv [ahb_driver] WRITE! addr = 0, data = 0
# UVM_INFO ./../vip/ahb_vip/ahb_monitor.sv(45) @ 18115000: uvm_test_top.env.ahb_agt.mnt [ahb_monitor] Observed transaction: 
# ----------------------------------------------
# Name          Type             Size  Value    
# ----------------------------------------------
# trans         ahb_transaction  -     @1867    
#   xact_type   xact_type_enum   1     WRITE    
#   xfer_size   xfer_size_enum   3     SIZE_8BIT
#   burst_type  burst_type_enum  3     SINGLE   
#   addr        integral         10    'h0      
#   data        integral         32    'h0      
#   prot        integral         4     'h0      
#   lock        integral         1     'h0      
# ----------------------------------------------
# 
# UVM_INFO ./../regmodel/uart_reg2ahb_adapter.sv(42) @ 18115000: reporter [uart_reg2ahb_adapter] bus2reg: addr = 0x0, data = 0x0, kind = UVM_WRITE, status = UVM_IS_OK
# UVM_INFO /ictc/other/tools/QuestaDVA/questasim/verilog_src/uvm-1.2/src/reg/uvm_reg_predictor.svh(221) @ 18115000: uvm_test_top.env.ahb_predictor [REG_PREDICT] Observed WRITE transaction to register regmodel.MDR: value='h0 : updated value = 'h0
# UVM_INFO ./../regmodel/uart_reg2ahb_adapter.sv(42) @ 18115000: reporter [uart_reg2ahb_adapter] bus2reg: addr = 0x0, data = 0x0, kind = UVM_WRITE, status = UVM_IS_OK
# UVM_INFO @ 18115000: reporter [RegModel] Wrote register via map regmodel.ahb_map: regmodel.MDR=0x0
# UVM_INFO ./../regmodel/uart_reg2ahb_adapter.sv(27) @ 18115000: reporter [uart_reg2ahb_adapter] reg2bus: addr = 0x4, data = 0x45, kind = WRITE
# UVM_INFO ./../vip/ahb_vip/ahb_driver.sv(65) @ 18115000: uvm_test_top.env.ahb_agt.drv [ahb_driver] WRITE! addr = 4, data = 45
# UVM_INFO ./../vip/ahb_vip/ahb_monitor.sv(45) @ 18115000: uvm_test_top.env.ahb_agt.mnt [ahb_monitor] Observed transaction: 
# ----------------------------------------------
# Name          Type             Size  Value    
# ----------------------------------------------
# trans         ahb_transaction  -     @1909    
#   xact_type   xact_type_enum   1     WRITE    
#   xfer_size   xfer_size_enum   3     SIZE_8BIT
#   burst_type  burst_type_enum  3     SINGLE   
#   addr        integral         10    'h4      
#   data        integral         32    'h45     
#   prot        integral         4     'h0      
#   lock        integral         1     'h0      
# ----------------------------------------------
# 
# UVM_INFO ./../regmodel/uart_reg2ahb_adapter.sv(42) @ 18115000: reporter [uart_reg2ahb_adapter] bus2reg: addr = 0x4, data = 0x45, kind = UVM_WRITE, status = UVM_IS_OK
# UVM_INFO /ictc/other/tools/QuestaDVA/questasim/verilog_src/uvm-1.2/src/reg/uvm_reg_predictor.svh(221) @ 18115000: uvm_test_top.env.ahb_predictor [REG_PREDICT] Observed WRITE transaction to register regmodel.DLL: value='h45 : updated value = 'h45
# UVM_INFO ./../regmodel/uart_reg2ahb_adapter.sv(42) @ 18115000: reporter [uart_reg2ahb_adapter] bus2reg: addr = 0x4, data = 0x45, kind = UVM_WRITE, status = UVM_IS_OK
# UVM_INFO @ 18115000: reporter [RegModel] Wrote register via map regmodel.ahb_map: regmodel.DLL=0x45
# UVM_INFO ./../regmodel/uart_reg2ahb_adapter.sv(27) @ 18115000: reporter [uart_reg2ahb_adapter] reg2bus: addr = 0x8, data = 0x1, kind = WRITE
# UVM_INFO ./../vip/ahb_vip/ahb_driver.sv(65) @ 18115000: uvm_test_top.env.ahb_agt.drv [ahb_driver] WRITE! addr = 8, data = 1
# UVM_INFO ./../vip/ahb_vip/ahb_monitor.sv(45) @ 18115000: uvm_test_top.env.ahb_agt.mnt [ahb_monitor] Observed transaction: 
# ----------------------------------------------
# Name          Type             Size  Value    
# ----------------------------------------------
# trans         ahb_transaction  -     @1949    
#   xact_type   xact_type_enum   1     WRITE    
#   xfer_size   xfer_size_enum   3     SIZE_8BIT
#   burst_type  burst_type_enum  3     SINGLE   
#   addr        integral         10    'h8      
#   data        integral         32    'h1      
#   prot        integral         4     'h0      
#   lock        integral         1     'h0      
# ----------------------------------------------
# 
# UVM_INFO ./../regmodel/uart_reg2ahb_adapter.sv(42) @ 18115000: reporter [uart_reg2ahb_adapter] bus2reg: addr = 0x8, data = 0x1, kind = UVM_WRITE, status = UVM_IS_OK
# UVM_INFO /ictc/other/tools/QuestaDVA/questasim/verilog_src/uvm-1.2/src/reg/uvm_reg_predictor.svh(221) @ 18115000: uvm_test_top.env.ahb_predictor [REG_PREDICT] Observed WRITE transaction to register regmodel.DLH: value='h1 : updated value = 'h1
# UVM_INFO ./../regmodel/uart_reg2ahb_adapter.sv(42) @ 18115000: reporter [uart_reg2ahb_adapter] bus2reg: addr = 0x8, data = 0x1, kind = UVM_WRITE, status = UVM_IS_OK
# UVM_INFO @ 18115000: reporter [RegModel] Wrote register via map regmodel.ahb_map: regmodel.DLH=0x1
# UVM_INFO ./../regmodel/uart_reg2ahb_adapter.sv(27) @ 18115000: reporter [uart_reg2ahb_adapter] reg2bus: addr = 0xc, data = 0x20, kind = WRITE
# UVM_INFO ./../vip/ahb_vip/ahb_driver.sv(65) @ 18115000: uvm_test_top.env.ahb_agt.drv [ahb_driver] WRITE! addr = c, data = 20
# UVM_INFO ./../vip/ahb_vip/ahb_monitor.sv(45) @ 18115000: uvm_test_top.env.ahb_agt.mnt [ahb_monitor] Observed transaction: 
# ----------------------------------------------
# Name          Type             Size  Value    
# ----------------------------------------------
# trans         ahb_transaction  -     @1989    
#   xact_type   xact_type_enum   1     WRITE    
#   xfer_size   xfer_size_enum   3     SIZE_8BIT
#   burst_type  burst_type_enum  3     SINGLE   
#   addr        integral         10    'hc      
#   data        integral         32    'h20     
#   prot        integral         4     'h0      
#   lock        integral         1     'h0      
# ----------------------------------------------
# 
# UVM_INFO ./../regmodel/uart_reg2ahb_adapter.sv(42) @ 18115000: reporter [uart_reg2ahb_adapter] bus2reg: addr = 0xc, data = 0x20, kind = UVM_WRITE, status = UVM_IS_OK
# UVM_INFO /ictc/other/tools/QuestaDVA/questasim/verilog_src/uvm-1.2/src/reg/uvm_reg_predictor.svh(221) @ 18115000: uvm_test_top.env.ahb_predictor [REG_PREDICT] Observed WRITE transaction to register regmodel.LCR: value='h20 : updated value = 'h20
# UVM_INFO ./../regmodel/uart_reg2ahb_adapter.sv(42) @ 18115000: reporter [uart_reg2ahb_adapter] bus2reg: addr = 0xc, data = 0x20, kind = UVM_WRITE, status = UVM_IS_OK
# UVM_INFO @ 18115000: reporter [RegModel] Wrote register via map regmodel.ahb_map: regmodel.LCR=0x20
# UVM_INFO ./../sequences/uart_sequence.sv(9) @ 18115000: uvm_test_top.env.uart_agt.seq@@seq [body] Entered...
# UVM_INFO ./../sequences/uart_sequence.sv(13) @ 18115000: uvm_test_top.env.uart_agt.seq@@seq [body] Transaction randomize is: 
# ----------------------------------------------------------------------------------------
# Name                           Type              Size  Value                            
# ----------------------------------------------------------------------------------------
# req                            uart_transaction  -     @2039                            
#   data                         integral          8     'b11101                          
#   parity                       integral          1     'b0                              
#   begin_time                   time              64    18115000                         
#   depth                        int               32    'd2                              
#   parent sequence (name)       string            3     seq                              
#   parent sequence (full name)  string            33    uvm_test_top.env.uart_agt.seq.seq
#   sequencer                    string            29    uvm_test_top.env.uart_agt.seq    
# ----------------------------------------------------------------------------------------
# 
# UVM_INFO ./../sequences/uart_sequence.sv(18) @ 18479000: uvm_test_top.env.uart_agt.seq@@seq [body] Exiting...
# UVM_INFO ./../tb/uart_scoreboard.sv(62) @ 18505000: uvm_test_top.env.scb [write_rx] Add RX's drive trans into queue
# UVM_INFO ./../regmodel/uart_reg2ahb_adapter.sv(27) @ 19479000: reporter [uart_reg2ahb_adapter] reg2bus: addr = 0x14, data = 0x0, kind = READ
# UVM_INFO ./../vip/ahb_vip/ahb_driver.sv(63) @ 19479000: uvm_test_top.env.ahb_agt.drv [ahb_driver] READ! addr = 14, data = 0
# UVM_INFO ./../vip/ahb_vip/ahb_monitor.sv(45) @ 19479000: uvm_test_top.env.ahb_agt.mnt [ahb_monitor] Observed transaction: 
# ----------------------------------------------
# Name          Type             Size  Value    
# ----------------------------------------------
# trans         ahb_transaction  -     @2029    
#   xact_type   xact_type_enum   1     READ     
#   xfer_size   xfer_size_enum   3     SIZE_8BIT
#   burst_type  burst_type_enum  3     SINGLE   
#   addr        integral         10    'h14     
#   data        integral         32    'h2      
#   prot        integral         4     'h0      
#   lock        integral         1     'h0      
# ----------------------------------------------
# 
# UVM_INFO ./../regmodel/uart_reg2ahb_adapter.sv(42) @ 19479000: reporter [uart_reg2ahb_adapter] bus2reg: addr = 0x14, data = 0x2, kind = UVM_READ, status = UVM_IS_OK
# UVM_INFO /ictc/other/tools/QuestaDVA/questasim/verilog_src/uvm-1.2/src/reg/uvm_reg_predictor.svh(225) @ 19479000: uvm_test_top.env.ahb_predictor [REG_PREDICT] Observed READ transaction to register regmodel.FSR: value='h2
# UVM_INFO ./../regmodel/uart_reg2ahb_adapter.sv(42) @ 19479000: reporter [uart_reg2ahb_adapter] bus2reg: addr = 0x14, data = 0x2, kind = UVM_READ, status = UVM_IS_OK
# UVM_INFO @ 19479000: reporter [RegModel] Read  register via map regmodel.ahb_map: regmodel.FSR=2
# UVM_INFO ./../regmodel/uart_reg2ahb_adapter.sv(27) @ 19479000: reporter [uart_reg2ahb_adapter] reg2bus: addr = 0x1c, data = 0x0, kind = READ
# UVM_INFO ./../vip/ahb_vip/ahb_driver.sv(63) @ 19479000: uvm_test_top.env.ahb_agt.drv [ahb_driver] READ! addr = 1c, data = 0
# UVM_INFO ./../vip/ahb_vip/ahb_monitor.sv(45) @ 19479000: uvm_test_top.env.ahb_agt.mnt [ahb_monitor] Observed transaction: 
# ----------------------------------------------
# Name          Type             Size  Value    
# ----------------------------------------------
# trans         ahb_transaction  -     @2087    
#   xact_type   xact_type_enum   1     READ     
#   xfer_size   xfer_size_enum   3     SIZE_8BIT
#   burst_type  burst_type_enum  3     SINGLE   
#   addr        integral         10    'h1c     
#   data        integral         32    'h1f     
#   prot        integral         4     'h0      
#   lock        integral         1     'h0      
# ----------------------------------------------
# 
# UVM_INFO ./../regmodel/uart_reg2ahb_adapter.sv(42) @ 19479000: reporter [uart_reg2ahb_adapter] bus2reg: addr = 0x1c, data = 0x1f, kind = UVM_READ, status = UVM_IS_OK
# UVM_INFO /ictc/other/tools/QuestaDVA/questasim/verilog_src/uvm-1.2/src/reg/uvm_reg_predictor.svh(225) @ 19479000: uvm_test_top.env.ahb_predictor [REG_PREDICT] Observed READ transaction to register regmodel.RBR: value='h1f
# UVM_INFO ./../tb/uart_scoreboard.sv(74) @ 19479000: uvm_test_top.env.scb [write_ahb] UART SIGNAL COMPARATIVE
# ============================================================================================================================
# UVM_ERROR ./../tb/uart_scoreboard.sv(84) @ 19479000: uvm_test_top.env.scb [uart_scoreboard] FAILED! Signal is not matching. Exp: 00011101, Act: 00011111
# ============================================================================================================================
# UVM_INFO ./../regmodel/uart_reg2ahb_adapter.sv(42) @ 19479000: reporter [uart_reg2ahb_adapter] bus2reg: addr = 0x1c, data = 0x1f, kind = UVM_READ, status = UVM_IS_OK
# UVM_INFO @ 19479000: reporter [RegModel] Read  register via map regmodel.ahb_map: regmodel.RBR=1f
# UVM_INFO ./../testcases/RX_16x_5bits_data_test.sv(40) @ 19479000: uvm_test_top [run_phase] Configuration randomize is: 
# -----------------------------------------------------
# Name               Type                 Size  Value  
# -----------------------------------------------------
# cfg                uart_configuration   -     @373   
#   parity_mode      parity_mode_config   2     NONE   
#   data_width       integral             32    'd5    
#   num_of_stop_bit  integral             32    'd1    
#   baud_rate        integral             32    'd38400
#   ovsmpl           ovs_config           1     X16    
#   parity_error     parity_error_config  1     NORMAL 
#   uart_mode        mode_config          1     TX     
# -----------------------------------------------------
# 
# UVM_INFO ./../regmodel/uart_reg2ahb_adapter.sv(27) @ 19479000: reporter [uart_reg2ahb_adapter] reg2bus: addr = 0x0, data = 0x0, kind = WRITE
# UVM_INFO ./../vip/ahb_vip/ahb_driver.sv(65) @ 19479000: uvm_test_top.env.ahb_agt.drv [ahb_driver] WRITE! addr = 0, data = 0
# UVM_INFO ./../vip/ahb_vip/ahb_monitor.sv(45) @ 19479000: uvm_test_top.env.ahb_agt.mnt [ahb_monitor] Observed transaction: 
# ----------------------------------------------
# Name          Type             Size  Value    
# ----------------------------------------------
# trans         ahb_transaction  -     @2131    
#   xact_type   xact_type_enum   1     WRITE    
#   xfer_size   xfer_size_enum   3     SIZE_8BIT
#   burst_type  burst_type_enum  3     SINGLE   
#   addr        integral         10    'h0      
#   data        integral         32    'h0      
#   prot        integral         4     'h0      
#   lock        integral         1     'h0      
# ----------------------------------------------
# 
# UVM_INFO ./../regmodel/uart_reg2ahb_adapter.sv(42) @ 19479000: reporter [uart_reg2ahb_adapter] bus2reg: addr = 0x0, data = 0x0, kind = UVM_WRITE, status = UVM_IS_OK
# UVM_INFO /ictc/other/tools/QuestaDVA/questasim/verilog_src/uvm-1.2/src/reg/uvm_reg_predictor.svh(221) @ 19479000: uvm_test_top.env.ahb_predictor [REG_PREDICT] Observed WRITE transaction to register regmodel.MDR: value='h0 : updated value = 'h0
# UVM_INFO ./../regmodel/uart_reg2ahb_adapter.sv(42) @ 19479000: reporter [uart_reg2ahb_adapter] bus2reg: addr = 0x0, data = 0x0, kind = UVM_WRITE, status = UVM_IS_OK
# UVM_INFO @ 19479000: reporter [RegModel] Wrote register via map regmodel.ahb_map: regmodel.MDR=0x0
# UVM_INFO ./../regmodel/uart_reg2ahb_adapter.sv(27) @ 19479000: reporter [uart_reg2ahb_adapter] reg2bus: addr = 0x4, data = 0xa3, kind = WRITE
# UVM_INFO ./../vip/ahb_vip/ahb_driver.sv(65) @ 19479000: uvm_test_top.env.ahb_agt.drv [ahb_driver] WRITE! addr = 4, data = a3
# UVM_INFO ./../vip/ahb_vip/ahb_monitor.sv(45) @ 19479000: uvm_test_top.env.ahb_agt.mnt [ahb_monitor] Observed transaction: 
# ----------------------------------------------
# Name          Type             Size  Value    
# ----------------------------------------------
# trans         ahb_transaction  -     @2173    
#   xact_type   xact_type_enum   1     WRITE    
#   xfer_size   xfer_size_enum   3     SIZE_8BIT
#   burst_type  burst_type_enum  3     SINGLE   
#   addr        integral         10    'h4      
#   data        integral         32    'ha3     
#   prot        integral         4     'h0      
#   lock        integral         1     'h0      
# ----------------------------------------------
# 
# UVM_INFO ./../regmodel/uart_reg2ahb_adapter.sv(42) @ 19479000: reporter [uart_reg2ahb_adapter] bus2reg: addr = 0x4, data = 0xa3, kind = UVM_WRITE, status = UVM_IS_OK
# UVM_INFO /ictc/other/tools/QuestaDVA/questasim/verilog_src/uvm-1.2/src/reg/uvm_reg_predictor.svh(221) @ 19479000: uvm_test_top.env.ahb_predictor [REG_PREDICT] Observed WRITE transaction to register regmodel.DLL: value='ha3 : updated value = 'ha3
# UVM_INFO ./../regmodel/uart_reg2ahb_adapter.sv(42) @ 19479000: reporter [uart_reg2ahb_adapter] bus2reg: addr = 0x4, data = 0xa3, kind = UVM_WRITE, status = UVM_IS_OK
# UVM_INFO @ 19479000: reporter [RegModel] Wrote register via map regmodel.ahb_map: regmodel.DLL=0xa3
# UVM_INFO ./../regmodel/uart_reg2ahb_adapter.sv(27) @ 19479000: reporter [uart_reg2ahb_adapter] reg2bus: addr = 0x8, data = 0x0, kind = WRITE
# UVM_INFO ./../vip/ahb_vip/ahb_driver.sv(65) @ 19479000: uvm_test_top.env.ahb_agt.drv [ahb_driver] WRITE! addr = 8, data = 0
# UVM_INFO ./../vip/ahb_vip/ahb_monitor.sv(45) @ 19479000: uvm_test_top.env.ahb_agt.mnt [ahb_monitor] Observed transaction: 
# ----------------------------------------------
# Name          Type             Size  Value    
# ----------------------------------------------
# trans         ahb_transaction  -     @2213    
#   xact_type   xact_type_enum   1     WRITE    
#   xfer_size   xfer_size_enum   3     SIZE_8BIT
#   burst_type  burst_type_enum  3     SINGLE   
#   addr        integral         10    'h8      
#   data        integral         32    'h0      
#   prot        integral         4     'h0      
#   lock        integral         1     'h0      
# ----------------------------------------------
# 
# UVM_INFO ./../regmodel/uart_reg2ahb_adapter.sv(42) @ 19479000: reporter [uart_reg2ahb_adapter] bus2reg: addr = 0x8, data = 0x0, kind = UVM_WRITE, status = UVM_IS_OK
# UVM_INFO /ictc/other/tools/QuestaDVA/questasim/verilog_src/uvm-1.2/src/reg/uvm_reg_predictor.svh(221) @ 19479000: uvm_test_top.env.ahb_predictor [REG_PREDICT] Observed WRITE transaction to register regmodel.DLH: value='h0 : updated value = 'h0
# UVM_INFO ./../regmodel/uart_reg2ahb_adapter.sv(42) @ 19479000: reporter [uart_reg2ahb_adapter] bus2reg: addr = 0x8, data = 0x0, kind = UVM_WRITE, status = UVM_IS_OK
# UVM_INFO @ 19479000: reporter [RegModel] Wrote register via map regmodel.ahb_map: regmodel.DLH=0x0
# UVM_INFO ./../regmodel/uart_reg2ahb_adapter.sv(27) @ 19479000: reporter [uart_reg2ahb_adapter] reg2bus: addr = 0xc, data = 0x20, kind = WRITE
# UVM_INFO ./../vip/ahb_vip/ahb_driver.sv(65) @ 19479000: uvm_test_top.env.ahb_agt.drv [ahb_driver] WRITE! addr = c, data = 20
# UVM_INFO ./../vip/ahb_vip/ahb_monitor.sv(45) @ 19479000: uvm_test_top.env.ahb_agt.mnt [ahb_monitor] Observed transaction: 
# ----------------------------------------------
# Name          Type             Size  Value    
# ----------------------------------------------
# trans         ahb_transaction  -     @2253    
#   xact_type   xact_type_enum   1     WRITE    
#   xfer_size   xfer_size_enum   3     SIZE_8BIT
#   burst_type  burst_type_enum  3     SINGLE   
#   addr        integral         10    'hc      
#   data        integral         32    'h20     
#   prot        integral         4     'h0      
#   lock        integral         1     'h0      
# ----------------------------------------------
# 
# UVM_INFO ./../regmodel/uart_reg2ahb_adapter.sv(42) @ 19479000: reporter [uart_reg2ahb_adapter] bus2reg: addr = 0xc, data = 0x20, kind = UVM_WRITE, status = UVM_IS_OK
# UVM_INFO /ictc/other/tools/QuestaDVA/questasim/verilog_src/uvm-1.2/src/reg/uvm_reg_predictor.svh(221) @ 19479000: uvm_test_top.env.ahb_predictor [REG_PREDICT] Observed WRITE transaction to register regmodel.LCR: value='h20 : updated value = 'h20
# UVM_INFO ./../regmodel/uart_reg2ahb_adapter.sv(42) @ 19479000: reporter [uart_reg2ahb_adapter] bus2reg: addr = 0xc, data = 0x20, kind = UVM_WRITE, status = UVM_IS_OK
# UVM_INFO @ 19479000: reporter [RegModel] Wrote register via map regmodel.ahb_map: regmodel.LCR=0x20
# UVM_INFO ./../sequences/uart_sequence.sv(9) @ 19479000: uvm_test_top.env.uart_agt.seq@@seq [body] Entered...
# UVM_INFO ./../sequences/uart_sequence.sv(13) @ 19479000: uvm_test_top.env.uart_agt.seq@@seq [body] Transaction randomize is: 
# ----------------------------------------------------------------------------------------
# Name                           Type              Size  Value                            
# ----------------------------------------------------------------------------------------
# req                            uart_transaction  -     @2303                            
#   data                         integral          8     'b1000                           
#   parity                       integral          1     'b0                              
#   begin_time                   time              64    19479000                         
#   depth                        int               32    'd2                              
#   parent sequence (name)       string            3     seq                              
#   parent sequence (full name)  string            33    uvm_test_top.env.uart_agt.seq.seq
#   sequencer                    string            29    uvm_test_top.env.uart_agt.seq    
# ----------------------------------------------------------------------------------------
# 
# UVM_INFO ./../sequences/uart_sequence.sv(18) @ 19662000: uvm_test_top.env.uart_agt.seq@@seq [body] Exiting...
# UVM_INFO ./../tb/uart_scoreboard.sv(62) @ 19675000: uvm_test_top.env.scb [write_rx] Add RX's drive trans into queue
# UVM_INFO ./../regmodel/uart_reg2ahb_adapter.sv(27) @ 20662000: reporter [uart_reg2ahb_adapter] reg2bus: addr = 0x14, data = 0x0, kind = READ
# UVM_INFO ./../vip/ahb_vip/ahb_driver.sv(63) @ 20662000: uvm_test_top.env.ahb_agt.drv [ahb_driver] READ! addr = 14, data = 0
# UVM_INFO ./../vip/ahb_vip/ahb_monitor.sv(45) @ 20662000: uvm_test_top.env.ahb_agt.mnt [ahb_monitor] Observed transaction: 
# ----------------------------------------------
# Name          Type             Size  Value    
# ----------------------------------------------
# trans         ahb_transaction  -     @2293    
#   xact_type   xact_type_enum   1     READ     
#   xfer_size   xfer_size_enum   3     SIZE_8BIT
#   burst_type  burst_type_enum  3     SINGLE   
#   addr        integral         10    'h14     
#   data        integral         32    'h2      
#   prot        integral         4     'h0      
#   lock        integral         1     'h0      
# ----------------------------------------------
# 
# UVM_INFO ./../regmodel/uart_reg2ahb_adapter.sv(42) @ 20662000: reporter [uart_reg2ahb_adapter] bus2reg: addr = 0x14, data = 0x2, kind = UVM_READ, status = UVM_IS_OK
# UVM_INFO /ictc/other/tools/QuestaDVA/questasim/verilog_src/uvm-1.2/src/reg/uvm_reg_predictor.svh(225) @ 20662000: uvm_test_top.env.ahb_predictor [REG_PREDICT] Observed READ transaction to register regmodel.FSR: value='h2
# UVM_INFO ./../regmodel/uart_reg2ahb_adapter.sv(42) @ 20662000: reporter [uart_reg2ahb_adapter] bus2reg: addr = 0x14, data = 0x2, kind = UVM_READ, status = UVM_IS_OK
# UVM_INFO @ 20662000: reporter [RegModel] Read  register via map regmodel.ahb_map: regmodel.FSR=2
# UVM_INFO ./../regmodel/uart_reg2ahb_adapter.sv(27) @ 20662000: reporter [uart_reg2ahb_adapter] reg2bus: addr = 0x1c, data = 0x0, kind = READ
# UVM_INFO ./../vip/ahb_vip/ahb_driver.sv(63) @ 20662000: uvm_test_top.env.ahb_agt.drv [ahb_driver] READ! addr = 1c, data = 0
# UVM_INFO ./../vip/ahb_vip/ahb_monitor.sv(45) @ 20662000: uvm_test_top.env.ahb_agt.mnt [ahb_monitor] Observed transaction: 
# ----------------------------------------------
# Name          Type             Size  Value    
# ----------------------------------------------
# trans         ahb_transaction  -     @2351    
#   xact_type   xact_type_enum   1     READ     
#   xfer_size   xfer_size_enum   3     SIZE_8BIT
#   burst_type  burst_type_enum  3     SINGLE   
#   addr        integral         10    'h1c     
#   data        integral         32    'h1f     
#   prot        integral         4     'h0      
#   lock        integral         1     'h0      
# ----------------------------------------------
# 
# UVM_INFO ./../regmodel/uart_reg2ahb_adapter.sv(42) @ 20662000: reporter [uart_reg2ahb_adapter] bus2reg: addr = 0x1c, data = 0x1f, kind = UVM_READ, status = UVM_IS_OK
# UVM_INFO /ictc/other/tools/QuestaDVA/questasim/verilog_src/uvm-1.2/src/reg/uvm_reg_predictor.svh(225) @ 20662000: uvm_test_top.env.ahb_predictor [REG_PREDICT] Observed READ transaction to register regmodel.RBR: value='h1f
# UVM_INFO ./../tb/uart_scoreboard.sv(74) @ 20662000: uvm_test_top.env.scb [write_ahb] UART SIGNAL COMPARATIVE
# ============================================================================================================================
# UVM_ERROR ./../tb/uart_scoreboard.sv(84) @ 20662000: uvm_test_top.env.scb [uart_scoreboard] FAILED! Signal is not matching. Exp: 00001000, Act: 00011111
# ============================================================================================================================
# UVM_INFO ./../regmodel/uart_reg2ahb_adapter.sv(42) @ 20662000: reporter [uart_reg2ahb_adapter] bus2reg: addr = 0x1c, data = 0x1f, kind = UVM_READ, status = UVM_IS_OK
# UVM_INFO @ 20662000: reporter [RegModel] Read  register via map regmodel.ahb_map: regmodel.RBR=1f
# UVM_INFO ./../testcases/RX_16x_5bits_data_test.sv(40) @ 20662000: uvm_test_top [run_phase] Configuration randomize is: 
# -----------------------------------------------------
# Name               Type                 Size  Value  
# -----------------------------------------------------
# cfg                uart_configuration   -     @373   
#   parity_mode      parity_mode_config   2     NONE   
#   data_width       integral             32    'd5    
#   num_of_stop_bit  integral             32    'd1    
#   baud_rate        integral             32    'd76800
#   ovsmpl           ovs_config           1     X16    
#   parity_error     parity_error_config  1     NORMAL 
#   uart_mode        mode_config          1     TX     
# -----------------------------------------------------
# 
# UVM_INFO ./../regmodel/uart_reg2ahb_adapter.sv(27) @ 20662000: reporter [uart_reg2ahb_adapter] reg2bus: addr = 0x0, data = 0x0, kind = WRITE
# UVM_INFO ./../vip/ahb_vip/ahb_driver.sv(65) @ 20662000: uvm_test_top.env.ahb_agt.drv [ahb_driver] WRITE! addr = 0, data = 0
# UVM_INFO ./../vip/ahb_vip/ahb_monitor.sv(45) @ 20662000: uvm_test_top.env.ahb_agt.mnt [ahb_monitor] Observed transaction: 
# ----------------------------------------------
# Name          Type             Size  Value    
# ----------------------------------------------
# trans         ahb_transaction  -     @2395    
#   xact_type   xact_type_enum   1     WRITE    
#   xfer_size   xfer_size_enum   3     SIZE_8BIT
#   burst_type  burst_type_enum  3     SINGLE   
#   addr        integral         10    'h0      
#   data        integral         32    'h0      
#   prot        integral         4     'h0      
#   lock        integral         1     'h0      
# ----------------------------------------------
# 
# UVM_INFO ./../regmodel/uart_reg2ahb_adapter.sv(42) @ 20662000: reporter [uart_reg2ahb_adapter] bus2reg: addr = 0x0, data = 0x0, kind = UVM_WRITE, status = UVM_IS_OK
# UVM_INFO /ictc/other/tools/QuestaDVA/questasim/verilog_src/uvm-1.2/src/reg/uvm_reg_predictor.svh(221) @ 20662000: uvm_test_top.env.ahb_predictor [REG_PREDICT] Observed WRITE transaction to register regmodel.MDR: value='h0 : updated value = 'h0
# UVM_INFO ./../regmodel/uart_reg2ahb_adapter.sv(42) @ 20662000: reporter [uart_reg2ahb_adapter] bus2reg: addr = 0x0, data = 0x0, kind = UVM_WRITE, status = UVM_IS_OK
# UVM_INFO @ 20662000: reporter [RegModel] Wrote register via map regmodel.ahb_map: regmodel.MDR=0x0
# UVM_INFO ./../regmodel/uart_reg2ahb_adapter.sv(27) @ 20662000: reporter [uart_reg2ahb_adapter] reg2bus: addr = 0x4, data = 0x51, kind = WRITE
# UVM_INFO ./../vip/ahb_vip/ahb_driver.sv(65) @ 20662000: uvm_test_top.env.ahb_agt.drv [ahb_driver] WRITE! addr = 4, data = 51
# UVM_INFO ./../vip/ahb_vip/ahb_monitor.sv(45) @ 20662000: uvm_test_top.env.ahb_agt.mnt [ahb_monitor] Observed transaction: 
# ----------------------------------------------
# Name          Type             Size  Value    
# ----------------------------------------------
# trans         ahb_transaction  -     @2437    
#   xact_type   xact_type_enum   1     WRITE    
#   xfer_size   xfer_size_enum   3     SIZE_8BIT
#   burst_type  burst_type_enum  3     SINGLE   
#   addr        integral         10    'h4      
#   data        integral         32    'h51     
#   prot        integral         4     'h0      
#   lock        integral         1     'h0      
# ----------------------------------------------
# 
# UVM_INFO ./../regmodel/uart_reg2ahb_adapter.sv(42) @ 20662000: reporter [uart_reg2ahb_adapter] bus2reg: addr = 0x4, data = 0x51, kind = UVM_WRITE, status = UVM_IS_OK
# UVM_INFO /ictc/other/tools/QuestaDVA/questasim/verilog_src/uvm-1.2/src/reg/uvm_reg_predictor.svh(221) @ 20662000: uvm_test_top.env.ahb_predictor [REG_PREDICT] Observed WRITE transaction to register regmodel.DLL: value='h51 : updated value = 'h51
# UVM_INFO ./../regmodel/uart_reg2ahb_adapter.sv(42) @ 20662000: reporter [uart_reg2ahb_adapter] bus2reg: addr = 0x4, data = 0x51, kind = UVM_WRITE, status = UVM_IS_OK
# UVM_INFO @ 20662000: reporter [RegModel] Wrote register via map regmodel.ahb_map: regmodel.DLL=0x51
# UVM_INFO ./../regmodel/uart_reg2ahb_adapter.sv(27) @ 20662000: reporter [uart_reg2ahb_adapter] reg2bus: addr = 0x8, data = 0x0, kind = WRITE
# UVM_INFO ./../vip/ahb_vip/ahb_driver.sv(65) @ 20662000: uvm_test_top.env.ahb_agt.drv [ahb_driver] WRITE! addr = 8, data = 0
# UVM_INFO ./../vip/ahb_vip/ahb_monitor.sv(45) @ 20662000: uvm_test_top.env.ahb_agt.mnt [ahb_monitor] Observed transaction: 
# ----------------------------------------------
# Name          Type             Size  Value    
# ----------------------------------------------
# trans         ahb_transaction  -     @2477    
#   xact_type   xact_type_enum   1     WRITE    
#   xfer_size   xfer_size_enum   3     SIZE_8BIT
#   burst_type  burst_type_enum  3     SINGLE   
#   addr        integral         10    'h8      
#   data        integral         32    'h0      
#   prot        integral         4     'h0      
#   lock        integral         1     'h0      
# ----------------------------------------------
# 
# UVM_INFO ./../regmodel/uart_reg2ahb_adapter.sv(42) @ 20662000: reporter [uart_reg2ahb_adapter] bus2reg: addr = 0x8, data = 0x0, kind = UVM_WRITE, status = UVM_IS_OK
# UVM_INFO /ictc/other/tools/QuestaDVA/questasim/verilog_src/uvm-1.2/src/reg/uvm_reg_predictor.svh(221) @ 20662000: uvm_test_top.env.ahb_predictor [REG_PREDICT] Observed WRITE transaction to register regmodel.DLH: value='h0 : updated value = 'h0
# UVM_INFO ./../regmodel/uart_reg2ahb_adapter.sv(42) @ 20662000: reporter [uart_reg2ahb_adapter] bus2reg: addr = 0x8, data = 0x0, kind = UVM_WRITE, status = UVM_IS_OK
# UVM_INFO @ 20662000: reporter [RegModel] Wrote register via map regmodel.ahb_map: regmodel.DLH=0x0
# UVM_INFO ./../regmodel/uart_reg2ahb_adapter.sv(27) @ 20662000: reporter [uart_reg2ahb_adapter] reg2bus: addr = 0xc, data = 0x20, kind = WRITE
# UVM_INFO ./../vip/ahb_vip/ahb_driver.sv(65) @ 20662000: uvm_test_top.env.ahb_agt.drv [ahb_driver] WRITE! addr = c, data = 20
# UVM_INFO ./../vip/ahb_vip/ahb_monitor.sv(45) @ 20662000: uvm_test_top.env.ahb_agt.mnt [ahb_monitor] Observed transaction: 
# ----------------------------------------------
# Name          Type             Size  Value    
# ----------------------------------------------
# trans         ahb_transaction  -     @2517    
#   xact_type   xact_type_enum   1     WRITE    
#   xfer_size   xfer_size_enum   3     SIZE_8BIT
#   burst_type  burst_type_enum  3     SINGLE   
#   addr        integral         10    'hc      
#   data        integral         32    'h20     
#   prot        integral         4     'h0      
#   lock        integral         1     'h0      
# ----------------------------------------------
# 
# UVM_INFO ./../regmodel/uart_reg2ahb_adapter.sv(42) @ 20662000: reporter [uart_reg2ahb_adapter] bus2reg: addr = 0xc, data = 0x20, kind = UVM_WRITE, status = UVM_IS_OK
# UVM_INFO /ictc/other/tools/QuestaDVA/questasim/verilog_src/uvm-1.2/src/reg/uvm_reg_predictor.svh(221) @ 20662000: uvm_test_top.env.ahb_predictor [REG_PREDICT] Observed WRITE transaction to register regmodel.LCR: value='h20 : updated value = 'h20
# UVM_INFO ./../regmodel/uart_reg2ahb_adapter.sv(42) @ 20662000: reporter [uart_reg2ahb_adapter] bus2reg: addr = 0xc, data = 0x20, kind = UVM_WRITE, status = UVM_IS_OK
# UVM_INFO @ 20662000: reporter [RegModel] Wrote register via map regmodel.ahb_map: regmodel.LCR=0x20
# UVM_INFO ./../sequences/uart_sequence.sv(9) @ 20662000: uvm_test_top.env.uart_agt.seq@@seq [body] Entered...
# UVM_INFO ./../sequences/uart_sequence.sv(13) @ 20662000: uvm_test_top.env.uart_agt.seq@@seq [body] Transaction randomize is: 
# ----------------------------------------------------------------------------------------
# Name                           Type              Size  Value                            
# ----------------------------------------------------------------------------------------
# req                            uart_transaction  -     @2567                            
#   data                         integral          8     'b111011                         
#   parity                       integral          1     'b0                              
#   begin_time                   time              64    20662000                         
#   depth                        int               32    'd2                              
#   parent sequence (name)       string            3     seq                              
#   parent sequence (full name)  string            33    uvm_test_top.env.uart_agt.seq.seq
#   sequencer                    string            29    uvm_test_top.env.uart_agt.seq    
# ----------------------------------------------------------------------------------------
# 
# UVM_INFO ./../sequences/uart_sequence.sv(18) @ 20753000: uvm_test_top.env.uart_agt.seq@@seq [body] Exiting...
# UVM_INFO ./../tb/uart_scoreboard.sv(62) @ 20759000: uvm_test_top.env.scb [write_rx] Add RX's drive trans into queue
# UVM_INFO ./../regmodel/uart_reg2ahb_adapter.sv(27) @ 21753000: reporter [uart_reg2ahb_adapter] reg2bus: addr = 0x14, data = 0x0, kind = READ
# UVM_INFO ./../vip/ahb_vip/ahb_driver.sv(63) @ 21753000: uvm_test_top.env.ahb_agt.drv [ahb_driver] READ! addr = 14, data = 0
# UVM_INFO ./../vip/ahb_vip/ahb_monitor.sv(45) @ 21753000: uvm_test_top.env.ahb_agt.mnt [ahb_monitor] Observed transaction: 
# ----------------------------------------------
# Name          Type             Size  Value    
# ----------------------------------------------
# trans         ahb_transaction  -     @2557    
#   xact_type   xact_type_enum   1     READ     
#   xfer_size   xfer_size_enum   3     SIZE_8BIT
#   burst_type  burst_type_enum  3     SINGLE   
#   addr        integral         10    'h14     
#   data        integral         32    'h2      
#   prot        integral         4     'h0      
#   lock        integral         1     'h0      
# ----------------------------------------------
# 
# UVM_INFO ./../regmodel/uart_reg2ahb_adapter.sv(42) @ 21753000: reporter [uart_reg2ahb_adapter] bus2reg: addr = 0x14, data = 0x2, kind = UVM_READ, status = UVM_IS_OK
# UVM_INFO /ictc/other/tools/QuestaDVA/questasim/verilog_src/uvm-1.2/src/reg/uvm_reg_predictor.svh(225) @ 21753000: uvm_test_top.env.ahb_predictor [REG_PREDICT] Observed READ transaction to register regmodel.FSR: value='h2
# UVM_INFO ./../regmodel/uart_reg2ahb_adapter.sv(42) @ 21753000: reporter [uart_reg2ahb_adapter] bus2reg: addr = 0x14, data = 0x2, kind = UVM_READ, status = UVM_IS_OK
# UVM_INFO @ 21753000: reporter [RegModel] Read  register via map regmodel.ahb_map: regmodel.FSR=2
# UVM_INFO ./../regmodel/uart_reg2ahb_adapter.sv(27) @ 21753000: reporter [uart_reg2ahb_adapter] reg2bus: addr = 0x1c, data = 0x0, kind = READ
# UVM_INFO ./../vip/ahb_vip/ahb_driver.sv(63) @ 21753000: uvm_test_top.env.ahb_agt.drv [ahb_driver] READ! addr = 1c, data = 0
# UVM_INFO ./../vip/ahb_vip/ahb_monitor.sv(45) @ 21753000: uvm_test_top.env.ahb_agt.mnt [ahb_monitor] Observed transaction: 
# ----------------------------------------------
# Name          Type             Size  Value    
# ----------------------------------------------
# trans         ahb_transaction  -     @2615    
#   xact_type   xact_type_enum   1     READ     
#   xfer_size   xfer_size_enum   3     SIZE_8BIT
#   burst_type  burst_type_enum  3     SINGLE   
#   addr        integral         10    'h1c     
#   data        integral         32    'h1f     
#   prot        integral         4     'h0      
#   lock        integral         1     'h0      
# ----------------------------------------------
# 
# UVM_INFO ./../regmodel/uart_reg2ahb_adapter.sv(42) @ 21753000: reporter [uart_reg2ahb_adapter] bus2reg: addr = 0x1c, data = 0x1f, kind = UVM_READ, status = UVM_IS_OK
# UVM_INFO /ictc/other/tools/QuestaDVA/questasim/verilog_src/uvm-1.2/src/reg/uvm_reg_predictor.svh(225) @ 21753000: uvm_test_top.env.ahb_predictor [REG_PREDICT] Observed READ transaction to register regmodel.RBR: value='h1f
# UVM_INFO ./../tb/uart_scoreboard.sv(74) @ 21753000: uvm_test_top.env.scb [write_ahb] UART SIGNAL COMPARATIVE
# ============================================================================================================================
# UVM_ERROR ./../tb/uart_scoreboard.sv(84) @ 21753000: uvm_test_top.env.scb [uart_scoreboard] FAILED! Signal is not matching. Exp: 00011011, Act: 00011111
# ============================================================================================================================
# UVM_INFO ./../regmodel/uart_reg2ahb_adapter.sv(42) @ 21753000: reporter [uart_reg2ahb_adapter] bus2reg: addr = 0x1c, data = 0x1f, kind = UVM_READ, status = UVM_IS_OK
# UVM_INFO @ 21753000: reporter [RegModel] Read  register via map regmodel.ahb_map: regmodel.RBR=1f
# UVM_INFO ./../testcases/RX_16x_5bits_data_test.sv(40) @ 21753000: uvm_test_top [run_phase] Configuration randomize is: 
# ------------------------------------------------------
# Name               Type                 Size  Value   
# ------------------------------------------------------
# cfg                uart_configuration   -     @373    
#   parity_mode      parity_mode_config   2     NONE    
#   data_width       integral             32    'd5     
#   num_of_stop_bit  integral             32    'd1     
#   baud_rate        integral             32    'd115200
#   ovsmpl           ovs_config           1     X16     
#   parity_error     parity_error_config  1     NORMAL  
#   uart_mode        mode_config          1     TX      
# ------------------------------------------------------
# 
# UVM_INFO ./../regmodel/uart_reg2ahb_adapter.sv(27) @ 21753000: reporter [uart_reg2ahb_adapter] reg2bus: addr = 0x0, data = 0x0, kind = WRITE
# UVM_INFO ./../vip/ahb_vip/ahb_driver.sv(65) @ 21753000: uvm_test_top.env.ahb_agt.drv [ahb_driver] WRITE! addr = 0, data = 0
# UVM_INFO ./../vip/ahb_vip/ahb_monitor.sv(45) @ 21753000: uvm_test_top.env.ahb_agt.mnt [ahb_monitor] Observed transaction: 
# ----------------------------------------------
# Name          Type             Size  Value    
# ----------------------------------------------
# trans         ahb_transaction  -     @2659    
#   xact_type   xact_type_enum   1     WRITE    
#   xfer_size   xfer_size_enum   3     SIZE_8BIT
#   burst_type  burst_type_enum  3     SINGLE   
#   addr        integral         10    'h0      
#   data        integral         32    'h0      
#   prot        integral         4     'h0      
#   lock        integral         1     'h0      
# ----------------------------------------------
# 
# UVM_INFO ./../regmodel/uart_reg2ahb_adapter.sv(42) @ 21753000: reporter [uart_reg2ahb_adapter] bus2reg: addr = 0x0, data = 0x0, kind = UVM_WRITE, status = UVM_IS_OK
# UVM_INFO /ictc/other/tools/QuestaDVA/questasim/verilog_src/uvm-1.2/src/reg/uvm_reg_predictor.svh(221) @ 21753000: uvm_test_top.env.ahb_predictor [REG_PREDICT] Observed WRITE transaction to register regmodel.MDR: value='h0 : updated value = 'h0
# UVM_INFO ./../regmodel/uart_reg2ahb_adapter.sv(42) @ 21753000: reporter [uart_reg2ahb_adapter] bus2reg: addr = 0x0, data = 0x0, kind = UVM_WRITE, status = UVM_IS_OK
# UVM_INFO @ 21753000: reporter [RegModel] Wrote register via map regmodel.ahb_map: regmodel.MDR=0x0
# UVM_INFO ./../regmodel/uart_reg2ahb_adapter.sv(27) @ 21753000: reporter [uart_reg2ahb_adapter] reg2bus: addr = 0x4, data = 0x36, kind = WRITE
# UVM_INFO ./../vip/ahb_vip/ahb_driver.sv(65) @ 21753000: uvm_test_top.env.ahb_agt.drv [ahb_driver] WRITE! addr = 4, data = 36
# UVM_INFO ./../vip/ahb_vip/ahb_monitor.sv(45) @ 21753000: uvm_test_top.env.ahb_agt.mnt [ahb_monitor] Observed transaction: 
# ----------------------------------------------
# Name          Type             Size  Value    
# ----------------------------------------------
# trans         ahb_transaction  -     @2701    
#   xact_type   xact_type_enum   1     WRITE    
#   xfer_size   xfer_size_enum   3     SIZE_8BIT
#   burst_type  burst_type_enum  3     SINGLE   
#   addr        integral         10    'h4      
#   data        integral         32    'h36     
#   prot        integral         4     'h0      
#   lock        integral         1     'h0      
# ----------------------------------------------
# 
# UVM_INFO ./../regmodel/uart_reg2ahb_adapter.sv(42) @ 21753000: reporter [uart_reg2ahb_adapter] bus2reg: addr = 0x4, data = 0x36, kind = UVM_WRITE, status = UVM_IS_OK
# UVM_INFO /ictc/other/tools/QuestaDVA/questasim/verilog_src/uvm-1.2/src/reg/uvm_reg_predictor.svh(221) @ 21753000: uvm_test_top.env.ahb_predictor [REG_PREDICT] Observed WRITE transaction to register regmodel.DLL: value='h36 : updated value = 'h36
# UVM_INFO ./../regmodel/uart_reg2ahb_adapter.sv(42) @ 21753000: reporter [uart_reg2ahb_adapter] bus2reg: addr = 0x4, data = 0x36, kind = UVM_WRITE, status = UVM_IS_OK
# UVM_INFO @ 21753000: reporter [RegModel] Wrote register via map regmodel.ahb_map: regmodel.DLL=0x36
# UVM_INFO ./../regmodel/uart_reg2ahb_adapter.sv(27) @ 21753000: reporter [uart_reg2ahb_adapter] reg2bus: addr = 0x8, data = 0x0, kind = WRITE
# UVM_INFO ./../vip/ahb_vip/ahb_driver.sv(65) @ 21753000: uvm_test_top.env.ahb_agt.drv [ahb_driver] WRITE! addr = 8, data = 0
# UVM_INFO ./../vip/ahb_vip/ahb_monitor.sv(45) @ 21753000: uvm_test_top.env.ahb_agt.mnt [ahb_monitor] Observed transaction: 
# ----------------------------------------------
# Name          Type             Size  Value    
# ----------------------------------------------
# trans         ahb_transaction  -     @2741    
#   xact_type   xact_type_enum   1     WRITE    
#   xfer_size   xfer_size_enum   3     SIZE_8BIT
#   burst_type  burst_type_enum  3     SINGLE   
#   addr        integral         10    'h8      
#   data        integral         32    'h0      
#   prot        integral         4     'h0      
#   lock        integral         1     'h0      
# ----------------------------------------------
# 
# UVM_INFO ./../regmodel/uart_reg2ahb_adapter.sv(42) @ 21753000: reporter [uart_reg2ahb_adapter] bus2reg: addr = 0x8, data = 0x0, kind = UVM_WRITE, status = UVM_IS_OK
# UVM_INFO /ictc/other/tools/QuestaDVA/questasim/verilog_src/uvm-1.2/src/reg/uvm_reg_predictor.svh(221) @ 21753000: uvm_test_top.env.ahb_predictor [REG_PREDICT] Observed WRITE transaction to register regmodel.DLH: value='h0 : updated value = 'h0
# UVM_INFO ./../regmodel/uart_reg2ahb_adapter.sv(42) @ 21753000: reporter [uart_reg2ahb_adapter] bus2reg: addr = 0x8, data = 0x0, kind = UVM_WRITE, status = UVM_IS_OK
# UVM_INFO @ 21753000: reporter [RegModel] Wrote register via map regmodel.ahb_map: regmodel.DLH=0x0
# UVM_INFO ./../regmodel/uart_reg2ahb_adapter.sv(27) @ 21753000: reporter [uart_reg2ahb_adapter] reg2bus: addr = 0xc, data = 0x20, kind = WRITE
# UVM_INFO ./../vip/ahb_vip/ahb_driver.sv(65) @ 21753000: uvm_test_top.env.ahb_agt.drv [ahb_driver] WRITE! addr = c, data = 20
# UVM_INFO ./../vip/ahb_vip/ahb_monitor.sv(45) @ 21753000: uvm_test_top.env.ahb_agt.mnt [ahb_monitor] Observed transaction: 
# ----------------------------------------------
# Name          Type             Size  Value    
# ----------------------------------------------
# trans         ahb_transaction  -     @2781    
#   xact_type   xact_type_enum   1     WRITE    
#   xfer_size   xfer_size_enum   3     SIZE_8BIT
#   burst_type  burst_type_enum  3     SINGLE   
#   addr        integral         10    'hc      
#   data        integral         32    'h20     
#   prot        integral         4     'h0      
#   lock        integral         1     'h0      
# ----------------------------------------------
# 
# UVM_INFO ./../regmodel/uart_reg2ahb_adapter.sv(42) @ 21753000: reporter [uart_reg2ahb_adapter] bus2reg: addr = 0xc, data = 0x20, kind = UVM_WRITE, status = UVM_IS_OK
# UVM_INFO /ictc/other/tools/QuestaDVA/questasim/verilog_src/uvm-1.2/src/reg/uvm_reg_predictor.svh(221) @ 21753000: uvm_test_top.env.ahb_predictor [REG_PREDICT] Observed WRITE transaction to register regmodel.LCR: value='h20 : updated value = 'h20
# UVM_INFO ./../regmodel/uart_reg2ahb_adapter.sv(42) @ 21753000: reporter [uart_reg2ahb_adapter] bus2reg: addr = 0xc, data = 0x20, kind = UVM_WRITE, status = UVM_IS_OK
# UVM_INFO @ 21753000: reporter [RegModel] Wrote register via map regmodel.ahb_map: regmodel.LCR=0x20
# UVM_INFO ./../sequences/uart_sequence.sv(9) @ 21753000: uvm_test_top.env.uart_agt.seq@@seq [body] Entered...
# UVM_INFO ./../sequences/uart_sequence.sv(13) @ 21753000: uvm_test_top.env.uart_agt.seq@@seq [body] Transaction randomize is: 
# ----------------------------------------------------------------------------------------
# Name                           Type              Size  Value                            
# ----------------------------------------------------------------------------------------
# req                            uart_transaction  -     @2831                            
#   data                         integral          8     'b1100011                        
#   parity                       integral          1     'b0                              
#   begin_time                   time              64    21753000                         
#   depth                        int               32    'd2                              
#   parent sequence (name)       string            3     seq                              
#   parent sequence (full name)  string            33    uvm_test_top.env.uart_agt.seq.seq
#   sequencer                    string            29    uvm_test_top.env.uart_agt.seq    
# ----------------------------------------------------------------------------------------
# 
# UVM_INFO ./../sequences/uart_sequence.sv(18) @ 21814000: uvm_test_top.env.uart_agt.seq@@seq [body] Exiting...
# UVM_INFO ./../tb/uart_scoreboard.sv(62) @ 21818000: uvm_test_top.env.scb [write_rx] Add RX's drive trans into queue
# UVM_INFO ./../regmodel/uart_reg2ahb_adapter.sv(27) @ 22814000: reporter [uart_reg2ahb_adapter] reg2bus: addr = 0x14, data = 0x0, kind = READ
# UVM_INFO ./../vip/ahb_vip/ahb_driver.sv(63) @ 22814000: uvm_test_top.env.ahb_agt.drv [ahb_driver] READ! addr = 14, data = 0
# UVM_INFO ./../vip/ahb_vip/ahb_monitor.sv(45) @ 22814000: uvm_test_top.env.ahb_agt.mnt [ahb_monitor] Observed transaction: 
# ----------------------------------------------
# Name          Type             Size  Value    
# ----------------------------------------------
# trans         ahb_transaction  -     @2821    
#   xact_type   xact_type_enum   1     READ     
#   xfer_size   xfer_size_enum   3     SIZE_8BIT
#   burst_type  burst_type_enum  3     SINGLE   
#   addr        integral         10    'h14     
#   data        integral         32    'h2      
#   prot        integral         4     'h0      
#   lock        integral         1     'h0      
# ----------------------------------------------
# 
# UVM_INFO ./../regmodel/uart_reg2ahb_adapter.sv(42) @ 22814000: reporter [uart_reg2ahb_adapter] bus2reg: addr = 0x14, data = 0x2, kind = UVM_READ, status = UVM_IS_OK
# UVM_INFO /ictc/other/tools/QuestaDVA/questasim/verilog_src/uvm-1.2/src/reg/uvm_reg_predictor.svh(225) @ 22814000: uvm_test_top.env.ahb_predictor [REG_PREDICT] Observed READ transaction to register regmodel.FSR: value='h2
# UVM_INFO ./../regmodel/uart_reg2ahb_adapter.sv(42) @ 22814000: reporter [uart_reg2ahb_adapter] bus2reg: addr = 0x14, data = 0x2, kind = UVM_READ, status = UVM_IS_OK
# UVM_INFO @ 22814000: reporter [RegModel] Read  register via map regmodel.ahb_map: regmodel.FSR=2
# UVM_INFO ./../regmodel/uart_reg2ahb_adapter.sv(27) @ 22814000: reporter [uart_reg2ahb_adapter] reg2bus: addr = 0x1c, data = 0x0, kind = READ
# UVM_INFO ./../vip/ahb_vip/ahb_driver.sv(63) @ 22814000: uvm_test_top.env.ahb_agt.drv [ahb_driver] READ! addr = 1c, data = 0
# UVM_INFO ./../vip/ahb_vip/ahb_monitor.sv(45) @ 22814000: uvm_test_top.env.ahb_agt.mnt [ahb_monitor] Observed transaction: 
# ----------------------------------------------
# Name          Type             Size  Value    
# ----------------------------------------------
# trans         ahb_transaction  -     @2879    
#   xact_type   xact_type_enum   1     READ     
#   xfer_size   xfer_size_enum   3     SIZE_8BIT
#   burst_type  burst_type_enum  3     SINGLE   
#   addr        integral         10    'h1c     
#   data        integral         32    'h3      
#   prot        integral         4     'h0      
#   lock        integral         1     'h0      
# ----------------------------------------------
# 
# UVM_INFO ./../regmodel/uart_reg2ahb_adapter.sv(42) @ 22814000: reporter [uart_reg2ahb_adapter] bus2reg: addr = 0x1c, data = 0x3, kind = UVM_READ, status = UVM_IS_OK
# UVM_INFO /ictc/other/tools/QuestaDVA/questasim/verilog_src/uvm-1.2/src/reg/uvm_reg_predictor.svh(225) @ 22814000: uvm_test_top.env.ahb_predictor [REG_PREDICT] Observed READ transaction to register regmodel.RBR: value='h3
# UVM_INFO ./../tb/uart_scoreboard.sv(74) @ 22814000: uvm_test_top.env.scb [write_ahb] UART SIGNAL COMPARATIVE
# ============================================================================================================================
# UVM_INFO ./../tb/uart_scoreboard.sv(82) @ 22814000: uvm_test_top.env.scb [uart_scoreboard] PASSED! Signal is matching. Exp: 00000011, Act: 00000011
# ============================================================================================================================
# UVM_INFO ./../regmodel/uart_reg2ahb_adapter.sv(42) @ 22814000: reporter [uart_reg2ahb_adapter] bus2reg: addr = 0x1c, data = 0x3, kind = UVM_READ, status = UVM_IS_OK
# UVM_INFO @ 22814000: reporter [RegModel] Read  register via map regmodel.ahb_map: regmodel.RBR=3
