# vsim -sv_seed 1 -voptargs="+acc" -assertdebug -c testbench -do " log -r /*;run -all;" -l TX_16x_2400_baud_test_1.log "+UVM_TESTNAME=TX_16x_2400_baud_test" "+UVM_VERBOSITY=UVM_HIGH" 
# Start time: 10:13:16 on Aug 04,2026
# Loading /tmp/vannghia_1108@ictc-eda-ldap.ipa.test_dpi_41575/linux_x86_64_gcc-11/export_tramp.so
# ** Note: (vsim-8009) Loading existing optimized design _opt
# //  Questa Sim-64
# //  Version 10.6d_1 linux_x86_64 Apr 11 2018
# //
# //  Copyright 1991-2018 Mentor Graphics Corporation
# //  All Rights Reserved.
# //
# //  QuestaSim and its associated documentation contain trade
# //  secrets and commercial or financial information that are the property of
# //  Mentor Graphics Corporation and are privileged, confidential,
# //  and exempt from disclosure under the Freedom of Information Act,
# //  5 U.S.C. Section 552. Furthermore, this information
# //  is prohibited from disclosure under the Trade Secrets Act,
# //  18 U.S.C. Section 1905.
# //
# Loading sv_std.std
# Loading work.uart_if(fast)
# Loading work.ahb_if(fast)
# Loading work.uvm_pkg(fast)
# Loading work.ahb_pkg(fast)
# ** Note: (vsim-8785) UVM-aware debugging capabilities will be disabled since no compiled "questa_uvm_pkg" can be found.
# This also means that later if you turn on UVM-aware debugging your debug simulations may have
# different random seeds from your non-debug simulations.
# Loading work.uart_pkg(fast)
# Loading work.seq_pkg(fast)
# Loading work.uart_register_pkg(fast)
# Loading work.uart_regmodel_pkg(fast)
# Loading work.env_pkg(fast)
# Loading work.test_pkg(fast)
# Loading work.testbench(fast)
# Loading work.ahb_if(fast)
# Loading work.uart_if(fast)
# Loading work.uart_top(fast)
# Loading work.cmsdk_ahb_to_apb(fast)
# Loading work.apb_decoder(fast)
# Loading work.uart_fifo(fast)
# Loading work.uart_transmitter(fast)
# Loading work.uart_receiver(fast)
# Loading work.uart_interrupt(fast)
# Loading work.baud_generator(fast)
# Compiling /tmp/vannghia_1108@ictc-eda-ldap.ipa.test_dpi_41575/linux_x86_64_gcc-5.3.0/exportwrapper.c
# Compiling /tmp/vannghia_1108@ictc-eda-ldap.ipa.test_dpi_41575/linux_x86_64_gcc-11/exportwrapper.c
# Loading /tmp/vannghia_1108@ictc-eda-ldap.ipa.test_dpi_41575/linux_x86_64_gcc-11/vsim_auto_compile.so
#  log -r /*
# run -all
# UVM_INFO /ictc/other/tools/QuestaDVA/questasim/verilog_src/uvm-1.2/src/base/uvm_root.svh(392) @ 0: reporter [UVM/RELNOTES] 
# ----------------------------------------------------------------
# UVM-1.2
# (C) 2007-2014 Mentor Graphics Corporation
# (C) 2007-2014 Cadence Design Systems, Inc.
# (C) 2006-2014 Synopsys, Inc.
# (C) 2011-2013 Cypress Semiconductor Corp.
# (C) 2013-2014 NVIDIA Corporation
# ----------------------------------------------------------------
# 
#   ***********       IMPORTANT RELEASE NOTES         ************
# 
#   You are using a version of the UVM library that has been compiled
#   with `UVM_NO_DEPRECATED undefined.
#   See http://www.eda.org/svdb/view.php?id=3313 for more details.
# 
#   You are using a version of the UVM library that has been compiled
#   with `UVM_OBJECT_DO_NOT_NEED_CONSTRUCTOR undefined.
#   See http://www.eda.org/svdb/view.php?id=3770 for more details.
# 
#       (Specify +UVM_NO_RELNOTES to turn off this notice)
# 
# UVM_INFO /ictc/other/tools/QuestaDVA/questasim/verilog_src/uvm-1.2/src/base/uvm_root.svh(453) @ 0: reporter [NO_DPI_TSTNAME] UVM_NO_DPI defined--getting UVM_TESTNAME directly, without DPI
# UVM_INFO @ 0: reporter [RNTST] Running test TX_16x_2400_baud_test...
# UVM_INFO ./../testcases/uart_base_test.sv(19) @ 0: uvm_test_top [build_phase] Entered...
# UVM_INFO ./../testcases/uart_base_test.sv(34) @ 0: uvm_test_top [build_phase] Exiting...
# UVM_INFO ./../tb/uart_environment.sv(21) @ 0: uvm_test_top.env [build phase] Entered...
# UVM_INFO ./../tb/uart_environment.sv(45) @ 0: uvm_test_top.env [build_phase] Exiting...
# UVM_INFO ./../vip/ahb_vip/ahb_agent.sv(16) @ 0: uvm_test_top.env.ahb_agt [build_phase] Entered...
# UVM_INFO ./../vip/ahb_vip/ahb_agent.sv(21) @ 0: uvm_test_top.env.ahb_agt [ahb_agent] Active agent is configued
# UVM_INFO ./../vip/ahb_vip/ahb_agent.sv(31) @ 0: uvm_test_top.env.ahb_agt [build_phase] Exiting...
# UVM_INFO ./../vip/ahb_vip/ahb_driver.sv(12) @ 0: uvm_test_top.env.ahb_agt.drv [build_phase] Entered...
# UVM_INFO ./../vip/ahb_vip/ahb_driver.sv(17) @ 0: uvm_test_top.env.ahb_agt.drv [build_phase] Exiting...
# UVM_INFO ./../vip/ahb_vip/ahb_monitor.sv(16) @ 0: uvm_test_top.env.ahb_agt.mnt [build_phase] Entered...
# UVM_INFO ./../vip/ahb_vip/ahb_monitor.sv(21) @ 0: uvm_test_top.env.ahb_agt.mnt [build_phase] Exiting...
# UVM_INFO ./../tb/uart_scoreboard.sv(48) @ 0: uvm_test_top.env.scb [build_phase] Entered...
# UVM_INFO ./../tb/uart_scoreboard.sv(55) @ 0: uvm_test_top.env.scb [build_phase] Exiting...
# UVM_INFO ./../vip/uart_vip/uart_agent.sv(17) @ 0: uvm_test_top.env.uart_agt [build_phase] Entered...
# UVM_INFO ./../vip/uart_vip/uart_agent.sv(28) @ 0: uvm_test_top.env.uart_agt [uart_agent] Active agent is configured
# UVM_INFO ./../vip/uart_vip/uart_agent.sv(43) @ 0: uvm_test_top.env.uart_agt [build_phase] Exiting...
# UVM_INFO ./../vip/uart_vip/uart_driver.sv(19) @ 0: uvm_test_top.env.uart_agt.drv [build_phase] Entered...
# UVM_INFO ./../vip/uart_vip/uart_driver.sv(30) @ 0: uvm_test_top.env.uart_agt.drv [build_phase] Exiting...
# UVM_INFO ./../vip/uart_vip/uart_monitor.sv(20) @ 0: uvm_test_top.env.uart_agt.mnt [build_phase] Entered...
# UVM_INFO ./../vip/uart_vip/uart_monitor.sv(31) @ 0: uvm_test_top.env.uart_agt.mnt [build_phase] Exiting...
# UVM_INFO /ictc/other/tools/QuestaDVA/questasim/verilog_src/uvm-1.2/src/base/uvm_root.svh(579) @ 0: reporter [UVMTOP] UVM testbench topology:
# --------------------------------------------------------------------------------
# Name                           Type                                  Size  Value
# --------------------------------------------------------------------------------
# uvm_test_top                   TX_16x_2400_baud_test                 -     @347 
#   env                          uart_environment                      -     @364 
#     ahb_agt                    ahb_agent                             -     @399 
#       drv                      ahb_driver                            -     @511 
#         rsp_port               uvm_analysis_port                     -     @530 
#         seq_item_port          uvm_seq_item_pull_port                -     @520 
#       mnt                      ahb_monitor                           -     @677 
#         ahb_observed_port      uvm_analysis_port                     -     @686 
#       seq                      ahb_sequencer                         -     @540 
#         rsp_export             uvm_analysis_export                   -     @549 
#         seq_item_export        uvm_seq_item_pull_imp                 -     @667 
#         arbitration_queue      array                                 0     -    
#         lock_queue             array                                 0     -    
#         num_last_reqs          integral                              32    'd1  
#         num_last_rsps          integral                              32    'd1  
#     ahb_predictor              uvm_reg_predictor #(ahb_transaction)  -     @417 
#       bus_in                   uvm_analysis_imp                      -     @426 
#       reg_ap                   uvm_analysis_port                     -     @436 
#     scb                        uart_scoreboard                       -     @408 
#       ahb_export               uvm_analysis_imp_ahb                  -     @738 
#       uart_rx_export           uvm_analysis_imp_rx                   -     @728 
#       uart_tx_export           uvm_analysis_imp_tx                   -     @718 
#     uart_agt                   uart_agent                            -     @390 
#       drv                      uart_driver                           -     @896 
#         item_observed_port     uvm_analysis_port                     -     @925 
#         rsp_port               uvm_analysis_port                     -     @915 
#         seq_item_port          uvm_seq_item_pull_port                -     @905 
#       mnt                      uart_monitor                          -     @935 
#         uart_observed_port_rx  uvm_analysis_port                     -     @954 
#         uart_observed_port_tx  uvm_analysis_port                     -     @944 
#       seq                      uart_sequencer                        -     @759 
#         rsp_export             uvm_analysis_export                   -     @768 
#         seq_item_export        uvm_seq_item_pull_imp                 -     @886 
#         arbitration_queue      array                                 0     -    
#         lock_queue             array                                 0     -    
#         num_last_reqs          integral                              32    'd1  
#         num_last_rsps          integral                              32    'd1  
# --------------------------------------------------------------------------------
# 
# UVM_INFO /ictc/other/tools/QuestaDVA/questasim/verilog_src/uvm-1.2/src/base/uvm_traversal.svh(279) @ 0: reporter [UVM/COMP/NAMECHECK] This implementation of the component name checks requires DPI to be enabled
# UVM_INFO ./../vip/uart_vip/uart_monitor.sv(35) @ 0: uvm_test_top.env.uart_agt.mnt [run_phase] Entered...
# UVM_INFO ./../vip/uart_vip/uart_driver.sv(34) @ 0: uvm_test_top.env.uart_agt.drv [run_phase] Entered...
# UVM_INFO ./../vip/ahb_vip/ahb_monitor.sv(25) @ 0: uvm_test_top.env.ahb_agt.mnt [run_phase] Entered...
# UVM_INFO ./../vip/ahb_vip/ahb_driver.sv(22) @ 0: uvm_test_top.env.ahb_agt.drv [run_phase] Entered...
# ============================================================================================================================
# =================================================  ### TX UART | 16x  ###  =================================================
# ============================================================================================================================
# UVM_INFO ./../testcases/TX_16x_2400_baud_test.sv(41) @ 10000: uvm_test_top [run_phase] Configuration randomize is: 
# ----------------------------------------------------
# Name               Type                 Size  Value 
# ----------------------------------------------------
# cfg                uart_configuration   -     @373  
#   parity_mode      parity_mode_config   2     NONE  
#   data_width       integral             32    'd5   
#   num_of_stop_bit  integral             32    'd1   
#   baud_rate        integral             32    'd2400
#   ovsmpl           ovs_config           1     X16   
#   parity_error     parity_error_config  1     NORMAL
#   uart_mode        mode_config          1     TX    
# ----------------------------------------------------
# 
# UVM_INFO ./../regmodel/uart_reg2ahb_adapter.sv(27) @ 10000: reporter [uart_reg2ahb_adapter] reg2bus: addr = 0x0, data = 0x0, kind = WRITE
# UVM_INFO ./../vip/ahb_vip/ahb_driver.sv(65) @ 10000: uvm_test_top.env.ahb_agt.drv [ahb_driver] WRITE! addr = 0, data = 0
# UVM_INFO ./../vip/ahb_vip/ahb_monitor.sv(46) @ 10000: uvm_test_top.env.ahb_agt.mnt [ahb_monitor] Observed transaction: 
# ----------------------------------------------
# Name          Type             Size  Value    
# ----------------------------------------------
# trans         ahb_transaction  -     @1026    
#   xact_type   xact_type_enum   1     WRITE    
#   xfer_size   xfer_size_enum   3     SIZE_8BIT
#   burst_type  burst_type_enum  3     SINGLE   
#   addr        integral         10    'h0      
#   data        integral         32    'h0      
#   prot        integral         4     'h0      
#   lock        integral         1     'h0      
#   resp        integral         1     'h0      
# ----------------------------------------------
# 
# UVM_INFO ./../regmodel/uart_reg2ahb_adapter.sv(42) @ 10000: reporter [uart_reg2ahb_adapter] bus2reg: addr = 0x0, data = 0x0, kind = UVM_WRITE, status = UVM_IS_OK
# UVM_INFO /ictc/other/tools/QuestaDVA/questasim/verilog_src/uvm-1.2/src/reg/uvm_reg_predictor.svh(221) @ 10000: uvm_test_top.env.ahb_predictor [REG_PREDICT] Observed WRITE transaction to register regmodel.MDR: value='h0 : updated value = 'h0
# UVM_INFO ./../regmodel/uart_reg2ahb_adapter.sv(42) @ 10000: reporter [uart_reg2ahb_adapter] bus2reg: addr = 0x0, data = 0x0, kind = UVM_WRITE, status = UVM_IS_OK
# UVM_INFO @ 10000: reporter [RegModel] Wrote register via map regmodel.ahb_map: regmodel.MDR=0x0
# UVM_INFO ./../regmodel/uart_reg2ahb_adapter.sv(27) @ 10000: reporter [uart_reg2ahb_adapter] reg2bus: addr = 0xc, data = 0x0, kind = WRITE
# UVM_INFO ./../vip/ahb_vip/ahb_driver.sv(65) @ 10000: uvm_test_top.env.ahb_agt.drv [ahb_driver] WRITE! addr = c, data = 0
# UVM_INFO ./../vip/ahb_vip/ahb_monitor.sv(46) @ 10000: uvm_test_top.env.ahb_agt.mnt [ahb_monitor] Observed transaction: 
# ----------------------------------------------
# Name          Type             Size  Value    
# ----------------------------------------------
# trans         ahb_transaction  -     @1113    
#   xact_type   xact_type_enum   1     WRITE    
#   xfer_size   xfer_size_enum   3     SIZE_8BIT
#   burst_type  burst_type_enum  3     SINGLE   
#   addr        integral         10    'hc      
#   data        integral         32    'h0      
#   prot        integral         4     'h0      
#   lock        integral         1     'h0      
#   resp        integral         1     'h0      
# ----------------------------------------------
# 
# UVM_INFO ./../regmodel/uart_reg2ahb_adapter.sv(42) @ 10000: reporter [uart_reg2ahb_adapter] bus2reg: addr = 0xc, data = 0x0, kind = UVM_WRITE, status = UVM_IS_OK
# UVM_INFO /ictc/other/tools/QuestaDVA/questasim/verilog_src/uvm-1.2/src/reg/uvm_reg_predictor.svh(221) @ 10000: uvm_test_top.env.ahb_predictor [REG_PREDICT] Observed WRITE transaction to register regmodel.LCR: value='h0 : updated value = 'h0
# UVM_INFO ./../regmodel/uart_reg2ahb_adapter.sv(42) @ 10000: reporter [uart_reg2ahb_adapter] bus2reg: addr = 0xc, data = 0x0, kind = UVM_WRITE, status = UVM_IS_OK
# UVM_INFO @ 10000: reporter [RegModel] Wrote register via map regmodel.ahb_map: regmodel.LCR=0x0
# UVM_INFO ./../regmodel/uart_reg2ahb_adapter.sv(27) @ 10000: reporter [uart_reg2ahb_adapter] reg2bus: addr = 0x4, data = 0x2c, kind = WRITE
# UVM_INFO ./../vip/ahb_vip/ahb_driver.sv(65) @ 10000: uvm_test_top.env.ahb_agt.drv [ahb_driver] WRITE! addr = 4, data = 2c
# UVM_INFO ./../vip/ahb_vip/ahb_monitor.sv(46) @ 10000: uvm_test_top.env.ahb_agt.mnt [ahb_monitor] Observed transaction: 
# ----------------------------------------------
# Name          Type             Size  Value    
# ----------------------------------------------
# trans         ahb_transaction  -     @1153    
#   xact_type   xact_type_enum   1     WRITE    
#   xfer_size   xfer_size_enum   3     SIZE_8BIT
#   burst_type  burst_type_enum  3     SINGLE   
#   addr        integral         10    'h4      
#   data        integral         32    'h2c     
#   prot        integral         4     'h0      
#   lock        integral         1     'h0      
#   resp        integral         1     'h0      
# ----------------------------------------------
# 
# UVM_INFO ./../regmodel/uart_reg2ahb_adapter.sv(42) @ 10000: reporter [uart_reg2ahb_adapter] bus2reg: addr = 0x4, data = 0x2c, kind = UVM_WRITE, status = UVM_IS_OK
# UVM_INFO /ictc/other/tools/QuestaDVA/questasim/verilog_src/uvm-1.2/src/reg/uvm_reg_predictor.svh(221) @ 10000: uvm_test_top.env.ahb_predictor [REG_PREDICT] Observed WRITE transaction to register regmodel.DLL: value='h2c : updated value = 'h2c
# UVM_INFO ./../regmodel/uart_reg2ahb_adapter.sv(42) @ 10000: reporter [uart_reg2ahb_adapter] bus2reg: addr = 0x4, data = 0x2c, kind = UVM_WRITE, status = UVM_IS_OK
# UVM_INFO @ 10000: reporter [RegModel] Wrote register via map regmodel.ahb_map: regmodel.DLL=0x2c
# UVM_INFO ./../regmodel/uart_reg2ahb_adapter.sv(27) @ 10000: reporter [uart_reg2ahb_adapter] reg2bus: addr = 0x8, data = 0xa, kind = WRITE
# UVM_INFO ./../vip/ahb_vip/ahb_driver.sv(65) @ 10000: uvm_test_top.env.ahb_agt.drv [ahb_driver] WRITE! addr = 8, data = a
# UVM_INFO ./../vip/ahb_vip/ahb_monitor.sv(46) @ 10000: uvm_test_top.env.ahb_agt.mnt [ahb_monitor] Observed transaction: 
# ----------------------------------------------
# Name          Type             Size  Value    
# ----------------------------------------------
# trans         ahb_transaction  -     @1193    
#   xact_type   xact_type_enum   1     WRITE    
#   xfer_size   xfer_size_enum   3     SIZE_8BIT
#   burst_type  burst_type_enum  3     SINGLE   
#   addr        integral         10    'h8      
#   data        integral         32    'ha      
#   prot        integral         4     'h0      
#   lock        integral         1     'h0      
#   resp        integral         1     'h0      
# ----------------------------------------------
# 
# UVM_INFO ./../regmodel/uart_reg2ahb_adapter.sv(42) @ 10000: reporter [uart_reg2ahb_adapter] bus2reg: addr = 0x8, data = 0xa, kind = UVM_WRITE, status = UVM_IS_OK
# UVM_INFO /ictc/other/tools/QuestaDVA/questasim/verilog_src/uvm-1.2/src/reg/uvm_reg_predictor.svh(221) @ 10000: uvm_test_top.env.ahb_predictor [REG_PREDICT] Observed WRITE transaction to register regmodel.DLH: value='ha : updated value = 'ha
# UVM_INFO ./../regmodel/uart_reg2ahb_adapter.sv(42) @ 10000: reporter [uart_reg2ahb_adapter] bus2reg: addr = 0x8, data = 0xa, kind = UVM_WRITE, status = UVM_IS_OK
# UVM_INFO @ 10000: reporter [RegModel] Wrote register via map regmodel.ahb_map: regmodel.DLH=0xa
# UVM_INFO ./../regmodel/uart_reg2ahb_adapter.sv(27) @ 10000: reporter [uart_reg2ahb_adapter] reg2bus: addr = 0xc, data = 0x20, kind = WRITE
# UVM_INFO ./../vip/ahb_vip/ahb_driver.sv(65) @ 10000: uvm_test_top.env.ahb_agt.drv [ahb_driver] WRITE! addr = c, data = 20
# UVM_INFO ./../vip/ahb_vip/ahb_monitor.sv(46) @ 10000: uvm_test_top.env.ahb_agt.mnt [ahb_monitor] Observed transaction: 
# ----------------------------------------------
# Name          Type             Size  Value    
# ----------------------------------------------
# trans         ahb_transaction  -     @1233    
#   xact_type   xact_type_enum   1     WRITE    
#   xfer_size   xfer_size_enum   3     SIZE_8BIT
#   burst_type  burst_type_enum  3     SINGLE   
#   addr        integral         10    'hc      
#   data        integral         32    'h20     
#   prot        integral         4     'h0      
#   lock        integral         1     'h0      
#   resp        integral         1     'h0      
# ----------------------------------------------
# 
# UVM_INFO ./../regmodel/uart_reg2ahb_adapter.sv(42) @ 10000: reporter [uart_reg2ahb_adapter] bus2reg: addr = 0xc, data = 0x20, kind = UVM_WRITE, status = UVM_IS_OK
# UVM_INFO /ictc/other/tools/QuestaDVA/questasim/verilog_src/uvm-1.2/src/reg/uvm_reg_predictor.svh(221) @ 10000: uvm_test_top.env.ahb_predictor [REG_PREDICT] Observed WRITE transaction to register regmodel.LCR: value='h20 : updated value = 'h20
# UVM_INFO ./../regmodel/uart_reg2ahb_adapter.sv(42) @ 10000: reporter [uart_reg2ahb_adapter] bus2reg: addr = 0xc, data = 0x20, kind = UVM_WRITE, status = UVM_IS_OK
# UVM_INFO @ 10000: reporter [RegModel] Wrote register via map regmodel.ahb_map: regmodel.LCR=0x20
# UVM_INFO ./../regmodel/uart_reg2ahb_adapter.sv(27) @ 10000: reporter [uart_reg2ahb_adapter] reg2bus: addr = 0x18, data = 0x3, kind = WRITE
# UVM_INFO ./../vip/ahb_vip/ahb_driver.sv(65) @ 10000: uvm_test_top.env.ahb_agt.drv [ahb_driver] WRITE! addr = 18, data = 3
# UVM_INFO ./../vip/ahb_vip/ahb_monitor.sv(46) @ 10000: uvm_test_top.env.ahb_agt.mnt [ahb_monitor] Observed transaction: 
# ----------------------------------------------
# Name          Type             Size  Value    
# ----------------------------------------------
# trans         ahb_transaction  -     @1273    
#   xact_type   xact_type_enum   1     WRITE    
#   xfer_size   xfer_size_enum   3     SIZE_8BIT
#   burst_type  burst_type_enum  3     SINGLE   
#   addr        integral         10    'h18     
#   data        integral         32    'h3      
#   prot        integral         4     'h0      
#   lock        integral         1     'h0      
#   resp        integral         1     'h0      
# ----------------------------------------------
# 
# UVM_INFO ./../regmodel/uart_reg2ahb_adapter.sv(42) @ 10000: reporter [uart_reg2ahb_adapter] bus2reg: addr = 0x18, data = 0x3, kind = UVM_WRITE, status = UVM_IS_OK
# UVM_INFO /ictc/other/tools/QuestaDVA/questasim/verilog_src/uvm-1.2/src/reg/uvm_reg_predictor.svh(221) @ 10000: uvm_test_top.env.ahb_predictor [REG_PREDICT] Observed WRITE transaction to register regmodel.TBR: value='h3 : updated value = 'h3
# UVM_INFO ./../tb/uart_scoreboard.sv(82) @ 10000: uvm_test_top.env.scb [write_rx] Add AHB's drive trans into queue
# UVM_INFO ./../regmodel/uart_reg2ahb_adapter.sv(42) @ 10000: reporter [uart_reg2ahb_adapter] bus2reg: addr = 0x18, data = 0x3, kind = UVM_WRITE, status = UVM_IS_OK
# UVM_INFO @ 10000: reporter [RegModel] Wrote register via map regmodel.ahb_map: regmodel.TBR=0x3
# UVM_INFO ./../tb/uart_scoreboard.sv(63) @ 3161000: uvm_test_top.env.scb [write_ahb] TX UART SIGNAL COMPARATIVE
# ============================================================================================================================
# UVM_INFO ./../tb/uart_scoreboard.sv(66) @ 3161000: uvm_test_top.env.scb [uart_scoreboard] PASSED! Signal is matching. Exp: 00000011, Act: 00000011
# ============================================================================================================================
# UVM_INFO ./../regmodel/uart_reg2ahb_adapter.sv(27) @ 7010000: reporter [uart_reg2ahb_adapter] reg2bus: addr = 0x14, data = 0x0, kind = READ
# UVM_INFO ./../vip/ahb_vip/ahb_driver.sv(63) @ 7010000: uvm_test_top.env.ahb_agt.drv [ahb_driver] READ! addr = 14, data = 0
# UVM_INFO ./../vip/ahb_vip/ahb_monitor.sv(46) @ 7010000: uvm_test_top.env.ahb_agt.mnt [ahb_monitor] Observed transaction: 
# ----------------------------------------------
# Name          Type             Size  Value    
# ----------------------------------------------
# trans         ahb_transaction  -     @1315    
#   xact_type   xact_type_enum   1     READ     
#   xfer_size   xfer_size_enum   3     SIZE_8BIT
#   burst_type  burst_type_enum  3     SINGLE   
#   addr        integral         10    'h14     
#   data        integral         32    'ha      
#   prot        integral         4     'h0      
#   lock        integral         1     'h0      
#   resp        integral         1     'h0      
# ----------------------------------------------
# 
# UVM_INFO ./../regmodel/uart_reg2ahb_adapter.sv(42) @ 7010000: reporter [uart_reg2ahb_adapter] bus2reg: addr = 0x14, data = 0xa, kind = UVM_READ, status = UVM_IS_OK
# UVM_INFO /ictc/other/tools/QuestaDVA/questasim/verilog_src/uvm-1.2/src/reg/uvm_reg_predictor.svh(225) @ 7010000: uvm_test_top.env.ahb_predictor [REG_PREDICT] Observed READ transaction to register regmodel.FSR: value='ha
# UVM_INFO ./../regmodel/uart_reg2ahb_adapter.sv(42) @ 7010000: reporter [uart_reg2ahb_adapter] bus2reg: addr = 0x14, data = 0xa, kind = UVM_READ, status = UVM_IS_OK
# UVM_INFO @ 7010000: reporter [RegModel] Read  register via map regmodel.ahb_map: regmodel.FSR=a
# UVM_INFO ./../testcases/TX_16x_2400_baud_test.sv(41) @ 14010000: uvm_test_top [run_phase] Configuration randomize is: 
# ----------------------------------------------------
# Name               Type                 Size  Value 
# ----------------------------------------------------
# cfg                uart_configuration   -     @373  
#   parity_mode      parity_mode_config   2     NONE  
#   data_width       integral             32    'd6   
#   num_of_stop_bit  integral             32    'd1   
#   baud_rate        integral             32    'd2400
#   ovsmpl           ovs_config           1     X16   
#   parity_error     parity_error_config  1     NORMAL
#   uart_mode        mode_config          1     TX    
# ----------------------------------------------------
# 
# UVM_INFO ./../regmodel/uart_reg2ahb_adapter.sv(27) @ 14010000: reporter [uart_reg2ahb_adapter] reg2bus: addr = 0x0, data = 0x0, kind = WRITE
# UVM_INFO ./../vip/ahb_vip/ahb_driver.sv(65) @ 14010000: uvm_test_top.env.ahb_agt.drv [ahb_driver] WRITE! addr = 0, data = 0
# UVM_INFO ./../vip/ahb_vip/ahb_monitor.sv(46) @ 14010000: uvm_test_top.env.ahb_agt.mnt [ahb_monitor] Observed transaction: 
# ----------------------------------------------
# Name          Type             Size  Value    
# ----------------------------------------------
# trans         ahb_transaction  -     @1363    
#   xact_type   xact_type_enum   1     WRITE    
#   xfer_size   xfer_size_enum   3     SIZE_8BIT
#   burst_type  burst_type_enum  3     SINGLE   
#   addr        integral         10    'h0      
#   data        integral         32    'h0      
#   prot        integral         4     'h0      
#   lock        integral         1     'h0      
#   resp        integral         1     'h0      
# ----------------------------------------------
# 
# UVM_INFO ./../regmodel/uart_reg2ahb_adapter.sv(42) @ 14010000: reporter [uart_reg2ahb_adapter] bus2reg: addr = 0x0, data = 0x0, kind = UVM_WRITE, status = UVM_IS_OK
# UVM_INFO /ictc/other/tools/QuestaDVA/questasim/verilog_src/uvm-1.2/src/reg/uvm_reg_predictor.svh(221) @ 14010000: uvm_test_top.env.ahb_predictor [REG_PREDICT] Observed WRITE transaction to register regmodel.MDR: value='h0 : updated value = 'h0
# UVM_INFO ./../regmodel/uart_reg2ahb_adapter.sv(42) @ 14010000: reporter [uart_reg2ahb_adapter] bus2reg: addr = 0x0, data = 0x0, kind = UVM_WRITE, status = UVM_IS_OK
# UVM_INFO @ 14010000: reporter [RegModel] Wrote register via map regmodel.ahb_map: regmodel.MDR=0x0
# UVM_INFO ./../regmodel/uart_reg2ahb_adapter.sv(27) @ 14010000: reporter [uart_reg2ahb_adapter] reg2bus: addr = 0xc, data = 0x0, kind = WRITE
# UVM_INFO ./../vip/ahb_vip/ahb_driver.sv(65) @ 14010000: uvm_test_top.env.ahb_agt.drv [ahb_driver] WRITE! addr = c, data = 0
# UVM_INFO ./../vip/ahb_vip/ahb_monitor.sv(46) @ 14010000: uvm_test_top.env.ahb_agt.mnt [ahb_monitor] Observed transaction: 
# ----------------------------------------------
# Name          Type             Size  Value    
# ----------------------------------------------
# trans         ahb_transaction  -     @1405    
#   xact_type   xact_type_enum   1     WRITE    
#   xfer_size   xfer_size_enum   3     SIZE_8BIT
#   burst_type  burst_type_enum  3     SINGLE   
#   addr        integral         10    'hc      
#   data        integral         32    'h0      
#   prot        integral         4     'h0      
#   lock        integral         1     'h0      
#   resp        integral         1     'h0      
# ----------------------------------------------
# 
# UVM_INFO ./../regmodel/uart_reg2ahb_adapter.sv(42) @ 14010000: reporter [uart_reg2ahb_adapter] bus2reg: addr = 0xc, data = 0x0, kind = UVM_WRITE, status = UVM_IS_OK
# UVM_INFO /ictc/other/tools/QuestaDVA/questasim/verilog_src/uvm-1.2/src/reg/uvm_reg_predictor.svh(221) @ 14010000: uvm_test_top.env.ahb_predictor [REG_PREDICT] Observed WRITE transaction to register regmodel.LCR: value='h0 : updated value = 'h0
# UVM_INFO ./../regmodel/uart_reg2ahb_adapter.sv(42) @ 14010000: reporter [uart_reg2ahb_adapter] bus2reg: addr = 0xc, data = 0x0, kind = UVM_WRITE, status = UVM_IS_OK
# UVM_INFO @ 14010000: reporter [RegModel] Wrote register via map regmodel.ahb_map: regmodel.LCR=0x0
# UVM_INFO ./../regmodel/uart_reg2ahb_adapter.sv(27) @ 14010000: reporter [uart_reg2ahb_adapter] reg2bus: addr = 0x4, data = 0x2c, kind = WRITE
# UVM_INFO ./../vip/ahb_vip/ahb_driver.sv(65) @ 14011000: uvm_test_top.env.ahb_agt.drv [ahb_driver] WRITE! addr = 4, data = 2c
# UVM_INFO ./../vip/ahb_vip/ahb_monitor.sv(46) @ 14011000: uvm_test_top.env.ahb_agt.mnt [ahb_monitor] Observed transaction: 
# ----------------------------------------------
# Name          Type             Size  Value    
# ----------------------------------------------
# trans         ahb_transaction  -     @1445    
#   xact_type   xact_type_enum   1     WRITE    
#   xfer_size   xfer_size_enum   3     SIZE_8BIT
#   burst_type  burst_type_enum  3     SINGLE   
#   addr        integral         10    'h4      
#   data        integral         32    'h2c     
#   prot        integral         4     'h0      
#   lock        integral         1     'h0      
#   resp        integral         1     'h0      
# ----------------------------------------------
# 
# UVM_INFO ./../regmodel/uart_reg2ahb_adapter.sv(42) @ 14011000: reporter [uart_reg2ahb_adapter] bus2reg: addr = 0x4, data = 0x2c, kind = UVM_WRITE, status = UVM_IS_OK
# UVM_INFO /ictc/other/tools/QuestaDVA/questasim/verilog_src/uvm-1.2/src/reg/uvm_reg_predictor.svh(221) @ 14011000: uvm_test_top.env.ahb_predictor [REG_PREDICT] Observed WRITE transaction to register regmodel.DLL: value='h2c : updated value = 'h2c
# UVM_INFO ./../regmodel/uart_reg2ahb_adapter.sv(42) @ 14011000: reporter [uart_reg2ahb_adapter] bus2reg: addr = 0x4, data = 0x2c, kind = UVM_WRITE, status = UVM_IS_OK
# UVM_INFO @ 14011000: reporter [RegModel] Wrote register via map regmodel.ahb_map: regmodel.DLL=0x2c
# UVM_INFO ./../regmodel/uart_reg2ahb_adapter.sv(27) @ 14011000: reporter [uart_reg2ahb_adapter] reg2bus: addr = 0x8, data = 0xa, kind = WRITE
# UVM_INFO ./../vip/ahb_vip/ahb_driver.sv(65) @ 14011000: uvm_test_top.env.ahb_agt.drv [ahb_driver] WRITE! addr = 8, data = a
# UVM_INFO ./../vip/ahb_vip/ahb_monitor.sv(46) @ 14011000: uvm_test_top.env.ahb_agt.mnt [ahb_monitor] Observed transaction: 
# ----------------------------------------------
# Name          Type             Size  Value    
# ----------------------------------------------
# trans         ahb_transaction  -     @1485    
#   xact_type   xact_type_enum   1     WRITE    
#   xfer_size   xfer_size_enum   3     SIZE_8BIT
#   burst_type  burst_type_enum  3     SINGLE   
#   addr        integral         10    'h8      
#   data        integral         32    'ha      
#   prot        integral         4     'h0      
#   lock        integral         1     'h0      
#   resp        integral         1     'h0      
# ----------------------------------------------
# 
# UVM_INFO ./../regmodel/uart_reg2ahb_adapter.sv(42) @ 14011000: reporter [uart_reg2ahb_adapter] bus2reg: addr = 0x8, data = 0xa, kind = UVM_WRITE, status = UVM_IS_OK
# UVM_INFO /ictc/other/tools/QuestaDVA/questasim/verilog_src/uvm-1.2/src/reg/uvm_reg_predictor.svh(221) @ 14011000: uvm_test_top.env.ahb_predictor [REG_PREDICT] Observed WRITE transaction to register regmodel.DLH: value='ha : updated value = 'ha
# UVM_INFO ./../regmodel/uart_reg2ahb_adapter.sv(42) @ 14011000: reporter [uart_reg2ahb_adapter] bus2reg: addr = 0x8, data = 0xa, kind = UVM_WRITE, status = UVM_IS_OK
# UVM_INFO @ 14011000: reporter [RegModel] Wrote register via map regmodel.ahb_map: regmodel.DLH=0xa
# UVM_INFO ./../regmodel/uart_reg2ahb_adapter.sv(27) @ 14011000: reporter [uart_reg2ahb_adapter] reg2bus: addr = 0xc, data = 0x21, kind = WRITE
# UVM_INFO ./../vip/ahb_vip/ahb_driver.sv(65) @ 14011000: uvm_test_top.env.ahb_agt.drv [ahb_driver] WRITE! addr = c, data = 21
# UVM_INFO ./../vip/ahb_vip/ahb_monitor.sv(46) @ 14011000: uvm_test_top.env.ahb_agt.mnt [ahb_monitor] Observed transaction: 
# ----------------------------------------------
# Name          Type             Size  Value    
# ----------------------------------------------
# trans         ahb_transaction  -     @1525    
#   xact_type   xact_type_enum   1     WRITE    
#   xfer_size   xfer_size_enum   3     SIZE_8BIT
#   burst_type  burst_type_enum  3     SINGLE   
#   addr        integral         10    'hc      
#   data        integral         32    'h21     
#   prot        integral         4     'h0      
#   lock        integral         1     'h0      
#   resp        integral         1     'h0      
# ----------------------------------------------
# 
# UVM_INFO ./../regmodel/uart_reg2ahb_adapter.sv(42) @ 14011000: reporter [uart_reg2ahb_adapter] bus2reg: addr = 0xc, data = 0x21, kind = UVM_WRITE, status = UVM_IS_OK
# UVM_INFO /ictc/other/tools/QuestaDVA/questasim/verilog_src/uvm-1.2/src/reg/uvm_reg_predictor.svh(221) @ 14011000: uvm_test_top.env.ahb_predictor [REG_PREDICT] Observed WRITE transaction to register regmodel.LCR: value='h21 : updated value = 'h21
# UVM_INFO ./../regmodel/uart_reg2ahb_adapter.sv(42) @ 14011000: reporter [uart_reg2ahb_adapter] bus2reg: addr = 0xc, data = 0x21, kind = UVM_WRITE, status = UVM_IS_OK
# UVM_INFO @ 14011000: reporter [RegModel] Wrote register via map regmodel.ahb_map: regmodel.LCR=0x21
# UVM_INFO ./../regmodel/uart_reg2ahb_adapter.sv(27) @ 14011000: reporter [uart_reg2ahb_adapter] reg2bus: addr = 0x18, data = 0x2b, kind = WRITE
# UVM_INFO ./../vip/ahb_vip/ahb_driver.sv(65) @ 14011000: uvm_test_top.env.ahb_agt.drv [ahb_driver] WRITE! addr = 18, data = 2b
# UVM_INFO ./../vip/ahb_vip/ahb_monitor.sv(46) @ 14011000: uvm_test_top.env.ahb_agt.mnt [ahb_monitor] Observed transaction: 
# ----------------------------------------------
# Name          Type             Size  Value    
# ----------------------------------------------
# trans         ahb_transaction  -     @1565    
#   xact_type   xact_type_enum   1     WRITE    
#   xfer_size   xfer_size_enum   3     SIZE_8BIT
#   burst_type  burst_type_enum  3     SINGLE   
#   addr        integral         10    'h18     
#   data        integral         32    'h2b     
#   prot        integral         4     'h0      
#   lock        integral         1     'h0      
#   resp        integral         1     'h0      
# ----------------------------------------------
# 
# UVM_INFO ./../regmodel/uart_reg2ahb_adapter.sv(42) @ 14011000: reporter [uart_reg2ahb_adapter] bus2reg: addr = 0x18, data = 0x2b, kind = UVM_WRITE, status = UVM_IS_OK
# UVM_INFO /ictc/other/tools/QuestaDVA/questasim/verilog_src/uvm-1.2/src/reg/uvm_reg_predictor.svh(221) @ 14011000: uvm_test_top.env.ahb_predictor [REG_PREDICT] Observed WRITE transaction to register regmodel.TBR: value='h2b : updated value = 'h2b
# UVM_INFO ./../tb/uart_scoreboard.sv(82) @ 14011000: uvm_test_top.env.scb [write_rx] Add AHB's drive trans into queue
# UVM_INFO ./../regmodel/uart_reg2ahb_adapter.sv(42) @ 14011000: reporter [uart_reg2ahb_adapter] bus2reg: addr = 0x18, data = 0x2b, kind = UVM_WRITE, status = UVM_IS_OK
# UVM_INFO @ 14011000: reporter [RegModel] Wrote register via map regmodel.ahb_map: regmodel.TBR=0x2b
# UVM_INFO ./../tb/uart_scoreboard.sv(63) @ 17561000: uvm_test_top.env.scb [write_ahb] TX UART SIGNAL COMPARATIVE
# ============================================================================================================================
# UVM_INFO ./../tb/uart_scoreboard.sv(66) @ 17561000: uvm_test_top.env.scb [uart_scoreboard] PASSED! Signal is matching. Exp: 00101011, Act: 00101011
# ============================================================================================================================
# UVM_INFO ./../regmodel/uart_reg2ahb_adapter.sv(27) @ 21011000: reporter [uart_reg2ahb_adapter] reg2bus: addr = 0x14, data = 0x0, kind = READ
# UVM_INFO ./../vip/ahb_vip/ahb_driver.sv(63) @ 21011000: uvm_test_top.env.ahb_agt.drv [ahb_driver] READ! addr = 14, data = 0
# UVM_INFO ./../vip/ahb_vip/ahb_monitor.sv(46) @ 21011000: uvm_test_top.env.ahb_agt.mnt [ahb_monitor] Observed transaction: 
# ----------------------------------------------
# Name          Type             Size  Value    
# ----------------------------------------------
# trans         ahb_transaction  -     @1607    
#   xact_type   xact_type_enum   1     READ     
#   xfer_size   xfer_size_enum   3     SIZE_8BIT
#   burst_type  burst_type_enum  3     SINGLE   
#   addr        integral         10    'h14     
#   data        integral         32    'ha      
#   prot        integral         4     'h0      
#   lock        integral         1     'h0      
#   resp        integral         1     'h0      
# ----------------------------------------------
# 
# UVM_INFO ./../regmodel/uart_reg2ahb_adapter.sv(42) @ 21011000: reporter [uart_reg2ahb_adapter] bus2reg: addr = 0x14, data = 0xa, kind = UVM_READ, status = UVM_IS_OK
# UVM_INFO /ictc/other/tools/QuestaDVA/questasim/verilog_src/uvm-1.2/src/reg/uvm_reg_predictor.svh(225) @ 21011000: uvm_test_top.env.ahb_predictor [REG_PREDICT] Observed READ transaction to register regmodel.FSR: value='ha
# UVM_INFO ./../regmodel/uart_reg2ahb_adapter.sv(42) @ 21011000: reporter [uart_reg2ahb_adapter] bus2reg: addr = 0x14, data = 0xa, kind = UVM_READ, status = UVM_IS_OK
# UVM_INFO @ 21011000: reporter [RegModel] Read  register via map regmodel.ahb_map: regmodel.FSR=a
# UVM_INFO ./../testcases/TX_16x_2400_baud_test.sv(41) @ 28011000: uvm_test_top [run_phase] Configuration randomize is: 
# ----------------------------------------------------
# Name               Type                 Size  Value 
# ----------------------------------------------------
# cfg                uart_configuration   -     @373  
#   parity_mode      parity_mode_config   2     NONE  
#   data_width       integral             32    'd7   
#   num_of_stop_bit  integral             32    'd1   
#   baud_rate        integral             32    'd2400
#   ovsmpl           ovs_config           1     X16   
#   parity_error     parity_error_config  1     NORMAL
#   uart_mode        mode_config          1     TX    
# ----------------------------------------------------
# 
# UVM_INFO ./../regmodel/uart_reg2ahb_adapter.sv(27) @ 28011000: reporter [uart_reg2ahb_adapter] reg2bus: addr = 0x0, data = 0x0, kind = WRITE
# UVM_INFO ./../vip/ahb_vip/ahb_driver.sv(65) @ 28011000: uvm_test_top.env.ahb_agt.drv [ahb_driver] WRITE! addr = 0, data = 0
# UVM_INFO ./../vip/ahb_vip/ahb_monitor.sv(46) @ 28011000: uvm_test_top.env.ahb_agt.mnt [ahb_monitor] Observed transaction: 
# ----------------------------------------------
# Name          Type             Size  Value    
# ----------------------------------------------
# trans         ahb_transaction  -     @1655    
#   xact_type   xact_type_enum   1     WRITE    
#   xfer_size   xfer_size_enum   3     SIZE_8BIT
#   burst_type  burst_type_enum  3     SINGLE   
#   addr        integral         10    'h0      
#   data        integral         32    'h0      
#   prot        integral         4     'h0      
#   lock        integral         1     'h0      
#   resp        integral         1     'h0      
# ----------------------------------------------
# 
# UVM_INFO ./../regmodel/uart_reg2ahb_adapter.sv(42) @ 28011000: reporter [uart_reg2ahb_adapter] bus2reg: addr = 0x0, data = 0x0, kind = UVM_WRITE, status = UVM_IS_OK
# UVM_INFO /ictc/other/tools/QuestaDVA/questasim/verilog_src/uvm-1.2/src/reg/uvm_reg_predictor.svh(221) @ 28011000: uvm_test_top.env.ahb_predictor [REG_PREDICT] Observed WRITE transaction to register regmodel.MDR: value='h0 : updated value = 'h0
# UVM_INFO ./../regmodel/uart_reg2ahb_adapter.sv(42) @ 28011000: reporter [uart_reg2ahb_adapter] bus2reg: addr = 0x0, data = 0x0, kind = UVM_WRITE, status = UVM_IS_OK
# UVM_INFO @ 28011000: reporter [RegModel] Wrote register via map regmodel.ahb_map: regmodel.MDR=0x0
# UVM_INFO ./../regmodel/uart_reg2ahb_adapter.sv(27) @ 28011000: reporter [uart_reg2ahb_adapter] reg2bus: addr = 0xc, data = 0x0, kind = WRITE
# UVM_INFO ./../vip/ahb_vip/ahb_driver.sv(65) @ 28011000: uvm_test_top.env.ahb_agt.drv [ahb_driver] WRITE! addr = c, data = 0
# UVM_INFO ./../vip/ahb_vip/ahb_monitor.sv(46) @ 28011000: uvm_test_top.env.ahb_agt.mnt [ahb_monitor] Observed transaction: 
# ----------------------------------------------
# Name          Type             Size  Value    
# ----------------------------------------------
# trans         ahb_transaction  -     @1697    
#   xact_type   xact_type_enum   1     WRITE    
#   xfer_size   xfer_size_enum   3     SIZE_8BIT
#   burst_type  burst_type_enum  3     SINGLE   
#   addr        integral         10    'hc      
#   data        integral         32    'h0      
#   prot        integral         4     'h0      
#   lock        integral         1     'h0      
#   resp        integral         1     'h0      
# ----------------------------------------------
# 
# UVM_INFO ./../regmodel/uart_reg2ahb_adapter.sv(42) @ 28011000: reporter [uart_reg2ahb_adapter] bus2reg: addr = 0xc, data = 0x0, kind = UVM_WRITE, status = UVM_IS_OK
# UVM_INFO /ictc/other/tools/QuestaDVA/questasim/verilog_src/uvm-1.2/src/reg/uvm_reg_predictor.svh(221) @ 28011000: uvm_test_top.env.ahb_predictor [REG_PREDICT] Observed WRITE transaction to register regmodel.LCR: value='h0 : updated value = 'h0
# UVM_INFO ./../regmodel/uart_reg2ahb_adapter.sv(42) @ 28011000: reporter [uart_reg2ahb_adapter] bus2reg: addr = 0xc, data = 0x0, kind = UVM_WRITE, status = UVM_IS_OK
# UVM_INFO @ 28011000: reporter [RegModel] Wrote register via map regmodel.ahb_map: regmodel.LCR=0x0
# UVM_INFO ./../regmodel/uart_reg2ahb_adapter.sv(27) @ 28011000: reporter [uart_reg2ahb_adapter] reg2bus: addr = 0x4, data = 0x2c, kind = WRITE
# UVM_INFO ./../vip/ahb_vip/ahb_driver.sv(65) @ 28011000: uvm_test_top.env.ahb_agt.drv [ahb_driver] WRITE! addr = 4, data = 2c
# UVM_INFO ./../vip/ahb_vip/ahb_monitor.sv(46) @ 28011000: uvm_test_top.env.ahb_agt.mnt [ahb_monitor] Observed transaction: 
# ----------------------------------------------
# Name          Type             Size  Value    
# ----------------------------------------------
# trans         ahb_transaction  -     @1737    
#   xact_type   xact_type_enum   1     WRITE    
#   xfer_size   xfer_size_enum   3     SIZE_8BIT
#   burst_type  burst_type_enum  3     SINGLE   
#   addr        integral         10    'h4      
#   data        integral         32    'h2c     
#   prot        integral         4     'h0      
#   lock        integral         1     'h0      
#   resp        integral         1     'h0      
# ----------------------------------------------
# 
# UVM_INFO ./../regmodel/uart_reg2ahb_adapter.sv(42) @ 28011000: reporter [uart_reg2ahb_adapter] bus2reg: addr = 0x4, data = 0x2c, kind = UVM_WRITE, status = UVM_IS_OK
# UVM_INFO /ictc/other/tools/QuestaDVA/questasim/verilog_src/uvm-1.2/src/reg/uvm_reg_predictor.svh(221) @ 28011000: uvm_test_top.env.ahb_predictor [REG_PREDICT] Observed WRITE transaction to register regmodel.DLL: value='h2c : updated value = 'h2c
# UVM_INFO ./../regmodel/uart_reg2ahb_adapter.sv(42) @ 28011000: reporter [uart_reg2ahb_adapter] bus2reg: addr = 0x4, data = 0x2c, kind = UVM_WRITE, status = UVM_IS_OK
# UVM_INFO @ 28011000: reporter [RegModel] Wrote register via map regmodel.ahb_map: regmodel.DLL=0x2c
# UVM_INFO ./../regmodel/uart_reg2ahb_adapter.sv(27) @ 28011000: reporter [uart_reg2ahb_adapter] reg2bus: addr = 0x8, data = 0xa, kind = WRITE
# UVM_INFO ./../vip/ahb_vip/ahb_driver.sv(65) @ 28011000: uvm_test_top.env.ahb_agt.drv [ahb_driver] WRITE! addr = 8, data = a
# UVM_INFO ./../vip/ahb_vip/ahb_monitor.sv(46) @ 28011000: uvm_test_top.env.ahb_agt.mnt [ahb_monitor] Observed transaction: 
# ----------------------------------------------
# Name          Type             Size  Value    
# ----------------------------------------------
# trans         ahb_transaction  -     @1777    
#   xact_type   xact_type_enum   1     WRITE    
#   xfer_size   xfer_size_enum   3     SIZE_8BIT
#   burst_type  burst_type_enum  3     SINGLE   
#   addr        integral         10    'h8      
#   data        integral         32    'ha      
#   prot        integral         4     'h0      
#   lock        integral         1     'h0      
#   resp        integral         1     'h0      
# ----------------------------------------------
# 
# UVM_INFO ./../regmodel/uart_reg2ahb_adapter.sv(42) @ 28011000: reporter [uart_reg2ahb_adapter] bus2reg: addr = 0x8, data = 0xa, kind = UVM_WRITE, status = UVM_IS_OK
# UVM_INFO /ictc/other/tools/QuestaDVA/questasim/verilog_src/uvm-1.2/src/reg/uvm_reg_predictor.svh(221) @ 28011000: uvm_test_top.env.ahb_predictor [REG_PREDICT] Observed WRITE transaction to register regmodel.DLH: value='ha : updated value = 'ha
# UVM_INFO ./../regmodel/uart_reg2ahb_adapter.sv(42) @ 28011000: reporter [uart_reg2ahb_adapter] bus2reg: addr = 0x8, data = 0xa, kind = UVM_WRITE, status = UVM_IS_OK
# UVM_INFO @ 28011000: reporter [RegModel] Wrote register via map regmodel.ahb_map: regmodel.DLH=0xa
# UVM_INFO ./../regmodel/uart_reg2ahb_adapter.sv(27) @ 28011000: reporter [uart_reg2ahb_adapter] reg2bus: addr = 0xc, data = 0x22, kind = WRITE
# UVM_INFO ./../vip/ahb_vip/ahb_driver.sv(65) @ 28011000: uvm_test_top.env.ahb_agt.drv [ahb_driver] WRITE! addr = c, data = 22
# UVM_INFO ./../vip/ahb_vip/ahb_monitor.sv(46) @ 28011000: uvm_test_top.env.ahb_agt.mnt [ahb_monitor] Observed transaction: 
# ----------------------------------------------
# Name          Type             Size  Value    
# ----------------------------------------------
# trans         ahb_transaction  -     @1817    
#   xact_type   xact_type_enum   1     WRITE    
#   xfer_size   xfer_size_enum   3     SIZE_8BIT
#   burst_type  burst_type_enum  3     SINGLE   
#   addr        integral         10    'hc      
#   data        integral         32    'h22     
#   prot        integral         4     'h0      
#   lock        integral         1     'h0      
#   resp        integral         1     'h0      
# ----------------------------------------------
# 
# UVM_INFO ./../regmodel/uart_reg2ahb_adapter.sv(42) @ 28011000: reporter [uart_reg2ahb_adapter] bus2reg: addr = 0xc, data = 0x22, kind = UVM_WRITE, status = UVM_IS_OK
# UVM_INFO /ictc/other/tools/QuestaDVA/questasim/verilog_src/uvm-1.2/src/reg/uvm_reg_predictor.svh(221) @ 28011000: uvm_test_top.env.ahb_predictor [REG_PREDICT] Observed WRITE transaction to register regmodel.LCR: value='h22 : updated value = 'h22
# UVM_INFO ./../regmodel/uart_reg2ahb_adapter.sv(42) @ 28011000: reporter [uart_reg2ahb_adapter] bus2reg: addr = 0xc, data = 0x22, kind = UVM_WRITE, status = UVM_IS_OK
# UVM_INFO @ 28011000: reporter [RegModel] Wrote register via map regmodel.ahb_map: regmodel.LCR=0x22
# UVM_INFO ./../regmodel/uart_reg2ahb_adapter.sv(27) @ 28011000: reporter [uart_reg2ahb_adapter] reg2bus: addr = 0x18, data = 0x5e, kind = WRITE
# UVM_INFO ./../vip/ahb_vip/ahb_driver.sv(65) @ 28011000: uvm_test_top.env.ahb_agt.drv [ahb_driver] WRITE! addr = 18, data = 5e
# UVM_INFO ./../vip/ahb_vip/ahb_monitor.sv(46) @ 28011000: uvm_test_top.env.ahb_agt.mnt [ahb_monitor] Observed transaction: 
# ----------------------------------------------
# Name          Type             Size  Value    
# ----------------------------------------------
# trans         ahb_transaction  -     @1857    
#   xact_type   xact_type_enum   1     WRITE    
#   xfer_size   xfer_size_enum   3     SIZE_8BIT
#   burst_type  burst_type_enum  3     SINGLE   
#   addr        integral         10    'h18     
#   data        integral         32    'h5e     
#   prot        integral         4     'h0      
#   lock        integral         1     'h0      
#   resp        integral         1     'h0      
# ----------------------------------------------
# 
# UVM_INFO ./../regmodel/uart_reg2ahb_adapter.sv(42) @ 28011000: reporter [uart_reg2ahb_adapter] bus2reg: addr = 0x18, data = 0x5e, kind = UVM_WRITE, status = UVM_IS_OK
# UVM_INFO /ictc/other/tools/QuestaDVA/questasim/verilog_src/uvm-1.2/src/reg/uvm_reg_predictor.svh(221) @ 28011000: uvm_test_top.env.ahb_predictor [REG_PREDICT] Observed WRITE transaction to register regmodel.TBR: value='h5e : updated value = 'h5e
# UVM_INFO ./../tb/uart_scoreboard.sv(82) @ 28011000: uvm_test_top.env.scb [write_rx] Add AHB's drive trans into queue
# UVM_INFO ./../regmodel/uart_reg2ahb_adapter.sv(42) @ 28011000: reporter [uart_reg2ahb_adapter] bus2reg: addr = 0x18, data = 0x5e, kind = UVM_WRITE, status = UVM_IS_OK
# UVM_INFO @ 28011000: reporter [RegModel] Wrote register via map regmodel.ahb_map: regmodel.TBR=0x5e
# UVM_INFO ./../tb/uart_scoreboard.sv(63) @ 31988000: uvm_test_top.env.scb [write_ahb] TX UART SIGNAL COMPARATIVE
# ============================================================================================================================
# UVM_INFO ./../tb/uart_scoreboard.sv(66) @ 31988000: uvm_test_top.env.scb [uart_scoreboard] PASSED! Signal is matching. Exp: 01011110, Act: 01011110
# ============================================================================================================================
# UVM_INFO ./../regmodel/uart_reg2ahb_adapter.sv(27) @ 35011000: reporter [uart_reg2ahb_adapter] reg2bus: addr = 0x14, data = 0x0, kind = READ
# UVM_INFO ./../vip/ahb_vip/ahb_driver.sv(63) @ 35011000: uvm_test_top.env.ahb_agt.drv [ahb_driver] READ! addr = 14, data = 0
# UVM_INFO ./../vip/ahb_vip/ahb_monitor.sv(46) @ 35011000: uvm_test_top.env.ahb_agt.mnt [ahb_monitor] Observed transaction: 
# ----------------------------------------------
# Name          Type             Size  Value    
# ----------------------------------------------
# trans         ahb_transaction  -     @1899    
#   xact_type   xact_type_enum   1     READ     
#   xfer_size   xfer_size_enum   3     SIZE_8BIT
#   burst_type  burst_type_enum  3     SINGLE   
#   addr        integral         10    'h14     
#   data        integral         32    'ha      
#   prot        integral         4     'h0      
#   lock        integral         1     'h0      
#   resp        integral         1     'h0      
# ----------------------------------------------
# 
# UVM_INFO ./../regmodel/uart_reg2ahb_adapter.sv(42) @ 35011000: reporter [uart_reg2ahb_adapter] bus2reg: addr = 0x14, data = 0xa, kind = UVM_READ, status = UVM_IS_OK
# UVM_INFO /ictc/other/tools/QuestaDVA/questasim/verilog_src/uvm-1.2/src/reg/uvm_reg_predictor.svh(225) @ 35011000: uvm_test_top.env.ahb_predictor [REG_PREDICT] Observed READ transaction to register regmodel.FSR: value='ha
# UVM_INFO ./../regmodel/uart_reg2ahb_adapter.sv(42) @ 35011000: reporter [uart_reg2ahb_adapter] bus2reg: addr = 0x14, data = 0xa, kind = UVM_READ, status = UVM_IS_OK
# UVM_INFO @ 35011000: reporter [RegModel] Read  register via map regmodel.ahb_map: regmodel.FSR=a
# UVM_INFO ./../testcases/TX_16x_2400_baud_test.sv(41) @ 42011000: uvm_test_top [run_phase] Configuration randomize is: 
# ----------------------------------------------------
# Name               Type                 Size  Value 
# ----------------------------------------------------
# cfg                uart_configuration   -     @373  
#   parity_mode      parity_mode_config   2     NONE  
#   data_width       integral             32    'd8   
#   num_of_stop_bit  integral             32    'd1   
#   baud_rate        integral             32    'd2400
#   ovsmpl           ovs_config           1     X16   
#   parity_error     parity_error_config  1     NORMAL
#   uart_mode        mode_config          1     TX    
# ----------------------------------------------------
# 
# UVM_INFO ./../regmodel/uart_reg2ahb_adapter.sv(27) @ 42011000: reporter [uart_reg2ahb_adapter] reg2bus: addr = 0x0, data = 0x0, kind = WRITE
# UVM_INFO ./../vip/ahb_vip/ahb_driver.sv(65) @ 42011000: uvm_test_top.env.ahb_agt.drv [ahb_driver] WRITE! addr = 0, data = 0
# UVM_INFO ./../vip/ahb_vip/ahb_monitor.sv(46) @ 42011000: uvm_test_top.env.ahb_agt.mnt [ahb_monitor] Observed transaction: 
# ----------------------------------------------
# Name          Type             Size  Value    
# ----------------------------------------------
# trans         ahb_transaction  -     @1947    
#   xact_type   xact_type_enum   1     WRITE    
#   xfer_size   xfer_size_enum   3     SIZE_8BIT
#   burst_type  burst_type_enum  3     SINGLE   
#   addr        integral         10    'h0      
#   data        integral         32    'h0      
#   prot        integral         4     'h0      
#   lock        integral         1     'h0      
#   resp        integral         1     'h0      
# ----------------------------------------------
# 
# UVM_INFO ./../regmodel/uart_reg2ahb_adapter.sv(42) @ 42011000: reporter [uart_reg2ahb_adapter] bus2reg: addr = 0x0, data = 0x0, kind = UVM_WRITE, status = UVM_IS_OK
# UVM_INFO /ictc/other/tools/QuestaDVA/questasim/verilog_src/uvm-1.2/src/reg/uvm_reg_predictor.svh(221) @ 42011000: uvm_test_top.env.ahb_predictor [REG_PREDICT] Observed WRITE transaction to register regmodel.MDR: value='h0 : updated value = 'h0
# UVM_INFO ./../regmodel/uart_reg2ahb_adapter.sv(42) @ 42011000: reporter [uart_reg2ahb_adapter] bus2reg: addr = 0x0, data = 0x0, kind = UVM_WRITE, status = UVM_IS_OK
# UVM_INFO @ 42011000: reporter [RegModel] Wrote register via map regmodel.ahb_map: regmodel.MDR=0x0
# UVM_INFO ./../regmodel/uart_reg2ahb_adapter.sv(27) @ 42011000: reporter [uart_reg2ahb_adapter] reg2bus: addr = 0xc, data = 0x0, kind = WRITE
# UVM_INFO ./../vip/ahb_vip/ahb_driver.sv(65) @ 42011000: uvm_test_top.env.ahb_agt.drv [ahb_driver] WRITE! addr = c, data = 0
# UVM_INFO ./../vip/ahb_vip/ahb_monitor.sv(46) @ 42011000: uvm_test_top.env.ahb_agt.mnt [ahb_monitor] Observed transaction: 
# ----------------------------------------------
# Name          Type             Size  Value    
# ----------------------------------------------
# trans         ahb_transaction  -     @1989    
#   xact_type   xact_type_enum   1     WRITE    
#   xfer_size   xfer_size_enum   3     SIZE_8BIT
#   burst_type  burst_type_enum  3     SINGLE   
#   addr        integral         10    'hc      
#   data        integral         32    'h0      
#   prot        integral         4     'h0      
#   lock        integral         1     'h0      
#   resp        integral         1     'h0      
# ----------------------------------------------
# 
# UVM_INFO ./../regmodel/uart_reg2ahb_adapter.sv(42) @ 42011000: reporter [uart_reg2ahb_adapter] bus2reg: addr = 0xc, data = 0x0, kind = UVM_WRITE, status = UVM_IS_OK
# UVM_INFO /ictc/other/tools/QuestaDVA/questasim/verilog_src/uvm-1.2/src/reg/uvm_reg_predictor.svh(221) @ 42011000: uvm_test_top.env.ahb_predictor [REG_PREDICT] Observed WRITE transaction to register regmodel.LCR: value='h0 : updated value = 'h0
# UVM_INFO ./../regmodel/uart_reg2ahb_adapter.sv(42) @ 42011000: reporter [uart_reg2ahb_adapter] bus2reg: addr = 0xc, data = 0x0, kind = UVM_WRITE, status = UVM_IS_OK
# UVM_INFO @ 42011000: reporter [RegModel] Wrote register via map regmodel.ahb_map: regmodel.LCR=0x0
# UVM_INFO ./../regmodel/uart_reg2ahb_adapter.sv(27) @ 42011000: reporter [uart_reg2ahb_adapter] reg2bus: addr = 0x4, data = 0x2c, kind = WRITE
# UVM_INFO ./../vip/ahb_vip/ahb_driver.sv(65) @ 42011000: uvm_test_top.env.ahb_agt.drv [ahb_driver] WRITE! addr = 4, data = 2c
# UVM_INFO ./../vip/ahb_vip/ahb_monitor.sv(46) @ 42011000: uvm_test_top.env.ahb_agt.mnt [ahb_monitor] Observed transaction: 
# ----------------------------------------------
# Name          Type             Size  Value    
# ----------------------------------------------
# trans         ahb_transaction  -     @2029    
#   xact_type   xact_type_enum   1     WRITE    
#   xfer_size   xfer_size_enum   3     SIZE_8BIT
#   burst_type  burst_type_enum  3     SINGLE   
#   addr        integral         10    'h4      
#   data        integral         32    'h2c     
#   prot        integral         4     'h0      
#   lock        integral         1     'h0      
#   resp        integral         1     'h0      
# ----------------------------------------------
# 
# UVM_INFO ./../regmodel/uart_reg2ahb_adapter.sv(42) @ 42011000: reporter [uart_reg2ahb_adapter] bus2reg: addr = 0x4, data = 0x2c, kind = UVM_WRITE, status = UVM_IS_OK
# UVM_INFO /ictc/other/tools/QuestaDVA/questasim/verilog_src/uvm-1.2/src/reg/uvm_reg_predictor.svh(221) @ 42011000: uvm_test_top.env.ahb_predictor [REG_PREDICT] Observed WRITE transaction to register regmodel.DLL: value='h2c : updated value = 'h2c
# UVM_INFO ./../regmodel/uart_reg2ahb_adapter.sv(42) @ 42011000: reporter [uart_reg2ahb_adapter] bus2reg: addr = 0x4, data = 0x2c, kind = UVM_WRITE, status = UVM_IS_OK
# UVM_INFO @ 42011000: reporter [RegModel] Wrote register via map regmodel.ahb_map: regmodel.DLL=0x2c
# UVM_INFO ./../regmodel/uart_reg2ahb_adapter.sv(27) @ 42011000: reporter [uart_reg2ahb_adapter] reg2bus: addr = 0x8, data = 0xa, kind = WRITE
# UVM_INFO ./../vip/ahb_vip/ahb_driver.sv(65) @ 42011000: uvm_test_top.env.ahb_agt.drv [ahb_driver] WRITE! addr = 8, data = a
# UVM_INFO ./../vip/ahb_vip/ahb_monitor.sv(46) @ 42011000: uvm_test_top.env.ahb_agt.mnt [ahb_monitor] Observed transaction: 
# ----------------------------------------------
# Name          Type             Size  Value    
# ----------------------------------------------
# trans         ahb_transaction  -     @2069    
#   xact_type   xact_type_enum   1     WRITE    
#   xfer_size   xfer_size_enum   3     SIZE_8BIT
#   burst_type  burst_type_enum  3     SINGLE   
#   addr        integral         10    'h8      
#   data        integral         32    'ha      
#   prot        integral         4     'h0      
#   lock        integral         1     'h0      
#   resp        integral         1     'h0      
# ----------------------------------------------
# 
# UVM_INFO ./../regmodel/uart_reg2ahb_adapter.sv(42) @ 42011000: reporter [uart_reg2ahb_adapter] bus2reg: addr = 0x8, data = 0xa, kind = UVM_WRITE, status = UVM_IS_OK
# UVM_INFO /ictc/other/tools/QuestaDVA/questasim/verilog_src/uvm-1.2/src/reg/uvm_reg_predictor.svh(221) @ 42011000: uvm_test_top.env.ahb_predictor [REG_PREDICT] Observed WRITE transaction to register regmodel.DLH: value='ha : updated value = 'ha
# UVM_INFO ./../regmodel/uart_reg2ahb_adapter.sv(42) @ 42011000: reporter [uart_reg2ahb_adapter] bus2reg: addr = 0x8, data = 0xa, kind = UVM_WRITE, status = UVM_IS_OK
# UVM_INFO @ 42011000: reporter [RegModel] Wrote register via map regmodel.ahb_map: regmodel.DLH=0xa
# UVM_INFO ./../regmodel/uart_reg2ahb_adapter.sv(27) @ 42011000: reporter [uart_reg2ahb_adapter] reg2bus: addr = 0xc, data = 0x23, kind = WRITE
# UVM_INFO ./../vip/ahb_vip/ahb_driver.sv(65) @ 42011000: uvm_test_top.env.ahb_agt.drv [ahb_driver] WRITE! addr = c, data = 23
# UVM_INFO ./../vip/ahb_vip/ahb_monitor.sv(46) @ 42011000: uvm_test_top.env.ahb_agt.mnt [ahb_monitor] Observed transaction: 
# ----------------------------------------------
# Name          Type             Size  Value    
# ----------------------------------------------
# trans         ahb_transaction  -     @2109    
#   xact_type   xact_type_enum   1     WRITE    
#   xfer_size   xfer_size_enum   3     SIZE_8BIT
#   burst_type  burst_type_enum  3     SINGLE   
#   addr        integral         10    'hc      
#   data        integral         32    'h23     
#   prot        integral         4     'h0      
#   lock        integral         1     'h0      
#   resp        integral         1     'h0      
# ----------------------------------------------
# 
# UVM_INFO ./../regmodel/uart_reg2ahb_adapter.sv(42) @ 42011000: reporter [uart_reg2ahb_adapter] bus2reg: addr = 0xc, data = 0x23, kind = UVM_WRITE, status = UVM_IS_OK
# UVM_INFO /ictc/other/tools/QuestaDVA/questasim/verilog_src/uvm-1.2/src/reg/uvm_reg_predictor.svh(221) @ 42011000: uvm_test_top.env.ahb_predictor [REG_PREDICT] Observed WRITE transaction to register regmodel.LCR: value='h23 : updated value = 'h23
# UVM_INFO ./../regmodel/uart_reg2ahb_adapter.sv(42) @ 42011000: reporter [uart_reg2ahb_adapter] bus2reg: addr = 0xc, data = 0x23, kind = UVM_WRITE, status = UVM_IS_OK
# UVM_INFO @ 42011000: reporter [RegModel] Wrote register via map regmodel.ahb_map: regmodel.LCR=0x23
# UVM_INFO ./../regmodel/uart_reg2ahb_adapter.sv(27) @ 42011000: reporter [uart_reg2ahb_adapter] reg2bus: addr = 0x18, data = 0x7c, kind = WRITE
# UVM_INFO ./../vip/ahb_vip/ahb_driver.sv(65) @ 42011000: uvm_test_top.env.ahb_agt.drv [ahb_driver] WRITE! addr = 18, data = 7c
# UVM_INFO ./../vip/ahb_vip/ahb_monitor.sv(46) @ 42011000: uvm_test_top.env.ahb_agt.mnt [ahb_monitor] Observed transaction: 
# ----------------------------------------------
# Name          Type             Size  Value    
# ----------------------------------------------
# trans         ahb_transaction  -     @2149    
#   xact_type   xact_type_enum   1     WRITE    
#   xfer_size   xfer_size_enum   3     SIZE_8BIT
#   burst_type  burst_type_enum  3     SINGLE   
#   addr        integral         10    'h18     
#   data        integral         32    'h7c     
#   prot        integral         4     'h0      
#   lock        integral         1     'h0      
#   resp        integral         1     'h0      
# ----------------------------------------------
# 
# UVM_INFO ./../regmodel/uart_reg2ahb_adapter.sv(42) @ 42011000: reporter [uart_reg2ahb_adapter] bus2reg: addr = 0x18, data = 0x7c, kind = UVM_WRITE, status = UVM_IS_OK
# UVM_INFO /ictc/other/tools/QuestaDVA/questasim/verilog_src/uvm-1.2/src/reg/uvm_reg_predictor.svh(221) @ 42011000: uvm_test_top.env.ahb_predictor [REG_PREDICT] Observed WRITE transaction to register regmodel.TBR: value='h7c : updated value = 'h7c
# UVM_INFO ./../tb/uart_scoreboard.sv(82) @ 42011000: uvm_test_top.env.scb [write_rx] Add AHB's drive trans into queue
# UVM_INFO ./../regmodel/uart_reg2ahb_adapter.sv(42) @ 42011000: reporter [uart_reg2ahb_adapter] bus2reg: addr = 0x18, data = 0x7c, kind = UVM_WRITE, status = UVM_IS_OK
# UVM_INFO @ 42011000: reporter [RegModel] Wrote register via map regmodel.ahb_map: regmodel.TBR=0x7c
# UVM_INFO ./../tb/uart_scoreboard.sv(63) @ 46388000: uvm_test_top.env.scb [write_ahb] TX UART SIGNAL COMPARATIVE
# ============================================================================================================================
# UVM_INFO ./../tb/uart_scoreboard.sv(66) @ 46388000: uvm_test_top.env.scb [uart_scoreboard] PASSED! Signal is matching. Exp: 01111100, Act: 01111100
# ============================================================================================================================
# UVM_INFO ./../regmodel/uart_reg2ahb_adapter.sv(27) @ 49011000: reporter [uart_reg2ahb_adapter] reg2bus: addr = 0x14, data = 0x0, kind = READ
# UVM_INFO ./../vip/ahb_vip/ahb_driver.sv(63) @ 49011000: uvm_test_top.env.ahb_agt.drv [ahb_driver] READ! addr = 14, data = 0
# UVM_INFO ./../vip/ahb_vip/ahb_monitor.sv(46) @ 49011000: uvm_test_top.env.ahb_agt.mnt [ahb_monitor] Observed transaction: 
# ----------------------------------------------
# Name          Type             Size  Value    
# ----------------------------------------------
# trans         ahb_transaction  -     @2191    
#   xact_type   xact_type_enum   1     READ     
#   xfer_size   xfer_size_enum   3     SIZE_8BIT
#   burst_type  burst_type_enum  3     SINGLE   
#   addr        integral         10    'h14     
#   data        integral         32    'ha      
#   prot        integral         4     'h0      
#   lock        integral         1     'h0      
#   resp        integral         1     'h0      
# ----------------------------------------------
# 
# UVM_INFO ./../regmodel/uart_reg2ahb_adapter.sv(42) @ 49011000: reporter [uart_reg2ahb_adapter] bus2reg: addr = 0x14, data = 0xa, kind = UVM_READ, status = UVM_IS_OK
# UVM_INFO /ictc/other/tools/QuestaDVA/questasim/verilog_src/uvm-1.2/src/reg/uvm_reg_predictor.svh(225) @ 49011000: uvm_test_top.env.ahb_predictor [REG_PREDICT] Observed READ transaction to register regmodel.FSR: value='ha
# UVM_INFO ./../regmodel/uart_reg2ahb_adapter.sv(42) @ 49011000: reporter [uart_reg2ahb_adapter] bus2reg: addr = 0x14, data = 0xa, kind = UVM_READ, status = UVM_IS_OK
# UVM_INFO @ 49011000: reporter [RegModel] Read  register via map regmodel.ahb_map: regmodel.FSR=a
# ============================================================================================================================
# =================================================  ### TX UART | 16x  ###  =================================================
# ============================================================================================================================
# UVM_INFO ./../testcases/TX_16x_2400_baud_test.sv(41) @ 56011000: uvm_test_top [run_phase] Configuration randomize is: 
# ----------------------------------------------------
# Name               Type                 Size  Value 
# ----------------------------------------------------
# cfg                uart_configuration   -     @373  
#   parity_mode      parity_mode_config   2     NONE  
#   data_width       integral             32    'd5   
#   num_of_stop_bit  integral             32    'd1   
#   baud_rate        integral             32    'd2400
#   ovsmpl           ovs_config           1     X16   
#   parity_error     parity_error_config  1     ERROR 
#   uart_mode        mode_config          1     TX    
# ----------------------------------------------------
# 
# UVM_INFO ./../regmodel/uart_reg2ahb_adapter.sv(27) @ 56011000: reporter [uart_reg2ahb_adapter] reg2bus: addr = 0x0, data = 0x0, kind = WRITE
# UVM_INFO ./../vip/ahb_vip/ahb_driver.sv(65) @ 56011000: uvm_test_top.env.ahb_agt.drv [ahb_driver] WRITE! addr = 0, data = 0
# UVM_INFO ./../vip/ahb_vip/ahb_monitor.sv(46) @ 56011000: uvm_test_top.env.ahb_agt.mnt [ahb_monitor] Observed transaction: 
# ----------------------------------------------
# Name          Type             Size  Value    
# ----------------------------------------------
# trans         ahb_transaction  -     @2239    
#   xact_type   xact_type_enum   1     WRITE    
#   xfer_size   xfer_size_enum   3     SIZE_8BIT
#   burst_type  burst_type_enum  3     SINGLE   
#   addr        integral         10    'h0      
#   data        integral         32    'h0      
#   prot        integral         4     'h0      
#   lock        integral         1     'h0      
#   resp        integral         1     'h0      
# ----------------------------------------------
# 
# UVM_INFO ./../regmodel/uart_reg2ahb_adapter.sv(42) @ 56011000: reporter [uart_reg2ahb_adapter] bus2reg: addr = 0x0, data = 0x0, kind = UVM_WRITE, status = UVM_IS_OK
# UVM_INFO /ictc/other/tools/QuestaDVA/questasim/verilog_src/uvm-1.2/src/reg/uvm_reg_predictor.svh(221) @ 56011000: uvm_test_top.env.ahb_predictor [REG_PREDICT] Observed WRITE transaction to register regmodel.MDR: value='h0 : updated value = 'h0
# UVM_INFO ./../regmodel/uart_reg2ahb_adapter.sv(42) @ 56011000: reporter [uart_reg2ahb_adapter] bus2reg: addr = 0x0, data = 0x0, kind = UVM_WRITE, status = UVM_IS_OK
# UVM_INFO @ 56011000: reporter [RegModel] Wrote register via map regmodel.ahb_map: regmodel.MDR=0x0
# UVM_INFO ./../regmodel/uart_reg2ahb_adapter.sv(27) @ 56011000: reporter [uart_reg2ahb_adapter] reg2bus: addr = 0xc, data = 0x0, kind = WRITE
# UVM_INFO ./../vip/ahb_vip/ahb_driver.sv(65) @ 56012000: uvm_test_top.env.ahb_agt.drv [ahb_driver] WRITE! addr = c, data = 0
# UVM_INFO ./../vip/ahb_vip/ahb_monitor.sv(46) @ 56012000: uvm_test_top.env.ahb_agt.mnt [ahb_monitor] Observed transaction: 
# ----------------------------------------------
# Name          Type             Size  Value    
# ----------------------------------------------
# trans         ahb_transaction  -     @2281    
#   xact_type   xact_type_enum   1     WRITE    
#   xfer_size   xfer_size_enum   3     SIZE_8BIT
#   burst_type  burst_type_enum  3     SINGLE   
#   addr        integral         10    'hc      
#   data        integral         32    'h0      
#   prot        integral         4     'h0      
#   lock        integral         1     'h0      
#   resp        integral         1     'h0      
# ----------------------------------------------
# 
# UVM_INFO ./../regmodel/uart_reg2ahb_adapter.sv(42) @ 56012000: reporter [uart_reg2ahb_adapter] bus2reg: addr = 0xc, data = 0x0, kind = UVM_WRITE, status = UVM_IS_OK
# UVM_INFO /ictc/other/tools/QuestaDVA/questasim/verilog_src/uvm-1.2/src/reg/uvm_reg_predictor.svh(221) @ 56012000: uvm_test_top.env.ahb_predictor [REG_PREDICT] Observed WRITE transaction to register regmodel.LCR: value='h0 : updated value = 'h0
# UVM_INFO ./../regmodel/uart_reg2ahb_adapter.sv(42) @ 56012000: reporter [uart_reg2ahb_adapter] bus2reg: addr = 0xc, data = 0x0, kind = UVM_WRITE, status = UVM_IS_OK
# UVM_INFO @ 56012000: reporter [RegModel] Wrote register via map regmodel.ahb_map: regmodel.LCR=0x0
# UVM_INFO ./../regmodel/uart_reg2ahb_adapter.sv(27) @ 56012000: reporter [uart_reg2ahb_adapter] reg2bus: addr = 0x4, data = 0x2c, kind = WRITE
# UVM_INFO ./../vip/ahb_vip/ahb_driver.sv(65) @ 56012000: uvm_test_top.env.ahb_agt.drv [ahb_driver] WRITE! addr = 4, data = 2c
# UVM_INFO ./../vip/ahb_vip/ahb_monitor.sv(46) @ 56012000: uvm_test_top.env.ahb_agt.mnt [ahb_monitor] Observed transaction: 
# ----------------------------------------------
# Name          Type             Size  Value    
# ----------------------------------------------
# trans         ahb_transaction  -     @2321    
#   xact_type   xact_type_enum   1     WRITE    
#   xfer_size   xfer_size_enum   3     SIZE_8BIT
#   burst_type  burst_type_enum  3     SINGLE   
#   addr        integral         10    'h4      
#   data        integral         32    'h2c     
#   prot        integral         4     'h0      
#   lock        integral         1     'h0      
#   resp        integral         1     'h0      
# ----------------------------------------------
# 
# UVM_INFO ./../regmodel/uart_reg2ahb_adapter.sv(42) @ 56012000: reporter [uart_reg2ahb_adapter] bus2reg: addr = 0x4, data = 0x2c, kind = UVM_WRITE, status = UVM_IS_OK
# UVM_INFO /ictc/other/tools/QuestaDVA/questasim/verilog_src/uvm-1.2/src/reg/uvm_reg_predictor.svh(221) @ 56012000: uvm_test_top.env.ahb_predictor [REG_PREDICT] Observed WRITE transaction to register regmodel.DLL: value='h2c : updated value = 'h2c
# UVM_INFO ./../regmodel/uart_reg2ahb_adapter.sv(42) @ 56012000: reporter [uart_reg2ahb_adapter] bus2reg: addr = 0x4, data = 0x2c, kind = UVM_WRITE, status = UVM_IS_OK
# UVM_INFO @ 56012000: reporter [RegModel] Wrote register via map regmodel.ahb_map: regmodel.DLL=0x2c
# UVM_INFO ./../regmodel/uart_reg2ahb_adapter.sv(27) @ 56012000: reporter [uart_reg2ahb_adapter] reg2bus: addr = 0x8, data = 0xa, kind = WRITE
# UVM_INFO ./../vip/ahb_vip/ahb_driver.sv(65) @ 56012000: uvm_test_top.env.ahb_agt.drv [ahb_driver] WRITE! addr = 8, data = a
# UVM_INFO ./../vip/ahb_vip/ahb_monitor.sv(46) @ 56012000: uvm_test_top.env.ahb_agt.mnt [ahb_monitor] Observed transaction: 
# ----------------------------------------------
# Name          Type             Size  Value    
# ----------------------------------------------
# trans         ahb_transaction  -     @2361    
#   xact_type   xact_type_enum   1     WRITE    
#   xfer_size   xfer_size_enum   3     SIZE_8BIT
#   burst_type  burst_type_enum  3     SINGLE   
#   addr        integral         10    'h8      
#   data        integral         32    'ha      
#   prot        integral         4     'h0      
#   lock        integral         1     'h0      
#   resp        integral         1     'h0      
# ----------------------------------------------
# 
# UVM_INFO ./../regmodel/uart_reg2ahb_adapter.sv(42) @ 56012000: reporter [uart_reg2ahb_adapter] bus2reg: addr = 0x8, data = 0xa, kind = UVM_WRITE, status = UVM_IS_OK
# UVM_INFO /ictc/other/tools/QuestaDVA/questasim/verilog_src/uvm-1.2/src/reg/uvm_reg_predictor.svh(221) @ 56012000: uvm_test_top.env.ahb_predictor [REG_PREDICT] Observed WRITE transaction to register regmodel.DLH: value='ha : updated value = 'ha
# UVM_INFO ./../regmodel/uart_reg2ahb_adapter.sv(42) @ 56012000: reporter [uart_reg2ahb_adapter] bus2reg: addr = 0x8, data = 0xa, kind = UVM_WRITE, status = UVM_IS_OK
# UVM_INFO @ 56012000: reporter [RegModel] Wrote register via map regmodel.ahb_map: regmodel.DLH=0xa
# UVM_INFO ./../regmodel/uart_reg2ahb_adapter.sv(27) @ 56012000: reporter [uart_reg2ahb_adapter] reg2bus: addr = 0xc, data = 0x20, kind = WRITE
# UVM_INFO ./../vip/ahb_vip/ahb_driver.sv(65) @ 56012000: uvm_test_top.env.ahb_agt.drv [ahb_driver] WRITE! addr = c, data = 20
# UVM_INFO ./../vip/ahb_vip/ahb_monitor.sv(46) @ 56012000: uvm_test_top.env.ahb_agt.mnt [ahb_monitor] Observed transaction: 
# ----------------------------------------------
# Name          Type             Size  Value    
# ----------------------------------------------
# trans         ahb_transaction  -     @2401    
#   xact_type   xact_type_enum   1     WRITE    
#   xfer_size   xfer_size_enum   3     SIZE_8BIT
#   burst_type  burst_type_enum  3     SINGLE   
#   addr        integral         10    'hc      
#   data        integral         32    'h20     
#   prot        integral         4     'h0      
#   lock        integral         1     'h0      
#   resp        integral         1     'h0      
# ----------------------------------------------
# 
# UVM_INFO ./../regmodel/uart_reg2ahb_adapter.sv(42) @ 56012000: reporter [uart_reg2ahb_adapter] bus2reg: addr = 0xc, data = 0x20, kind = UVM_WRITE, status = UVM_IS_OK
# UVM_INFO /ictc/other/tools/QuestaDVA/questasim/verilog_src/uvm-1.2/src/reg/uvm_reg_predictor.svh(221) @ 56012000: uvm_test_top.env.ahb_predictor [REG_PREDICT] Observed WRITE transaction to register regmodel.LCR: value='h20 : updated value = 'h20
# UVM_INFO ./../regmodel/uart_reg2ahb_adapter.sv(42) @ 56012000: reporter [uart_reg2ahb_adapter] bus2reg: addr = 0xc, data = 0x20, kind = UVM_WRITE, status = UVM_IS_OK
# UVM_INFO @ 56012000: reporter [RegModel] Wrote register via map regmodel.ahb_map: regmodel.LCR=0x20
# UVM_INFO ./../regmodel/uart_reg2ahb_adapter.sv(27) @ 56012000: reporter [uart_reg2ahb_adapter] reg2bus: addr = 0x18, data = 0x9, kind = WRITE
# UVM_INFO ./../vip/ahb_vip/ahb_driver.sv(65) @ 56012000: uvm_test_top.env.ahb_agt.drv [ahb_driver] WRITE! addr = 18, data = 9
# UVM_INFO ./../vip/ahb_vip/ahb_monitor.sv(46) @ 56012000: uvm_test_top.env.ahb_agt.mnt [ahb_monitor] Observed transaction: 
# ----------------------------------------------
# Name          Type             Size  Value    
# ----------------------------------------------
# trans         ahb_transaction  -     @2441    
#   xact_type   xact_type_enum   1     WRITE    
#   xfer_size   xfer_size_enum   3     SIZE_8BIT
#   burst_type  burst_type_enum  3     SINGLE   
#   addr        integral         10    'h18     
#   data        integral         32    'h9      
#   prot        integral         4     'h0      
#   lock        integral         1     'h0      
#   resp        integral         1     'h0      
# ----------------------------------------------
# 
# UVM_INFO ./../regmodel/uart_reg2ahb_adapter.sv(42) @ 56012000: reporter [uart_reg2ahb_adapter] bus2reg: addr = 0x18, data = 0x9, kind = UVM_WRITE, status = UVM_IS_OK
# UVM_INFO /ictc/other/tools/QuestaDVA/questasim/verilog_src/uvm-1.2/src/reg/uvm_reg_predictor.svh(221) @ 56012000: uvm_test_top.env.ahb_predictor [REG_PREDICT] Observed WRITE transaction to register regmodel.TBR: value='h9 : updated value = 'h9
# UVM_INFO ./../tb/uart_scoreboard.sv(82) @ 56012000: uvm_test_top.env.scb [write_rx] Add AHB's drive trans into queue
# UVM_INFO ./../regmodel/uart_reg2ahb_adapter.sv(42) @ 56012000: reporter [uart_reg2ahb_adapter] bus2reg: addr = 0x18, data = 0x9, kind = UVM_WRITE, status = UVM_IS_OK
# UVM_INFO @ 56012000: reporter [RegModel] Wrote register via map regmodel.ahb_map: regmodel.TBR=0x9
# UVM_INFO ./../tb/uart_scoreboard.sv(63) @ 59148000: uvm_test_top.env.scb [write_ahb] TX UART SIGNAL COMPARATIVE
# ============================================================================================================================
# UVM_INFO ./../tb/uart_scoreboard.sv(66) @ 59148000: uvm_test_top.env.scb [uart_scoreboard] PASSED! Signal is matching. Exp: 00001001, Act: 00001001
# ============================================================================================================================
# UVM_INFO ./../regmodel/uart_reg2ahb_adapter.sv(27) @ 63012000: reporter [uart_reg2ahb_adapter] reg2bus: addr = 0x14, data = 0x0, kind = READ
# UVM_INFO ./../vip/ahb_vip/ahb_driver.sv(63) @ 63012000: uvm_test_top.env.ahb_agt.drv [ahb_driver] READ! addr = 14, data = 0
# UVM_INFO ./../vip/ahb_vip/ahb_monitor.sv(46) @ 63012000: uvm_test_top.env.ahb_agt.mnt [ahb_monitor] Observed transaction: 
# ----------------------------------------------
# Name          Type             Size  Value    
# ----------------------------------------------
# trans         ahb_transaction  -     @2483    
#   xact_type   xact_type_enum   1     READ     
#   xfer_size   xfer_size_enum   3     SIZE_8BIT
#   burst_type  burst_type_enum  3     SINGLE   
#   addr        integral         10    'h14     
#   data        integral         32    'ha      
#   prot        integral         4     'h0      
#   lock        integral         1     'h0      
#   resp        integral         1     'h0      
# ----------------------------------------------
# 
# UVM_INFO ./../regmodel/uart_reg2ahb_adapter.sv(42) @ 63012000: reporter [uart_reg2ahb_adapter] bus2reg: addr = 0x14, data = 0xa, kind = UVM_READ, status = UVM_IS_OK
# UVM_INFO /ictc/other/tools/QuestaDVA/questasim/verilog_src/uvm-1.2/src/reg/uvm_reg_predictor.svh(225) @ 63012000: uvm_test_top.env.ahb_predictor [REG_PREDICT] Observed READ transaction to register regmodel.FSR: value='ha
# UVM_INFO ./../regmodel/uart_reg2ahb_adapter.sv(42) @ 63012000: reporter [uart_reg2ahb_adapter] bus2reg: addr = 0x14, data = 0xa, kind = UVM_READ, status = UVM_IS_OK
# UVM_INFO @ 63012000: reporter [RegModel] Read  register via map regmodel.ahb_map: regmodel.FSR=a
# UVM_INFO ./../testcases/TX_16x_2400_baud_test.sv(41) @ 70012000: uvm_test_top [run_phase] Configuration randomize is: 
# ----------------------------------------------------
# Name               Type                 Size  Value 
# ----------------------------------------------------
# cfg                uart_configuration   -     @373  
#   parity_mode      parity_mode_config   2     NONE  
#   data_width       integral             32    'd6   
#   num_of_stop_bit  integral             32    'd1   
#   baud_rate        integral             32    'd2400
#   ovsmpl           ovs_config           1     X16   
#   parity_error     parity_error_config  1     ERROR 
#   uart_mode        mode_config          1     TX    
# ----------------------------------------------------
# 
# UVM_INFO ./../regmodel/uart_reg2ahb_adapter.sv(27) @ 70012000: reporter [uart_reg2ahb_adapter] reg2bus: addr = 0x0, data = 0x0, kind = WRITE
# UVM_INFO ./../vip/ahb_vip/ahb_driver.sv(65) @ 70012000: uvm_test_top.env.ahb_agt.drv [ahb_driver] WRITE! addr = 0, data = 0
# UVM_INFO ./../vip/ahb_vip/ahb_monitor.sv(46) @ 70012000: uvm_test_top.env.ahb_agt.mnt [ahb_monitor] Observed transaction: 
# ----------------------------------------------
# Name          Type             Size  Value    
# ----------------------------------------------
# trans         ahb_transaction  -     @2531    
#   xact_type   xact_type_enum   1     WRITE    
#   xfer_size   xfer_size_enum   3     SIZE_8BIT
#   burst_type  burst_type_enum  3     SINGLE   
#   addr        integral         10    'h0      
#   data        integral         32    'h0      
#   prot        integral         4     'h0      
#   lock        integral         1     'h0      
#   resp        integral         1     'h0      
# ----------------------------------------------
# 
# UVM_INFO ./../regmodel/uart_reg2ahb_adapter.sv(42) @ 70012000: reporter [uart_reg2ahb_adapter] bus2reg: addr = 0x0, data = 0x0, kind = UVM_WRITE, status = UVM_IS_OK
# UVM_INFO /ictc/other/tools/QuestaDVA/questasim/verilog_src/uvm-1.2/src/reg/uvm_reg_predictor.svh(221) @ 70012000: uvm_test_top.env.ahb_predictor [REG_PREDICT] Observed WRITE transaction to register regmodel.MDR: value='h0 : updated value = 'h0
# UVM_INFO ./../regmodel/uart_reg2ahb_adapter.sv(42) @ 70012000: reporter [uart_reg2ahb_adapter] bus2reg: addr = 0x0, data = 0x0, kind = UVM_WRITE, status = UVM_IS_OK
# UVM_INFO @ 70012000: reporter [RegModel] Wrote register via map regmodel.ahb_map: regmodel.MDR=0x0
# UVM_INFO ./../regmodel/uart_reg2ahb_adapter.sv(27) @ 70012000: reporter [uart_reg2ahb_adapter] reg2bus: addr = 0xc, data = 0x0, kind = WRITE
# UVM_INFO ./../vip/ahb_vip/ahb_driver.sv(65) @ 70012000: uvm_test_top.env.ahb_agt.drv [ahb_driver] WRITE! addr = c, data = 0
# UVM_INFO ./../vip/ahb_vip/ahb_monitor.sv(46) @ 70012000: uvm_test_top.env.ahb_agt.mnt [ahb_monitor] Observed transaction: 
# ----------------------------------------------
# Name          Type             Size  Value    
# ----------------------------------------------
# trans         ahb_transaction  -     @2573    
#   xact_type   xact_type_enum   1     WRITE    
#   xfer_size   xfer_size_enum   3     SIZE_8BIT
#   burst_type  burst_type_enum  3     SINGLE   
#   addr        integral         10    'hc      
#   data        integral         32    'h0      
#   prot        integral         4     'h0      
#   lock        integral         1     'h0      
#   resp        integral         1     'h0      
# ----------------------------------------------
# 
# UVM_INFO ./../regmodel/uart_reg2ahb_adapter.sv(42) @ 70012000: reporter [uart_reg2ahb_adapter] bus2reg: addr = 0xc, data = 0x0, kind = UVM_WRITE, status = UVM_IS_OK
# UVM_INFO /ictc/other/tools/QuestaDVA/questasim/verilog_src/uvm-1.2/src/reg/uvm_reg_predictor.svh(221) @ 70012000: uvm_test_top.env.ahb_predictor [REG_PREDICT] Observed WRITE transaction to register regmodel.LCR: value='h0 : updated value = 'h0
# UVM_INFO ./../regmodel/uart_reg2ahb_adapter.sv(42) @ 70012000: reporter [uart_reg2ahb_adapter] bus2reg: addr = 0xc, data = 0x0, kind = UVM_WRITE, status = UVM_IS_OK
# UVM_INFO @ 70012000: reporter [RegModel] Wrote register via map regmodel.ahb_map: regmodel.LCR=0x0
# UVM_INFO ./../regmodel/uart_reg2ahb_adapter.sv(27) @ 70012000: reporter [uart_reg2ahb_adapter] reg2bus: addr = 0x4, data = 0x2c, kind = WRITE
# UVM_INFO ./../vip/ahb_vip/ahb_driver.sv(65) @ 70012000: uvm_test_top.env.ahb_agt.drv [ahb_driver] WRITE! addr = 4, data = 2c
# UVM_INFO ./../vip/ahb_vip/ahb_monitor.sv(46) @ 70012000: uvm_test_top.env.ahb_agt.mnt [ahb_monitor] Observed transaction: 
# ----------------------------------------------
# Name          Type             Size  Value    
# ----------------------------------------------
# trans         ahb_transaction  -     @2613    
#   xact_type   xact_type_enum   1     WRITE    
#   xfer_size   xfer_size_enum   3     SIZE_8BIT
#   burst_type  burst_type_enum  3     SINGLE   
#   addr        integral         10    'h4      
#   data        integral         32    'h2c     
#   prot        integral         4     'h0      
#   lock        integral         1     'h0      
#   resp        integral         1     'h0      
# ----------------------------------------------
# 
# UVM_INFO ./../regmodel/uart_reg2ahb_adapter.sv(42) @ 70012000: reporter [uart_reg2ahb_adapter] bus2reg: addr = 0x4, data = 0x2c, kind = UVM_WRITE, status = UVM_IS_OK
# UVM_INFO /ictc/other/tools/QuestaDVA/questasim/verilog_src/uvm-1.2/src/reg/uvm_reg_predictor.svh(221) @ 70012000: uvm_test_top.env.ahb_predictor [REG_PREDICT] Observed WRITE transaction to register regmodel.DLL: value='h2c : updated value = 'h2c
# UVM_INFO ./../regmodel/uart_reg2ahb_adapter.sv(42) @ 70012000: reporter [uart_reg2ahb_adapter] bus2reg: addr = 0x4, data = 0x2c, kind = UVM_WRITE, status = UVM_IS_OK
# UVM_INFO @ 70012000: reporter [RegModel] Wrote register via map regmodel.ahb_map: regmodel.DLL=0x2c
# UVM_INFO ./../regmodel/uart_reg2ahb_adapter.sv(27) @ 70012000: reporter [uart_reg2ahb_adapter] reg2bus: addr = 0x8, data = 0xa, kind = WRITE
# UVM_INFO ./../vip/ahb_vip/ahb_driver.sv(65) @ 70012000: uvm_test_top.env.ahb_agt.drv [ahb_driver] WRITE! addr = 8, data = a
# UVM_INFO ./../vip/ahb_vip/ahb_monitor.sv(46) @ 70012000: uvm_test_top.env.ahb_agt.mnt [ahb_monitor] Observed transaction: 
# ----------------------------------------------
# Name          Type             Size  Value    
# ----------------------------------------------
# trans         ahb_transaction  -     @2653    
#   xact_type   xact_type_enum   1     WRITE    
#   xfer_size   xfer_size_enum   3     SIZE_8BIT
#   burst_type  burst_type_enum  3     SINGLE   
#   addr        integral         10    'h8      
#   data        integral         32    'ha      
#   prot        integral         4     'h0      
#   lock        integral         1     'h0      
#   resp        integral         1     'h0      
# ----------------------------------------------
# 
# UVM_INFO ./../regmodel/uart_reg2ahb_adapter.sv(42) @ 70012000: reporter [uart_reg2ahb_adapter] bus2reg: addr = 0x8, data = 0xa, kind = UVM_WRITE, status = UVM_IS_OK
# UVM_INFO /ictc/other/tools/QuestaDVA/questasim/verilog_src/uvm-1.2/src/reg/uvm_reg_predictor.svh(221) @ 70012000: uvm_test_top.env.ahb_predictor [REG_PREDICT] Observed WRITE transaction to register regmodel.DLH: value='ha : updated value = 'ha
# UVM_INFO ./../regmodel/uart_reg2ahb_adapter.sv(42) @ 70012000: reporter [uart_reg2ahb_adapter] bus2reg: addr = 0x8, data = 0xa, kind = UVM_WRITE, status = UVM_IS_OK
# UVM_INFO @ 70012000: reporter [RegModel] Wrote register via map regmodel.ahb_map: regmodel.DLH=0xa
# UVM_INFO ./../regmodel/uart_reg2ahb_adapter.sv(27) @ 70012000: reporter [uart_reg2ahb_adapter] reg2bus: addr = 0xc, data = 0x21, kind = WRITE
# UVM_INFO ./../vip/ahb_vip/ahb_driver.sv(65) @ 70012000: uvm_test_top.env.ahb_agt.drv [ahb_driver] WRITE! addr = c, data = 21
# UVM_INFO ./../vip/ahb_vip/ahb_monitor.sv(46) @ 70012000: uvm_test_top.env.ahb_agt.mnt [ahb_monitor] Observed transaction: 
# ----------------------------------------------
# Name          Type             Size  Value    
# ----------------------------------------------
# trans         ahb_transaction  -     @2693    
#   xact_type   xact_type_enum   1     WRITE    
#   xfer_size   xfer_size_enum   3     SIZE_8BIT
#   burst_type  burst_type_enum  3     SINGLE   
#   addr        integral         10    'hc      
#   data        integral         32    'h21     
#   prot        integral         4     'h0      
#   lock        integral         1     'h0      
#   resp        integral         1     'h0      
# ----------------------------------------------
# 
# UVM_INFO ./../regmodel/uart_reg2ahb_adapter.sv(42) @ 70012000: reporter [uart_reg2ahb_adapter] bus2reg: addr = 0xc, data = 0x21, kind = UVM_WRITE, status = UVM_IS_OK
# UVM_INFO /ictc/other/tools/QuestaDVA/questasim/verilog_src/uvm-1.2/src/reg/uvm_reg_predictor.svh(221) @ 70012000: uvm_test_top.env.ahb_predictor [REG_PREDICT] Observed WRITE transaction to register regmodel.LCR: value='h21 : updated value = 'h21
# UVM_INFO ./../regmodel/uart_reg2ahb_adapter.sv(42) @ 70012000: reporter [uart_reg2ahb_adapter] bus2reg: addr = 0xc, data = 0x21, kind = UVM_WRITE, status = UVM_IS_OK
# UVM_INFO @ 70012000: reporter [RegModel] Wrote register via map regmodel.ahb_map: regmodel.LCR=0x21
# UVM_INFO ./../regmodel/uart_reg2ahb_adapter.sv(27) @ 70012000: reporter [uart_reg2ahb_adapter] reg2bus: addr = 0x18, data = 0x2f, kind = WRITE
# UVM_INFO ./../vip/ahb_vip/ahb_driver.sv(65) @ 70012000: uvm_test_top.env.ahb_agt.drv [ahb_driver] WRITE! addr = 18, data = 2f
# UVM_INFO ./../vip/ahb_vip/ahb_monitor.sv(46) @ 70012000: uvm_test_top.env.ahb_agt.mnt [ahb_monitor] Observed transaction: 
# ----------------------------------------------
# Name          Type             Size  Value    
# ----------------------------------------------
# trans         ahb_transaction  -     @2733    
#   xact_type   xact_type_enum   1     WRITE    
#   xfer_size   xfer_size_enum   3     SIZE_8BIT
#   burst_type  burst_type_enum  3     SINGLE   
#   addr        integral         10    'h18     
#   data        integral         32    'h2f     
#   prot        integral         4     'h0      
#   lock        integral         1     'h0      
#   resp        integral         1     'h0      
# ----------------------------------------------
# 
# UVM_INFO ./../regmodel/uart_reg2ahb_adapter.sv(42) @ 70012000: reporter [uart_reg2ahb_adapter] bus2reg: addr = 0x18, data = 0x2f, kind = UVM_WRITE, status = UVM_IS_OK
# UVM_INFO /ictc/other/tools/QuestaDVA/questasim/verilog_src/uvm-1.2/src/reg/uvm_reg_predictor.svh(221) @ 70012000: uvm_test_top.env.ahb_predictor [REG_PREDICT] Observed WRITE transaction to register regmodel.TBR: value='h2f : updated value = 'h2f
# UVM_INFO ./../tb/uart_scoreboard.sv(82) @ 70012000: uvm_test_top.env.scb [write_rx] Add AHB's drive trans into queue
# UVM_INFO ./../regmodel/uart_reg2ahb_adapter.sv(42) @ 70012000: reporter [uart_reg2ahb_adapter] bus2reg: addr = 0x18, data = 0x2f, kind = UVM_WRITE, status = UVM_IS_OK
# UVM_INFO @ 70012000: reporter [RegModel] Wrote register via map regmodel.ahb_map: regmodel.TBR=0x2f
# UVM_INFO ./../tb/uart_scoreboard.sv(63) @ 73574000: uvm_test_top.env.scb [write_ahb] TX UART SIGNAL COMPARATIVE
# ============================================================================================================================
# UVM_INFO ./../tb/uart_scoreboard.sv(66) @ 73574000: uvm_test_top.env.scb [uart_scoreboard] PASSED! Signal is matching. Exp: 00101111, Act: 00101111
# ============================================================================================================================
# UVM_INFO ./../regmodel/uart_reg2ahb_adapter.sv(27) @ 77012000: reporter [uart_reg2ahb_adapter] reg2bus: addr = 0x14, data = 0x0, kind = READ
# UVM_INFO ./../vip/ahb_vip/ahb_driver.sv(63) @ 77012000: uvm_test_top.env.ahb_agt.drv [ahb_driver] READ! addr = 14, data = 0
# UVM_INFO ./../vip/ahb_vip/ahb_monitor.sv(46) @ 77012000: uvm_test_top.env.ahb_agt.mnt [ahb_monitor] Observed transaction: 
# ----------------------------------------------
# Name          Type             Size  Value    
# ----------------------------------------------
# trans         ahb_transaction  -     @2775    
#   xact_type   xact_type_enum   1     READ     
#   xfer_size   xfer_size_enum   3     SIZE_8BIT
#   burst_type  burst_type_enum  3     SINGLE   
#   addr        integral         10    'h14     
#   data        integral         32    'ha      
#   prot        integral         4     'h0      
#   lock        integral         1     'h0      
#   resp        integral         1     'h0      
# ----------------------------------------------
# 
# UVM_INFO ./../regmodel/uart_reg2ahb_adapter.sv(42) @ 77012000: reporter [uart_reg2ahb_adapter] bus2reg: addr = 0x14, data = 0xa, kind = UVM_READ, status = UVM_IS_OK
# UVM_INFO /ictc/other/tools/QuestaDVA/questasim/verilog_src/uvm-1.2/src/reg/uvm_reg_predictor.svh(225) @ 77012000: uvm_test_top.env.ahb_predictor [REG_PREDICT] Observed READ transaction to register regmodel.FSR: value='ha
# UVM_INFO ./../regmodel/uart_reg2ahb_adapter.sv(42) @ 77012000: reporter [uart_reg2ahb_adapter] bus2reg: addr = 0x14, data = 0xa, kind = UVM_READ, status = UVM_IS_OK
# UVM_INFO @ 77012000: reporter [RegModel] Read  register via map regmodel.ahb_map: regmodel.FSR=a
# UVM_INFO ./../testcases/TX_16x_2400_baud_test.sv(41) @ 84012000: uvm_test_top [run_phase] Configuration randomize is: 
# ----------------------------------------------------
# Name               Type                 Size  Value 
# ----------------------------------------------------
# cfg                uart_configuration   -     @373  
#   parity_mode      parity_mode_config   2     NONE  
#   data_width       integral             32    'd7   
#   num_of_stop_bit  integral             32    'd1   
#   baud_rate        integral             32    'd2400
#   ovsmpl           ovs_config           1     X16   
#   parity_error     parity_error_config  1     ERROR 
#   uart_mode        mode_config          1     TX    
# ----------------------------------------------------
# 
# UVM_INFO ./../regmodel/uart_reg2ahb_adapter.sv(27) @ 84012000: reporter [uart_reg2ahb_adapter] reg2bus: addr = 0x0, data = 0x0, kind = WRITE
# UVM_INFO ./../vip/ahb_vip/ahb_driver.sv(65) @ 84012000: uvm_test_top.env.ahb_agt.drv [ahb_driver] WRITE! addr = 0, data = 0
# UVM_INFO ./../vip/ahb_vip/ahb_monitor.sv(46) @ 84012000: uvm_test_top.env.ahb_agt.mnt [ahb_monitor] Observed transaction: 
# ----------------------------------------------
# Name          Type             Size  Value    
# ----------------------------------------------
# trans         ahb_transaction  -     @2823    
#   xact_type   xact_type_enum   1     WRITE    
#   xfer_size   xfer_size_enum   3     SIZE_8BIT
#   burst_type  burst_type_enum  3     SINGLE   
#   addr        integral         10    'h0      
#   data        integral         32    'h0      
#   prot        integral         4     'h0      
#   lock        integral         1     'h0      
#   resp        integral         1     'h0      
# ----------------------------------------------
# 
# UVM_INFO ./../regmodel/uart_reg2ahb_adapter.sv(42) @ 84012000: reporter [uart_reg2ahb_adapter] bus2reg: addr = 0x0, data = 0x0, kind = UVM_WRITE, status = UVM_IS_OK
# UVM_INFO /ictc/other/tools/QuestaDVA/questasim/verilog_src/uvm-1.2/src/reg/uvm_reg_predictor.svh(221) @ 84012000: uvm_test_top.env.ahb_predictor [REG_PREDICT] Observed WRITE transaction to register regmodel.MDR: value='h0 : updated value = 'h0
# UVM_INFO ./../regmodel/uart_reg2ahb_adapter.sv(42) @ 84012000: reporter [uart_reg2ahb_adapter] bus2reg: addr = 0x0, data = 0x0, kind = UVM_WRITE, status = UVM_IS_OK
# UVM_INFO @ 84012000: reporter [RegModel] Wrote register via map regmodel.ahb_map: regmodel.MDR=0x0
# UVM_INFO ./../regmodel/uart_reg2ahb_adapter.sv(27) @ 84012000: reporter [uart_reg2ahb_adapter] reg2bus: addr = 0xc, data = 0x0, kind = WRITE
# UVM_INFO ./../vip/ahb_vip/ahb_driver.sv(65) @ 84012000: uvm_test_top.env.ahb_agt.drv [ahb_driver] WRITE! addr = c, data = 0
# UVM_INFO ./../vip/ahb_vip/ahb_monitor.sv(46) @ 84012000: uvm_test_top.env.ahb_agt.mnt [ahb_monitor] Observed transaction: 
# ----------------------------------------------
# Name          Type             Size  Value    
# ----------------------------------------------
# trans         ahb_transaction  -     @2865    
#   xact_type   xact_type_enum   1     WRITE    
#   xfer_size   xfer_size_enum   3     SIZE_8BIT
#   burst_type  burst_type_enum  3     SINGLE   
#   addr        integral         10    'hc      
#   data        integral         32    'h0      
#   prot        integral         4     'h0      
#   lock        integral         1     'h0      
#   resp        integral         1     'h0      
# ----------------------------------------------
# 
# UVM_INFO ./../regmodel/uart_reg2ahb_adapter.sv(42) @ 84012000: reporter [uart_reg2ahb_adapter] bus2reg: addr = 0xc, data = 0x0, kind = UVM_WRITE, status = UVM_IS_OK
# UVM_INFO /ictc/other/tools/QuestaDVA/questasim/verilog_src/uvm-1.2/src/reg/uvm_reg_predictor.svh(221) @ 84012000: uvm_test_top.env.ahb_predictor [REG_PREDICT] Observed WRITE transaction to register regmodel.LCR: value='h0 : updated value = 'h0
# UVM_INFO ./../regmodel/uart_reg2ahb_adapter.sv(42) @ 84012000: reporter [uart_reg2ahb_adapter] bus2reg: addr = 0xc, data = 0x0, kind = UVM_WRITE, status = UVM_IS_OK
# UVM_INFO @ 84012000: reporter [RegModel] Wrote register via map regmodel.ahb_map: regmodel.LCR=0x0
# UVM_INFO ./../regmodel/uart_reg2ahb_adapter.sv(27) @ 84012000: reporter [uart_reg2ahb_adapter] reg2bus: addr = 0x4, data = 0x2c, kind = WRITE
# UVM_INFO ./../vip/ahb_vip/ahb_driver.sv(65) @ 84012000: uvm_test_top.env.ahb_agt.drv [ahb_driver] WRITE! addr = 4, data = 2c
# UVM_INFO ./../vip/ahb_vip/ahb_monitor.sv(46) @ 84012000: uvm_test_top.env.ahb_agt.mnt [ahb_monitor] Observed transaction: 
# ----------------------------------------------
# Name          Type             Size  Value    
# ----------------------------------------------
# trans         ahb_transaction  -     @2905    
#   xact_type   xact_type_enum   1     WRITE    
#   xfer_size   xfer_size_enum   3     SIZE_8BIT
#   burst_type  burst_type_enum  3     SINGLE   
#   addr        integral         10    'h4      
#   data        integral         32    'h2c     
#   prot        integral         4     'h0      
#   lock        integral         1     'h0      
#   resp        integral         1     'h0      
# ----------------------------------------------
# 
# UVM_INFO ./../regmodel/uart_reg2ahb_adapter.sv(42) @ 84012000: reporter [uart_reg2ahb_adapter] bus2reg: addr = 0x4, data = 0x2c, kind = UVM_WRITE, status = UVM_IS_OK
# UVM_INFO /ictc/other/tools/QuestaDVA/questasim/verilog_src/uvm-1.2/src/reg/uvm_reg_predictor.svh(221) @ 84012000: uvm_test_top.env.ahb_predictor [REG_PREDICT] Observed WRITE transaction to register regmodel.DLL: value='h2c : updated value = 'h2c
# UVM_INFO ./../regmodel/uart_reg2ahb_adapter.sv(42) @ 84012000: reporter [uart_reg2ahb_adapter] bus2reg: addr = 0x4, data = 0x2c, kind = UVM_WRITE, status = UVM_IS_OK
# UVM_INFO @ 84012000: reporter [RegModel] Wrote register via map regmodel.ahb_map: regmodel.DLL=0x2c
# UVM_INFO ./../regmodel/uart_reg2ahb_adapter.sv(27) @ 84012000: reporter [uart_reg2ahb_adapter] reg2bus: addr = 0x8, data = 0xa, kind = WRITE
# UVM_INFO ./../vip/ahb_vip/ahb_driver.sv(65) @ 84012000: uvm_test_top.env.ahb_agt.drv [ahb_driver] WRITE! addr = 8, data = a
# UVM_INFO ./../vip/ahb_vip/ahb_monitor.sv(46) @ 84012000: uvm_test_top.env.ahb_agt.mnt [ahb_monitor] Observed transaction: 
# ----------------------------------------------
# Name          Type             Size  Value    
# ----------------------------------------------
# trans         ahb_transaction  -     @2945    
#   xact_type   xact_type_enum   1     WRITE    
#   xfer_size   xfer_size_enum   3     SIZE_8BIT
#   burst_type  burst_type_enum  3     SINGLE   
#   addr        integral         10    'h8      
#   data        integral         32    'ha      
#   prot        integral         4     'h0      
#   lock        integral         1     'h0      
#   resp        integral         1     'h0      
# ----------------------------------------------
# 
# UVM_INFO ./../regmodel/uart_reg2ahb_adapter.sv(42) @ 84012000: reporter [uart_reg2ahb_adapter] bus2reg: addr = 0x8, data = 0xa, kind = UVM_WRITE, status = UVM_IS_OK
# UVM_INFO /ictc/other/tools/QuestaDVA/questasim/verilog_src/uvm-1.2/src/reg/uvm_reg_predictor.svh(221) @ 84012000: uvm_test_top.env.ahb_predictor [REG_PREDICT] Observed WRITE transaction to register regmodel.DLH: value='ha : updated value = 'ha
# UVM_INFO ./../regmodel/uart_reg2ahb_adapter.sv(42) @ 84012000: reporter [uart_reg2ahb_adapter] bus2reg: addr = 0x8, data = 0xa, kind = UVM_WRITE, status = UVM_IS_OK
# UVM_INFO @ 84012000: reporter [RegModel] Wrote register via map regmodel.ahb_map: regmodel.DLH=0xa
# UVM_INFO ./../regmodel/uart_reg2ahb_adapter.sv(27) @ 84012000: reporter [uart_reg2ahb_adapter] reg2bus: addr = 0xc, data = 0x22, kind = WRITE
# UVM_INFO ./../vip/ahb_vip/ahb_driver.sv(65) @ 84012000: uvm_test_top.env.ahb_agt.drv [ahb_driver] WRITE! addr = c, data = 22
# UVM_INFO ./../vip/ahb_vip/ahb_monitor.sv(46) @ 84012000: uvm_test_top.env.ahb_agt.mnt [ahb_monitor] Observed transaction: 
# ----------------------------------------------
# Name          Type             Size  Value    
# ----------------------------------------------
# trans         ahb_transaction  -     @2985    
#   xact_type   xact_type_enum   1     WRITE    
#   xfer_size   xfer_size_enum   3     SIZE_8BIT
#   burst_type  burst_type_enum  3     SINGLE   
#   addr        integral         10    'hc      
#   data        integral         32    'h22     
#   prot        integral         4     'h0      
#   lock        integral         1     'h0      
#   resp        integral         1     'h0      
# ----------------------------------------------
# 
# UVM_INFO ./../regmodel/uart_reg2ahb_adapter.sv(42) @ 84012000: reporter [uart_reg2ahb_adapter] bus2reg: addr = 0xc, data = 0x22, kind = UVM_WRITE, status = UVM_IS_OK
