# vsim -sv_seed 36 -voptargs="+acc" -assertdebug -c testbench -do " log -r /*;run -all;" -l TX_16x_5bits_data_test_36.log "+UVM_TESTNAME=TX_16x_5bits_data_test" "+UVM_VERBOSITY=UVM_HIGH" 
# Start time: 22:48:14 on Jul 28,2026
# Loading /tmp/vannghia_1108@ictc-eda-ldap.ipa.test_dpi_57202/linux_x86_64_gcc-11/export_tramp.so
# ** Note: (vsim-8009) Loading existing optimized design _opt
# //  Questa Sim-64
# //  Version 10.6d_1 linux_x86_64 Apr 11 2018
# //
# //  Copyright 1991-2018 Mentor Graphics Corporation
# //  All Rights Reserved.
# //
# //  QuestaSim and its associated documentation contain trade
# //  secrets and commercial or financial information that are the property of
# //  Mentor Graphics Corporation and are privileged, confidential,
# //  and exempt from disclosure under the Freedom of Information Act,
# //  5 U.S.C. Section 552. Furthermore, this information
# //  is prohibited from disclosure under the Trade Secrets Act,
# //  18 U.S.C. Section 1905.
# //
# Loading sv_std.std
# Loading work.uart_if(fast)
# Loading work.ahb_if(fast)
# Loading work.uvm_pkg(fast)
# Loading work.ahb_pkg(fast)
# ** Note: (vsim-8785) UVM-aware debugging capabilities will be disabled since no compiled "questa_uvm_pkg" can be found.
# This also means that later if you turn on UVM-aware debugging your debug simulations may have
# different random seeds from your non-debug simulations.
# Loading work.uart_pkg(fast)
# Loading work.seq_pkg(fast)
# Loading work.uart_register_pkg(fast)
# Loading work.uart_regmodel_pkg(fast)
# Loading work.env_pkg(fast)
# Loading work.test_pkg(fast)
# Loading work.testbench(fast)
# Loading work.ahb_if(fast)
# Loading work.uart_if(fast)
# Loading work.uart_top(fast)
# Loading work.cmsdk_ahb_to_apb(fast)
# Loading work.apb_decoder(fast)
# Loading work.uart_fifo(fast)
# Loading work.uart_transmitter(fast)
# Loading work.uart_receiver(fast)
# Loading work.uart_interrupt(fast)
# Loading work.baud_generator(fast)
# Compiling /tmp/vannghia_1108@ictc-eda-ldap.ipa.test_dpi_57202/linux_x86_64_gcc-5.3.0/exportwrapper.c
# Compiling /tmp/vannghia_1108@ictc-eda-ldap.ipa.test_dpi_57202/linux_x86_64_gcc-11/exportwrapper.c
# Loading /tmp/vannghia_1108@ictc-eda-ldap.ipa.test_dpi_57202/linux_x86_64_gcc-11/vsim_auto_compile.so
#  log -r /*
# run -all
# UVM_INFO /ictc/other/tools/QuestaDVA/questasim/verilog_src/uvm-1.2/src/base/uvm_root.svh(392) @ 0: reporter [UVM/RELNOTES] 
# ----------------------------------------------------------------
# UVM-1.2
# (C) 2007-2014 Mentor Graphics Corporation
# (C) 2007-2014 Cadence Design Systems, Inc.
# (C) 2006-2014 Synopsys, Inc.
# (C) 2011-2013 Cypress Semiconductor Corp.
# (C) 2013-2014 NVIDIA Corporation
# ----------------------------------------------------------------
# 
#   ***********       IMPORTANT RELEASE NOTES         ************
# 
#   You are using a version of the UVM library that has been compiled
#   with `UVM_NO_DEPRECATED undefined.
#   See http://www.eda.org/svdb/view.php?id=3313 for more details.
# 
#   You are using a version of the UVM library that has been compiled
#   with `UVM_OBJECT_DO_NOT_NEED_CONSTRUCTOR undefined.
#   See http://www.eda.org/svdb/view.php?id=3770 for more details.
# 
#       (Specify +UVM_NO_RELNOTES to turn off this notice)
# 
# UVM_INFO /ictc/other/tools/QuestaDVA/questasim/verilog_src/uvm-1.2/src/base/uvm_root.svh(453) @ 0: reporter [NO_DPI_TSTNAME] UVM_NO_DPI defined--getting UVM_TESTNAME directly, without DPI
# UVM_INFO @ 0: reporter [RNTST] Running test TX_16x_5bits_data_test...
# UVM_INFO ./../testcases/uart_base_test.sv(19) @ 0: uvm_test_top [build_phase] Entered...
# UVM_INFO ./../testcases/uart_base_test.sv(34) @ 0: uvm_test_top [build_phase] Exiting...
# UVM_INFO ./../tb/uart_environment.sv(21) @ 0: uvm_test_top.env [build phase] Entered...
# UVM_INFO ./../tb/uart_environment.sv(45) @ 0: uvm_test_top.env [build_phase] Exiting...
# UVM_INFO ./../vip/ahb_vip/ahb_agent.sv(16) @ 0: uvm_test_top.env.ahb_agt [build_phase] Entered...
# UVM_INFO ./../vip/ahb_vip/ahb_agent.sv(21) @ 0: uvm_test_top.env.ahb_agt [ahb_agent] Active agent is configued
# UVM_INFO ./../vip/ahb_vip/ahb_agent.sv(31) @ 0: uvm_test_top.env.ahb_agt [build_phase] Exiting...
# UVM_INFO ./../vip/ahb_vip/ahb_driver.sv(12) @ 0: uvm_test_top.env.ahb_agt.drv [build_phase] Entered...
# UVM_INFO ./../vip/ahb_vip/ahb_driver.sv(17) @ 0: uvm_test_top.env.ahb_agt.drv [build_phase] Exiting...
# UVM_INFO ./../vip/ahb_vip/ahb_monitor.sv(16) @ 0: uvm_test_top.env.ahb_agt.mnt [build_phase] Entered...
# UVM_INFO ./../vip/ahb_vip/ahb_monitor.sv(21) @ 0: uvm_test_top.env.ahb_agt.mnt [build_phase] Exiting...
# UVM_INFO ./../tb/uart_scoreboard.sv(34) @ 0: uvm_test_top.env.scb [build_phase] Entered...
# UVM_INFO ./../tb/uart_scoreboard.sv(41) @ 0: uvm_test_top.env.scb [build_phase] Exiting...
# UVM_INFO ./../vip/uart_vip/uart_agent.sv(17) @ 0: uvm_test_top.env.uart_agt [build_phase] Entered...
# UVM_INFO ./../vip/uart_vip/uart_agent.sv(28) @ 0: uvm_test_top.env.uart_agt [uart_agent] Active agent is configured
# UVM_INFO ./../vip/uart_vip/uart_agent.sv(43) @ 0: uvm_test_top.env.uart_agt [build_phase] Exiting...
# UVM_INFO ./../vip/uart_vip/uart_driver.sv(18) @ 0: uvm_test_top.env.uart_agt.drv [build_phase] Entered...
# UVM_INFO ./../vip/uart_vip/uart_driver.sv(29) @ 0: uvm_test_top.env.uart_agt.drv [build_phase] Exiting...
# UVM_INFO ./../vip/uart_vip/uart_monitor.sv(21) @ 0: uvm_test_top.env.uart_agt.mnt [build_phase] Entered...
# UVM_INFO ./../vip/uart_vip/uart_monitor.sv(32) @ 0: uvm_test_top.env.uart_agt.mnt [build_phase] Exiting...
# UVM_INFO /ictc/other/tools/QuestaDVA/questasim/verilog_src/uvm-1.2/src/base/uvm_root.svh(579) @ 0: reporter [UVMTOP] UVM testbench topology:
# --------------------------------------------------------------------------------
# Name                           Type                                  Size  Value
# --------------------------------------------------------------------------------
# uvm_test_top                   TX_16x_5bits_data_test                -     @347 
#   env                          uart_environment                      -     @364 
#     ahb_agt                    ahb_agent                             -     @399 
#       drv                      ahb_driver                            -     @511 
#         rsp_port               uvm_analysis_port                     -     @530 
#         seq_item_port          uvm_seq_item_pull_port                -     @520 
#       mnt                      ahb_monitor                           -     @677 
#         ahb_observed_port      uvm_analysis_port                     -     @686 
#       seq                      ahb_sequencer                         -     @540 
#         rsp_export             uvm_analysis_export                   -     @549 
#         seq_item_export        uvm_seq_item_pull_imp                 -     @667 
#         arbitration_queue      array                                 0     -    
#         lock_queue             array                                 0     -    
#         num_last_reqs          integral                              32    'd1  
#         num_last_rsps          integral                              32    'd1  
#     ahb_predictor              uvm_reg_predictor #(ahb_transaction)  -     @417 
#       bus_in                   uvm_analysis_imp                      -     @426 
#       reg_ap                   uvm_analysis_port                     -     @436 
#     scb                        uart_scoreboard                       -     @408 
#       ahb_export               uvm_analysis_imp_ahb                  -     @738 
#       uart_rx_export           uvm_analysis_imp_rx                   -     @728 
#       uart_tx_export           uvm_analysis_imp_tx                   -     @718 
#     uart_agt                   uart_agent                            -     @390 
#       drv                      uart_driver                           -     @896 
#         item_observed_port     uvm_analysis_port                     -     @925 
#         rsp_port               uvm_analysis_port                     -     @915 
#         seq_item_port          uvm_seq_item_pull_port                -     @905 
#       mnt                      uart_monitor                          -     @935 
#         uart_observed_port_rx  uvm_analysis_port                     -     @954 
#         uart_observed_port_tx  uvm_analysis_port                     -     @944 
#       seq                      uart_sequencer                        -     @759 
#         rsp_export             uvm_analysis_export                   -     @768 
#         seq_item_export        uvm_seq_item_pull_imp                 -     @886 
#         arbitration_queue      array                                 0     -    
#         lock_queue             array                                 0     -    
#         num_last_reqs          integral                              32    'd1  
#         num_last_rsps          integral                              32    'd1  
# --------------------------------------------------------------------------------
# 
# UVM_INFO /ictc/other/tools/QuestaDVA/questasim/verilog_src/uvm-1.2/src/base/uvm_traversal.svh(279) @ 0: reporter [UVM/COMP/NAMECHECK] This implementation of the component name checks requires DPI to be enabled
# UVM_INFO ./../vip/uart_vip/uart_monitor.sv(36) @ 0: uvm_test_top.env.uart_agt.mnt [run_phase] Entered...
# UVM_INFO ./../vip/uart_vip/uart_driver.sv(33) @ 0: uvm_test_top.env.uart_agt.drv [run_phase] Entered...
# UVM_INFO ./../vip/ahb_vip/ahb_monitor.sv(25) @ 0: uvm_test_top.env.ahb_agt.mnt [run_phase] Entered...
# UVM_INFO ./../vip/ahb_vip/ahb_driver.sv(22) @ 0: uvm_test_top.env.ahb_agt.drv [run_phase] Entered...
# ============================================================================================================================
# =================================================  ### TX UART | 16x  ###  =================================================
# ============================================================================================================================
# UVM_INFO ./../testcases/TX_16x_5bits_data_test.sv(40) @ 10000: uvm_test_top [run_phase] Configuration randomize is: 
# ----------------------------------------------------
# Name               Type                 Size  Value 
# ----------------------------------------------------
# cfg                uart_configuration   -     @373  
#   parity_mode      parity_mode_config   2     NONE  
#   data_width       integral             32    'd5   
#   num_of_stop_bit  integral             32    'd1   
#   baud_rate        integral             32    'd2400
#   ovsmpl           ovs_config           1     X16   
#   parity_error     parity_error_config  1     NORMAL
#   uart_mode        mode_config          1     TX    
# ----------------------------------------------------
# 
# UVM_INFO ./../regmodel/uart_reg2ahb_adapter.sv(27) @ 10000: reporter [uart_reg2ahb_adapter] reg2bus: addr = 0x0, data = 0x0, kind = WRITE
# UVM_INFO ./../vip/ahb_vip/ahb_driver.sv(65) @ 10000: uvm_test_top.env.ahb_agt.drv [ahb_driver] WRITE! addr = 0, data = 0
# UVM_INFO ./../vip/ahb_vip/ahb_monitor.sv(45) @ 10000: uvm_test_top.env.ahb_agt.mnt [ahb_monitor] Observed transaction: 
# ----------------------------------------------
# Name          Type             Size  Value    
# ----------------------------------------------
# trans         ahb_transaction  -     @1026    
#   xact_type   xact_type_enum   1     WRITE    
#   xfer_size   xfer_size_enum   3     SIZE_8BIT
#   burst_type  burst_type_enum  3     SINGLE   
#   addr        integral         10    'h0      
#   data        integral         32    'h0      
#   prot        integral         4     'h0      
#   lock        integral         1     'h0      
# ----------------------------------------------
# 
# UVM_INFO ./../regmodel/uart_reg2ahb_adapter.sv(42) @ 10000: reporter [uart_reg2ahb_adapter] bus2reg: addr = 0x0, data = 0x0, kind = UVM_WRITE, status = UVM_IS_OK
# UVM_INFO /ictc/other/tools/QuestaDVA/questasim/verilog_src/uvm-1.2/src/reg/uvm_reg_predictor.svh(221) @ 10000: uvm_test_top.env.ahb_predictor [REG_PREDICT] Observed WRITE transaction to register regmodel.MDR: value='h0 : updated value = 'h0
# UVM_INFO ./../regmodel/uart_reg2ahb_adapter.sv(42) @ 10000: reporter [uart_reg2ahb_adapter] bus2reg: addr = 0x0, data = 0x0, kind = UVM_WRITE, status = UVM_IS_OK
# UVM_INFO @ 10000: reporter [RegModel] Wrote register via map regmodel.ahb_map: regmodel.MDR=0x0
# UVM_INFO ./../regmodel/uart_reg2ahb_adapter.sv(27) @ 10000: reporter [uart_reg2ahb_adapter] reg2bus: addr = 0xc, data = 0x0, kind = WRITE
# UVM_INFO ./../vip/ahb_vip/ahb_driver.sv(65) @ 10000: uvm_test_top.env.ahb_agt.drv [ahb_driver] WRITE! addr = c, data = 0
# UVM_INFO ./../vip/ahb_vip/ahb_monitor.sv(45) @ 10000: uvm_test_top.env.ahb_agt.mnt [ahb_monitor] Observed transaction: 
# ----------------------------------------------
# Name          Type             Size  Value    
# ----------------------------------------------
# trans         ahb_transaction  -     @1113    
#   xact_type   xact_type_enum   1     WRITE    
#   xfer_size   xfer_size_enum   3     SIZE_8BIT
#   burst_type  burst_type_enum  3     SINGLE   
#   addr        integral         10    'hc      
#   data        integral         32    'h0      
#   prot        integral         4     'h0      
#   lock        integral         1     'h0      
# ----------------------------------------------
# 
# UVM_INFO ./../regmodel/uart_reg2ahb_adapter.sv(42) @ 10000: reporter [uart_reg2ahb_adapter] bus2reg: addr = 0xc, data = 0x0, kind = UVM_WRITE, status = UVM_IS_OK
# UVM_INFO /ictc/other/tools/QuestaDVA/questasim/verilog_src/uvm-1.2/src/reg/uvm_reg_predictor.svh(221) @ 10000: uvm_test_top.env.ahb_predictor [REG_PREDICT] Observed WRITE transaction to register regmodel.LCR: value='h0 : updated value = 'h0
# UVM_INFO ./../regmodel/uart_reg2ahb_adapter.sv(42) @ 10000: reporter [uart_reg2ahb_adapter] bus2reg: addr = 0xc, data = 0x0, kind = UVM_WRITE, status = UVM_IS_OK
# UVM_INFO @ 10000: reporter [RegModel] Wrote register via map regmodel.ahb_map: regmodel.LCR=0x0
# UVM_INFO ./../regmodel/uart_reg2ahb_adapter.sv(27) @ 10000: reporter [uart_reg2ahb_adapter] reg2bus: addr = 0x4, data = 0x2c, kind = WRITE
# UVM_INFO ./../vip/ahb_vip/ahb_driver.sv(65) @ 10000: uvm_test_top.env.ahb_agt.drv [ahb_driver] WRITE! addr = 4, data = 2c
# UVM_INFO ./../vip/ahb_vip/ahb_monitor.sv(45) @ 10000: uvm_test_top.env.ahb_agt.mnt [ahb_monitor] Observed transaction: 
# ----------------------------------------------
# Name          Type             Size  Value    
# ----------------------------------------------
# trans         ahb_transaction  -     @1153    
#   xact_type   xact_type_enum   1     WRITE    
#   xfer_size   xfer_size_enum   3     SIZE_8BIT
#   burst_type  burst_type_enum  3     SINGLE   
#   addr        integral         10    'h4      
#   data        integral         32    'h2c     
#   prot        integral         4     'h0      
#   lock        integral         1     'h0      
# ----------------------------------------------
# 
# UVM_INFO ./../regmodel/uart_reg2ahb_adapter.sv(42) @ 10000: reporter [uart_reg2ahb_adapter] bus2reg: addr = 0x4, data = 0x2c, kind = UVM_WRITE, status = UVM_IS_OK
# UVM_INFO /ictc/other/tools/QuestaDVA/questasim/verilog_src/uvm-1.2/src/reg/uvm_reg_predictor.svh(221) @ 10000: uvm_test_top.env.ahb_predictor [REG_PREDICT] Observed WRITE transaction to register regmodel.DLL: value='h2c : updated value = 'h2c
# UVM_INFO ./../regmodel/uart_reg2ahb_adapter.sv(42) @ 10000: reporter [uart_reg2ahb_adapter] bus2reg: addr = 0x4, data = 0x2c, kind = UVM_WRITE, status = UVM_IS_OK
# UVM_INFO @ 10000: reporter [RegModel] Wrote register via map regmodel.ahb_map: regmodel.DLL=0x2c
# UVM_INFO ./../regmodel/uart_reg2ahb_adapter.sv(27) @ 10000: reporter [uart_reg2ahb_adapter] reg2bus: addr = 0x8, data = 0xa, kind = WRITE
# UVM_INFO ./../vip/ahb_vip/ahb_driver.sv(65) @ 10000: uvm_test_top.env.ahb_agt.drv [ahb_driver] WRITE! addr = 8, data = a
# UVM_INFO ./../vip/ahb_vip/ahb_monitor.sv(45) @ 10000: uvm_test_top.env.ahb_agt.mnt [ahb_monitor] Observed transaction: 
# ----------------------------------------------
# Name          Type             Size  Value    
# ----------------------------------------------
# trans         ahb_transaction  -     @1193    
#   xact_type   xact_type_enum   1     WRITE    
#   xfer_size   xfer_size_enum   3     SIZE_8BIT
#   burst_type  burst_type_enum  3     SINGLE   
#   addr        integral         10    'h8      
#   data        integral         32    'ha      
#   prot        integral         4     'h0      
#   lock        integral         1     'h0      
# ----------------------------------------------
# 
# UVM_INFO ./../regmodel/uart_reg2ahb_adapter.sv(42) @ 10000: reporter [uart_reg2ahb_adapter] bus2reg: addr = 0x8, data = 0xa, kind = UVM_WRITE, status = UVM_IS_OK
# UVM_INFO /ictc/other/tools/QuestaDVA/questasim/verilog_src/uvm-1.2/src/reg/uvm_reg_predictor.svh(221) @ 10000: uvm_test_top.env.ahb_predictor [REG_PREDICT] Observed WRITE transaction to register regmodel.DLH: value='ha : updated value = 'ha
# UVM_INFO ./../regmodel/uart_reg2ahb_adapter.sv(42) @ 10000: reporter [uart_reg2ahb_adapter] bus2reg: addr = 0x8, data = 0xa, kind = UVM_WRITE, status = UVM_IS_OK
# UVM_INFO @ 10000: reporter [RegModel] Wrote register via map regmodel.ahb_map: regmodel.DLH=0xa
# UVM_INFO ./../regmodel/uart_reg2ahb_adapter.sv(27) @ 10000: reporter [uart_reg2ahb_adapter] reg2bus: addr = 0xc, data = 0x20, kind = WRITE
# UVM_INFO ./../vip/ahb_vip/ahb_driver.sv(65) @ 10000: uvm_test_top.env.ahb_agt.drv [ahb_driver] WRITE! addr = c, data = 20
# UVM_INFO ./../vip/ahb_vip/ahb_monitor.sv(45) @ 10000: uvm_test_top.env.ahb_agt.mnt [ahb_monitor] Observed transaction: 
# ----------------------------------------------
# Name          Type             Size  Value    
# ----------------------------------------------
# trans         ahb_transaction  -     @1233    
#   xact_type   xact_type_enum   1     WRITE    
#   xfer_size   xfer_size_enum   3     SIZE_8BIT
#   burst_type  burst_type_enum  3     SINGLE   
#   addr        integral         10    'hc      
#   data        integral         32    'h20     
#   prot        integral         4     'h0      
#   lock        integral         1     'h0      
# ----------------------------------------------
# 
# UVM_INFO ./../regmodel/uart_reg2ahb_adapter.sv(42) @ 10000: reporter [uart_reg2ahb_adapter] bus2reg: addr = 0xc, data = 0x20, kind = UVM_WRITE, status = UVM_IS_OK
# UVM_INFO /ictc/other/tools/QuestaDVA/questasim/verilog_src/uvm-1.2/src/reg/uvm_reg_predictor.svh(221) @ 10000: uvm_test_top.env.ahb_predictor [REG_PREDICT] Observed WRITE transaction to register regmodel.LCR: value='h20 : updated value = 'h20
# UVM_INFO ./../regmodel/uart_reg2ahb_adapter.sv(42) @ 10000: reporter [uart_reg2ahb_adapter] bus2reg: addr = 0xc, data = 0x20, kind = UVM_WRITE, status = UVM_IS_OK
# UVM_INFO @ 10000: reporter [RegModel] Wrote register via map regmodel.ahb_map: regmodel.LCR=0x20
# UVM_INFO ./../regmodel/uart_reg2ahb_adapter.sv(27) @ 7010000: reporter [uart_reg2ahb_adapter] reg2bus: addr = 0x18, data = 0x15, kind = WRITE
# UVM_INFO ./../vip/ahb_vip/ahb_driver.sv(65) @ 7010000: uvm_test_top.env.ahb_agt.drv [ahb_driver] WRITE! addr = 18, data = 15
# UVM_INFO ./../vip/ahb_vip/ahb_monitor.sv(45) @ 7010000: uvm_test_top.env.ahb_agt.mnt [ahb_monitor] Observed transaction: 
# ----------------------------------------------
# Name          Type             Size  Value    
# ----------------------------------------------
# trans         ahb_transaction  -     @1273    
#   xact_type   xact_type_enum   1     WRITE    
#   xfer_size   xfer_size_enum   3     SIZE_8BIT
#   burst_type  burst_type_enum  3     SINGLE   
#   addr        integral         10    'h18     
#   data        integral         32    'h15     
#   prot        integral         4     'h0      
#   lock        integral         1     'h0      
# ----------------------------------------------
# 
# UVM_INFO ./../regmodel/uart_reg2ahb_adapter.sv(42) @ 7010000: reporter [uart_reg2ahb_adapter] bus2reg: addr = 0x18, data = 0x15, kind = UVM_WRITE, status = UVM_IS_OK
# UVM_INFO /ictc/other/tools/QuestaDVA/questasim/verilog_src/uvm-1.2/src/reg/uvm_reg_predictor.svh(221) @ 7010000: uvm_test_top.env.ahb_predictor [REG_PREDICT] Observed WRITE transaction to register regmodel.TBR: value='h15 : updated value = 'h15
# UVM_INFO ./../tb/uart_scoreboard.sv(70) @ 7010000: uvm_test_top.env.scb [write_rx] Add AHB's drive trans into queue
# UVM_INFO ./../regmodel/uart_reg2ahb_adapter.sv(42) @ 7010000: reporter [uart_reg2ahb_adapter] bus2reg: addr = 0x18, data = 0x15, kind = UVM_WRITE, status = UVM_IS_OK
# UVM_INFO @ 7010000: reporter [RegModel] Wrote register via map regmodel.ahb_map: regmodel.TBR=0x15
# UVM_INFO ./../regmodel/uart_reg2ahb_adapter.sv(27) @ 7010000: reporter [uart_reg2ahb_adapter] reg2bus: addr = 0x14, data = 0x0, kind = READ
# UVM_INFO ./../vip/ahb_vip/ahb_driver.sv(63) @ 7010000: uvm_test_top.env.ahb_agt.drv [ahb_driver] READ! addr = 14, data = 0
# UVM_INFO ./../vip/ahb_vip/ahb_monitor.sv(45) @ 7010000: uvm_test_top.env.ahb_agt.mnt [ahb_monitor] Observed transaction: 
# ----------------------------------------------
# Name          Type             Size  Value    
# ----------------------------------------------
# trans         ahb_transaction  -     @1315    
#   xact_type   xact_type_enum   1     READ     
#   xfer_size   xfer_size_enum   3     SIZE_8BIT
#   burst_type  burst_type_enum  3     SINGLE   
#   addr        integral         10    'h14     
#   data        integral         32    'ha      
#   prot        integral         4     'h0      
#   lock        integral         1     'h0      
# ----------------------------------------------
# 
# UVM_INFO ./../regmodel/uart_reg2ahb_adapter.sv(42) @ 7010000: reporter [uart_reg2ahb_adapter] bus2reg: addr = 0x14, data = 0xa, kind = UVM_READ, status = UVM_IS_OK
# UVM_INFO /ictc/other/tools/QuestaDVA/questasim/verilog_src/uvm-1.2/src/reg/uvm_reg_predictor.svh(225) @ 7010000: uvm_test_top.env.ahb_predictor [REG_PREDICT] Observed READ transaction to register regmodel.FSR: value='ha
# UVM_INFO ./../regmodel/uart_reg2ahb_adapter.sv(42) @ 7010000: reporter [uart_reg2ahb_adapter] bus2reg: addr = 0x14, data = 0xa, kind = UVM_READ, status = UVM_IS_OK
# UVM_INFO @ 7010000: reporter [RegModel] Read  register via map regmodel.ahb_map: regmodel.FSR=a
# UVM_INFO ./../tb/uart_scoreboard.sv(50) @ 10140000: uvm_test_top.env.scb [write_ahb] UART SIGNAL COMPARATIVE
# ============================================================================================================================
# UVM_INFO ./../tb/uart_scoreboard.sv(53) @ 10140000: uvm_test_top.env.scb [uart_scoreboard] PASSED! Signal is matching. Exp: 00010101, Act: 00010101
# ============================================================================================================================
# UVM_INFO ./../testcases/TX_16x_5bits_data_test.sv(40) @ 14010000: uvm_test_top [run_phase] Configuration randomize is: 
# ----------------------------------------------------
# Name               Type                 Size  Value 
# ----------------------------------------------------
# cfg                uart_configuration   -     @373  
#   parity_mode      parity_mode_config   2     NONE  
#   data_width       integral             32    'd5   
#   num_of_stop_bit  integral             32    'd1   
#   baud_rate        integral             32    'd4800
#   ovsmpl           ovs_config           1     X16   
#   parity_error     parity_error_config  1     NORMAL
#   uart_mode        mode_config          1     TX    
# ----------------------------------------------------
# 
# UVM_INFO ./../regmodel/uart_reg2ahb_adapter.sv(27) @ 14010000: reporter [uart_reg2ahb_adapter] reg2bus: addr = 0x0, data = 0x0, kind = WRITE
# UVM_INFO ./../vip/ahb_vip/ahb_driver.sv(65) @ 14010000: uvm_test_top.env.ahb_agt.drv [ahb_driver] WRITE! addr = 0, data = 0
# UVM_INFO ./../vip/ahb_vip/ahb_monitor.sv(45) @ 14010000: uvm_test_top.env.ahb_agt.mnt [ahb_monitor] Observed transaction: 
# ----------------------------------------------
# Name          Type             Size  Value    
# ----------------------------------------------
# trans         ahb_transaction  -     @1355    
#   xact_type   xact_type_enum   1     WRITE    
#   xfer_size   xfer_size_enum   3     SIZE_8BIT
#   burst_type  burst_type_enum  3     SINGLE   
#   addr        integral         10    'h0      
#   data        integral         32    'h0      
#   prot        integral         4     'h0      
#   lock        integral         1     'h0      
# ----------------------------------------------
# 
# UVM_INFO ./../regmodel/uart_reg2ahb_adapter.sv(42) @ 14010000: reporter [uart_reg2ahb_adapter] bus2reg: addr = 0x0, data = 0x0, kind = UVM_WRITE, status = UVM_IS_OK
# UVM_INFO /ictc/other/tools/QuestaDVA/questasim/verilog_src/uvm-1.2/src/reg/uvm_reg_predictor.svh(221) @ 14010000: uvm_test_top.env.ahb_predictor [REG_PREDICT] Observed WRITE transaction to register regmodel.MDR: value='h0 : updated value = 'h0
# UVM_INFO ./../regmodel/uart_reg2ahb_adapter.sv(42) @ 14010000: reporter [uart_reg2ahb_adapter] bus2reg: addr = 0x0, data = 0x0, kind = UVM_WRITE, status = UVM_IS_OK
# UVM_INFO @ 14010000: reporter [RegModel] Wrote register via map regmodel.ahb_map: regmodel.MDR=0x0
# UVM_INFO ./../regmodel/uart_reg2ahb_adapter.sv(27) @ 14010000: reporter [uart_reg2ahb_adapter] reg2bus: addr = 0xc, data = 0x0, kind = WRITE
# UVM_INFO ./../vip/ahb_vip/ahb_driver.sv(65) @ 14010000: uvm_test_top.env.ahb_agt.drv [ahb_driver] WRITE! addr = c, data = 0
# UVM_INFO ./../vip/ahb_vip/ahb_monitor.sv(45) @ 14010000: uvm_test_top.env.ahb_agt.mnt [ahb_monitor] Observed transaction: 
# ----------------------------------------------
# Name          Type             Size  Value    
# ----------------------------------------------
# trans         ahb_transaction  -     @1405    
#   xact_type   xact_type_enum   1     WRITE    
#   xfer_size   xfer_size_enum   3     SIZE_8BIT
#   burst_type  burst_type_enum  3     SINGLE   
#   addr        integral         10    'hc      
#   data        integral         32    'h0      
#   prot        integral         4     'h0      
#   lock        integral         1     'h0      
# ----------------------------------------------
# 
# UVM_INFO ./../regmodel/uart_reg2ahb_adapter.sv(42) @ 14010000: reporter [uart_reg2ahb_adapter] bus2reg: addr = 0xc, data = 0x0, kind = UVM_WRITE, status = UVM_IS_OK
# UVM_INFO /ictc/other/tools/QuestaDVA/questasim/verilog_src/uvm-1.2/src/reg/uvm_reg_predictor.svh(221) @ 14010000: uvm_test_top.env.ahb_predictor [REG_PREDICT] Observed WRITE transaction to register regmodel.LCR: value='h0 : updated value = 'h0
# UVM_INFO ./../regmodel/uart_reg2ahb_adapter.sv(42) @ 14010000: reporter [uart_reg2ahb_adapter] bus2reg: addr = 0xc, data = 0x0, kind = UVM_WRITE, status = UVM_IS_OK
# UVM_INFO @ 14010000: reporter [RegModel] Wrote register via map regmodel.ahb_map: regmodel.LCR=0x0
# UVM_INFO ./../regmodel/uart_reg2ahb_adapter.sv(27) @ 14010000: reporter [uart_reg2ahb_adapter] reg2bus: addr = 0x4, data = 0x16, kind = WRITE
# UVM_INFO ./../vip/ahb_vip/ahb_driver.sv(65) @ 14011000: uvm_test_top.env.ahb_agt.drv [ahb_driver] WRITE! addr = 4, data = 16
# UVM_INFO ./../vip/ahb_vip/ahb_monitor.sv(45) @ 14011000: uvm_test_top.env.ahb_agt.mnt [ahb_monitor] Observed transaction: 
# ----------------------------------------------
# Name          Type             Size  Value    
# ----------------------------------------------
# trans         ahb_transaction  -     @1445    
#   xact_type   xact_type_enum   1     WRITE    
#   xfer_size   xfer_size_enum   3     SIZE_8BIT
#   burst_type  burst_type_enum  3     SINGLE   
#   addr        integral         10    'h4      
#   data        integral         32    'h16     
#   prot        integral         4     'h0      
#   lock        integral         1     'h0      
# ----------------------------------------------
# 
# UVM_INFO ./../regmodel/uart_reg2ahb_adapter.sv(42) @ 14011000: reporter [uart_reg2ahb_adapter] bus2reg: addr = 0x4, data = 0x16, kind = UVM_WRITE, status = UVM_IS_OK
# UVM_INFO /ictc/other/tools/QuestaDVA/questasim/verilog_src/uvm-1.2/src/reg/uvm_reg_predictor.svh(221) @ 14011000: uvm_test_top.env.ahb_predictor [REG_PREDICT] Observed WRITE transaction to register regmodel.DLL: value='h16 : updated value = 'h16
# UVM_INFO ./../regmodel/uart_reg2ahb_adapter.sv(42) @ 14011000: reporter [uart_reg2ahb_adapter] bus2reg: addr = 0x4, data = 0x16, kind = UVM_WRITE, status = UVM_IS_OK
# UVM_INFO @ 14011000: reporter [RegModel] Wrote register via map regmodel.ahb_map: regmodel.DLL=0x16
# UVM_INFO ./../regmodel/uart_reg2ahb_adapter.sv(27) @ 14011000: reporter [uart_reg2ahb_adapter] reg2bus: addr = 0x8, data = 0x5, kind = WRITE
# UVM_INFO ./../vip/ahb_vip/ahb_driver.sv(65) @ 14011000: uvm_test_top.env.ahb_agt.drv [ahb_driver] WRITE! addr = 8, data = 5
# UVM_INFO ./../vip/ahb_vip/ahb_monitor.sv(45) @ 14011000: uvm_test_top.env.ahb_agt.mnt [ahb_monitor] Observed transaction: 
# ----------------------------------------------
# Name          Type             Size  Value    
# ----------------------------------------------
# trans         ahb_transaction  -     @1485    
#   xact_type   xact_type_enum   1     WRITE    
#   xfer_size   xfer_size_enum   3     SIZE_8BIT
#   burst_type  burst_type_enum  3     SINGLE   
#   addr        integral         10    'h8      
#   data        integral         32    'h5      
#   prot        integral         4     'h0      
#   lock        integral         1     'h0      
# ----------------------------------------------
# 
# UVM_INFO ./../regmodel/uart_reg2ahb_adapter.sv(42) @ 14011000: reporter [uart_reg2ahb_adapter] bus2reg: addr = 0x8, data = 0x5, kind = UVM_WRITE, status = UVM_IS_OK
# UVM_INFO /ictc/other/tools/QuestaDVA/questasim/verilog_src/uvm-1.2/src/reg/uvm_reg_predictor.svh(221) @ 14011000: uvm_test_top.env.ahb_predictor [REG_PREDICT] Observed WRITE transaction to register regmodel.DLH: value='h5 : updated value = 'h5
# UVM_INFO ./../regmodel/uart_reg2ahb_adapter.sv(42) @ 14011000: reporter [uart_reg2ahb_adapter] bus2reg: addr = 0x8, data = 0x5, kind = UVM_WRITE, status = UVM_IS_OK
# UVM_INFO @ 14011000: reporter [RegModel] Wrote register via map regmodel.ahb_map: regmodel.DLH=0x5
# UVM_INFO ./../regmodel/uart_reg2ahb_adapter.sv(27) @ 14011000: reporter [uart_reg2ahb_adapter] reg2bus: addr = 0xc, data = 0x20, kind = WRITE
# UVM_INFO ./../vip/ahb_vip/ahb_driver.sv(65) @ 14011000: uvm_test_top.env.ahb_agt.drv [ahb_driver] WRITE! addr = c, data = 20
# UVM_INFO ./../vip/ahb_vip/ahb_monitor.sv(45) @ 14011000: uvm_test_top.env.ahb_agt.mnt [ahb_monitor] Observed transaction: 
# ----------------------------------------------
# Name          Type             Size  Value    
# ----------------------------------------------
# trans         ahb_transaction  -     @1525    
#   xact_type   xact_type_enum   1     WRITE    
#   xfer_size   xfer_size_enum   3     SIZE_8BIT
#   burst_type  burst_type_enum  3     SINGLE   
#   addr        integral         10    'hc      
#   data        integral         32    'h20     
#   prot        integral         4     'h0      
#   lock        integral         1     'h0      
# ----------------------------------------------
# 
# UVM_INFO ./../regmodel/uart_reg2ahb_adapter.sv(42) @ 14011000: reporter [uart_reg2ahb_adapter] bus2reg: addr = 0xc, data = 0x20, kind = UVM_WRITE, status = UVM_IS_OK
# UVM_INFO /ictc/other/tools/QuestaDVA/questasim/verilog_src/uvm-1.2/src/reg/uvm_reg_predictor.svh(221) @ 14011000: uvm_test_top.env.ahb_predictor [REG_PREDICT] Observed WRITE transaction to register regmodel.LCR: value='h20 : updated value = 'h20
# UVM_INFO ./../regmodel/uart_reg2ahb_adapter.sv(42) @ 14011000: reporter [uart_reg2ahb_adapter] bus2reg: addr = 0xc, data = 0x20, kind = UVM_WRITE, status = UVM_IS_OK
# UVM_INFO @ 14011000: reporter [RegModel] Wrote register via map regmodel.ahb_map: regmodel.LCR=0x20
# UVM_INFO ./../regmodel/uart_reg2ahb_adapter.sv(27) @ 18011000: reporter [uart_reg2ahb_adapter] reg2bus: addr = 0x18, data = 0x1a, kind = WRITE
# UVM_INFO ./../vip/ahb_vip/ahb_driver.sv(65) @ 18011000: uvm_test_top.env.ahb_agt.drv [ahb_driver] WRITE! addr = 18, data = 1a
# UVM_INFO ./../vip/ahb_vip/ahb_monitor.sv(45) @ 18011000: uvm_test_top.env.ahb_agt.mnt [ahb_monitor] Observed transaction: 
# ----------------------------------------------
# Name          Type             Size  Value    
# ----------------------------------------------
# trans         ahb_transaction  -     @1565    
#   xact_type   xact_type_enum   1     WRITE    
#   xfer_size   xfer_size_enum   3     SIZE_8BIT
#   burst_type  burst_type_enum  3     SINGLE   
#   addr        integral         10    'h18     
#   data        integral         32    'h1a     
#   prot        integral         4     'h0      
#   lock        integral         1     'h0      
# ----------------------------------------------
# 
# UVM_INFO ./../regmodel/uart_reg2ahb_adapter.sv(42) @ 18011000: reporter [uart_reg2ahb_adapter] bus2reg: addr = 0x18, data = 0x1a, kind = UVM_WRITE, status = UVM_IS_OK
# UVM_INFO /ictc/other/tools/QuestaDVA/questasim/verilog_src/uvm-1.2/src/reg/uvm_reg_predictor.svh(221) @ 18011000: uvm_test_top.env.ahb_predictor [REG_PREDICT] Observed WRITE transaction to register regmodel.TBR: value='h1a : updated value = 'h1a
# UVM_INFO ./../tb/uart_scoreboard.sv(70) @ 18011000: uvm_test_top.env.scb [write_rx] Add AHB's drive trans into queue
# UVM_INFO ./../regmodel/uart_reg2ahb_adapter.sv(42) @ 18011000: reporter [uart_reg2ahb_adapter] bus2reg: addr = 0x18, data = 0x1a, kind = UVM_WRITE, status = UVM_IS_OK
# UVM_INFO @ 18011000: reporter [RegModel] Wrote register via map regmodel.ahb_map: regmodel.TBR=0x1a
# UVM_INFO ./../regmodel/uart_reg2ahb_adapter.sv(27) @ 18011000: reporter [uart_reg2ahb_adapter] reg2bus: addr = 0x14, data = 0x0, kind = READ
# UVM_INFO ./../vip/ahb_vip/ahb_driver.sv(63) @ 18011000: uvm_test_top.env.ahb_agt.drv [ahb_driver] READ! addr = 14, data = 0
# UVM_INFO ./../vip/ahb_vip/ahb_monitor.sv(45) @ 18011000: uvm_test_top.env.ahb_agt.mnt [ahb_monitor] Observed transaction: 
# ----------------------------------------------
# Name          Type             Size  Value    
# ----------------------------------------------
# trans         ahb_transaction  -     @1607    
#   xact_type   xact_type_enum   1     READ     
#   xfer_size   xfer_size_enum   3     SIZE_8BIT
#   burst_type  burst_type_enum  3     SINGLE   
#   addr        integral         10    'h14     
#   data        integral         32    'ha      
#   prot        integral         4     'h0      
#   lock        integral         1     'h0      
# ----------------------------------------------
# 
# UVM_INFO ./../regmodel/uart_reg2ahb_adapter.sv(42) @ 18011000: reporter [uart_reg2ahb_adapter] bus2reg: addr = 0x14, data = 0xa, kind = UVM_READ, status = UVM_IS_OK
# UVM_INFO /ictc/other/tools/QuestaDVA/questasim/verilog_src/uvm-1.2/src/reg/uvm_reg_predictor.svh(225) @ 18011000: uvm_test_top.env.ahb_predictor [REG_PREDICT] Observed READ transaction to register regmodel.FSR: value='ha
# UVM_INFO ./../regmodel/uart_reg2ahb_adapter.sv(42) @ 18011000: reporter [uart_reg2ahb_adapter] bus2reg: addr = 0x14, data = 0xa, kind = UVM_READ, status = UVM_IS_OK
# UVM_INFO @ 18011000: reporter [RegModel] Read  register via map regmodel.ahb_map: regmodel.FSR=a
# UVM_INFO ./../tb/uart_scoreboard.sv(50) @ 19584000: uvm_test_top.env.scb [write_ahb] UART SIGNAL COMPARATIVE
# ============================================================================================================================
# UVM_INFO ./../tb/uart_scoreboard.sv(53) @ 19584000: uvm_test_top.env.scb [uart_scoreboard] PASSED! Signal is matching. Exp: 00011010, Act: 00011010
# ============================================================================================================================
# UVM_INFO ./../testcases/TX_16x_5bits_data_test.sv(40) @ 22011000: uvm_test_top [run_phase] Configuration randomize is: 
# ----------------------------------------------------
# Name               Type                 Size  Value 
# ----------------------------------------------------
# cfg                uart_configuration   -     @373  
#   parity_mode      parity_mode_config   2     NONE  
#   data_width       integral             32    'd5   
#   num_of_stop_bit  integral             32    'd1   
#   baud_rate        integral             32    'd9600
#   ovsmpl           ovs_config           1     X16   
#   parity_error     parity_error_config  1     NORMAL
#   uart_mode        mode_config          1     TX    
# ----------------------------------------------------
# 
# UVM_INFO ./../regmodel/uart_reg2ahb_adapter.sv(27) @ 22011000: reporter [uart_reg2ahb_adapter] reg2bus: addr = 0x0, data = 0x0, kind = WRITE
# UVM_INFO ./../vip/ahb_vip/ahb_driver.sv(65) @ 22011000: uvm_test_top.env.ahb_agt.drv [ahb_driver] WRITE! addr = 0, data = 0
# UVM_INFO ./../vip/ahb_vip/ahb_monitor.sv(45) @ 22011000: uvm_test_top.env.ahb_agt.mnt [ahb_monitor] Observed transaction: 
# ----------------------------------------------
# Name          Type             Size  Value    
# ----------------------------------------------
# trans         ahb_transaction  -     @1647    
#   xact_type   xact_type_enum   1     WRITE    
#   xfer_size   xfer_size_enum   3     SIZE_8BIT
#   burst_type  burst_type_enum  3     SINGLE   
#   addr        integral         10    'h0      
#   data        integral         32    'h0      
#   prot        integral         4     'h0      
#   lock        integral         1     'h0      
# ----------------------------------------------
# 
# UVM_INFO ./../regmodel/uart_reg2ahb_adapter.sv(42) @ 22011000: reporter [uart_reg2ahb_adapter] bus2reg: addr = 0x0, data = 0x0, kind = UVM_WRITE, status = UVM_IS_OK
# UVM_INFO /ictc/other/tools/QuestaDVA/questasim/verilog_src/uvm-1.2/src/reg/uvm_reg_predictor.svh(221) @ 22011000: uvm_test_top.env.ahb_predictor [REG_PREDICT] Observed WRITE transaction to register regmodel.MDR: value='h0 : updated value = 'h0
# UVM_INFO ./../regmodel/uart_reg2ahb_adapter.sv(42) @ 22011000: reporter [uart_reg2ahb_adapter] bus2reg: addr = 0x0, data = 0x0, kind = UVM_WRITE, status = UVM_IS_OK
# UVM_INFO @ 22011000: reporter [RegModel] Wrote register via map regmodel.ahb_map: regmodel.MDR=0x0
# UVM_INFO ./../regmodel/uart_reg2ahb_adapter.sv(27) @ 22011000: reporter [uart_reg2ahb_adapter] reg2bus: addr = 0xc, data = 0x0, kind = WRITE
# UVM_INFO ./../vip/ahb_vip/ahb_driver.sv(65) @ 22011000: uvm_test_top.env.ahb_agt.drv [ahb_driver] WRITE! addr = c, data = 0
# UVM_INFO ./../vip/ahb_vip/ahb_monitor.sv(45) @ 22011000: uvm_test_top.env.ahb_agt.mnt [ahb_monitor] Observed transaction: 
# ----------------------------------------------
# Name          Type             Size  Value    
# ----------------------------------------------
# trans         ahb_transaction  -     @1697    
#   xact_type   xact_type_enum   1     WRITE    
#   xfer_size   xfer_size_enum   3     SIZE_8BIT
#   burst_type  burst_type_enum  3     SINGLE   
#   addr        integral         10    'hc      
#   data        integral         32    'h0      
#   prot        integral         4     'h0      
#   lock        integral         1     'h0      
# ----------------------------------------------
# 
# UVM_INFO ./../regmodel/uart_reg2ahb_adapter.sv(42) @ 22011000: reporter [uart_reg2ahb_adapter] bus2reg: addr = 0xc, data = 0x0, kind = UVM_WRITE, status = UVM_IS_OK
# UVM_INFO /ictc/other/tools/QuestaDVA/questasim/verilog_src/uvm-1.2/src/reg/uvm_reg_predictor.svh(221) @ 22011000: uvm_test_top.env.ahb_predictor [REG_PREDICT] Observed WRITE transaction to register regmodel.LCR: value='h0 : updated value = 'h0
# UVM_INFO ./../regmodel/uart_reg2ahb_adapter.sv(42) @ 22011000: reporter [uart_reg2ahb_adapter] bus2reg: addr = 0xc, data = 0x0, kind = UVM_WRITE, status = UVM_IS_OK
# UVM_INFO @ 22011000: reporter [RegModel] Wrote register via map regmodel.ahb_map: regmodel.LCR=0x0
# UVM_INFO ./../regmodel/uart_reg2ahb_adapter.sv(27) @ 22011000: reporter [uart_reg2ahb_adapter] reg2bus: addr = 0x4, data = 0x8b, kind = WRITE
# UVM_INFO ./../vip/ahb_vip/ahb_driver.sv(65) @ 22011000: uvm_test_top.env.ahb_agt.drv [ahb_driver] WRITE! addr = 4, data = 8b
# UVM_INFO ./../vip/ahb_vip/ahb_monitor.sv(45) @ 22011000: uvm_test_top.env.ahb_agt.mnt [ahb_monitor] Observed transaction: 
# ----------------------------------------------
# Name          Type             Size  Value    
# ----------------------------------------------
# trans         ahb_transaction  -     @1737    
#   xact_type   xact_type_enum   1     WRITE    
#   xfer_size   xfer_size_enum   3     SIZE_8BIT
#   burst_type  burst_type_enum  3     SINGLE   
#   addr        integral         10    'h4      
#   data        integral         32    'h8b     
#   prot        integral         4     'h0      
#   lock        integral         1     'h0      
# ----------------------------------------------
# 
# UVM_INFO ./../regmodel/uart_reg2ahb_adapter.sv(42) @ 22011000: reporter [uart_reg2ahb_adapter] bus2reg: addr = 0x4, data = 0x8b, kind = UVM_WRITE, status = UVM_IS_OK
# UVM_INFO /ictc/other/tools/QuestaDVA/questasim/verilog_src/uvm-1.2/src/reg/uvm_reg_predictor.svh(221) @ 22011000: uvm_test_top.env.ahb_predictor [REG_PREDICT] Observed WRITE transaction to register regmodel.DLL: value='h8b : updated value = 'h8b
# UVM_INFO ./../regmodel/uart_reg2ahb_adapter.sv(42) @ 22011000: reporter [uart_reg2ahb_adapter] bus2reg: addr = 0x4, data = 0x8b, kind = UVM_WRITE, status = UVM_IS_OK
# UVM_INFO @ 22011000: reporter [RegModel] Wrote register via map regmodel.ahb_map: regmodel.DLL=0x8b
# UVM_INFO ./../regmodel/uart_reg2ahb_adapter.sv(27) @ 22011000: reporter [uart_reg2ahb_adapter] reg2bus: addr = 0x8, data = 0x2, kind = WRITE
# UVM_INFO ./../vip/ahb_vip/ahb_driver.sv(65) @ 22011000: uvm_test_top.env.ahb_agt.drv [ahb_driver] WRITE! addr = 8, data = 2
# UVM_INFO ./../vip/ahb_vip/ahb_monitor.sv(45) @ 22011000: uvm_test_top.env.ahb_agt.mnt [ahb_monitor] Observed transaction: 
# ----------------------------------------------
# Name          Type             Size  Value    
# ----------------------------------------------
# trans         ahb_transaction  -     @1777    
#   xact_type   xact_type_enum   1     WRITE    
#   xfer_size   xfer_size_enum   3     SIZE_8BIT
#   burst_type  burst_type_enum  3     SINGLE   
#   addr        integral         10    'h8      
#   data        integral         32    'h2      
#   prot        integral         4     'h0      
#   lock        integral         1     'h0      
# ----------------------------------------------
# 
# UVM_INFO ./../regmodel/uart_reg2ahb_adapter.sv(42) @ 22011000: reporter [uart_reg2ahb_adapter] bus2reg: addr = 0x8, data = 0x2, kind = UVM_WRITE, status = UVM_IS_OK
# UVM_INFO /ictc/other/tools/QuestaDVA/questasim/verilog_src/uvm-1.2/src/reg/uvm_reg_predictor.svh(221) @ 22011000: uvm_test_top.env.ahb_predictor [REG_PREDICT] Observed WRITE transaction to register regmodel.DLH: value='h2 : updated value = 'h2
# UVM_INFO ./../regmodel/uart_reg2ahb_adapter.sv(42) @ 22011000: reporter [uart_reg2ahb_adapter] bus2reg: addr = 0x8, data = 0x2, kind = UVM_WRITE, status = UVM_IS_OK
# UVM_INFO @ 22011000: reporter [RegModel] Wrote register via map regmodel.ahb_map: regmodel.DLH=0x2
# UVM_INFO ./../regmodel/uart_reg2ahb_adapter.sv(27) @ 22011000: reporter [uart_reg2ahb_adapter] reg2bus: addr = 0xc, data = 0x20, kind = WRITE
# UVM_INFO ./../vip/ahb_vip/ahb_driver.sv(65) @ 22011000: uvm_test_top.env.ahb_agt.drv [ahb_driver] WRITE! addr = c, data = 20
# UVM_INFO ./../vip/ahb_vip/ahb_monitor.sv(45) @ 22011000: uvm_test_top.env.ahb_agt.mnt [ahb_monitor] Observed transaction: 
# ----------------------------------------------
# Name          Type             Size  Value    
# ----------------------------------------------
# trans         ahb_transaction  -     @1817    
#   xact_type   xact_type_enum   1     WRITE    
#   xfer_size   xfer_size_enum   3     SIZE_8BIT
#   burst_type  burst_type_enum  3     SINGLE   
#   addr        integral         10    'hc      
#   data        integral         32    'h20     
#   prot        integral         4     'h0      
#   lock        integral         1     'h0      
# ----------------------------------------------
# 
# UVM_INFO ./../regmodel/uart_reg2ahb_adapter.sv(42) @ 22011000: reporter [uart_reg2ahb_adapter] bus2reg: addr = 0xc, data = 0x20, kind = UVM_WRITE, status = UVM_IS_OK
# UVM_INFO /ictc/other/tools/QuestaDVA/questasim/verilog_src/uvm-1.2/src/reg/uvm_reg_predictor.svh(221) @ 22011000: uvm_test_top.env.ahb_predictor [REG_PREDICT] Observed WRITE transaction to register regmodel.LCR: value='h20 : updated value = 'h20
# UVM_INFO ./../regmodel/uart_reg2ahb_adapter.sv(42) @ 22011000: reporter [uart_reg2ahb_adapter] bus2reg: addr = 0xc, data = 0x20, kind = UVM_WRITE, status = UVM_IS_OK
# UVM_INFO @ 22011000: reporter [RegModel] Wrote register via map regmodel.ahb_map: regmodel.LCR=0x20
# UVM_INFO ./../regmodel/uart_reg2ahb_adapter.sv(27) @ 24011000: reporter [uart_reg2ahb_adapter] reg2bus: addr = 0x18, data = 0x1a, kind = WRITE
# UVM_INFO ./../vip/ahb_vip/ahb_driver.sv(65) @ 24011000: uvm_test_top.env.ahb_agt.drv [ahb_driver] WRITE! addr = 18, data = 1a
# UVM_INFO ./../vip/ahb_vip/ahb_monitor.sv(45) @ 24011000: uvm_test_top.env.ahb_agt.mnt [ahb_monitor] Observed transaction: 
# ----------------------------------------------
# Name          Type             Size  Value    
# ----------------------------------------------
# trans         ahb_transaction  -     @1857    
#   xact_type   xact_type_enum   1     WRITE    
#   xfer_size   xfer_size_enum   3     SIZE_8BIT
#   burst_type  burst_type_enum  3     SINGLE   
#   addr        integral         10    'h18     
#   data        integral         32    'h1a     
#   prot        integral         4     'h0      
#   lock        integral         1     'h0      
# ----------------------------------------------
# 
# UVM_INFO ./../regmodel/uart_reg2ahb_adapter.sv(42) @ 24011000: reporter [uart_reg2ahb_adapter] bus2reg: addr = 0x18, data = 0x1a, kind = UVM_WRITE, status = UVM_IS_OK
# UVM_INFO /ictc/other/tools/QuestaDVA/questasim/verilog_src/uvm-1.2/src/reg/uvm_reg_predictor.svh(221) @ 24011000: uvm_test_top.env.ahb_predictor [REG_PREDICT] Observed WRITE transaction to register regmodel.TBR: value='h1a : updated value = 'h1a
# UVM_INFO ./../tb/uart_scoreboard.sv(70) @ 24011000: uvm_test_top.env.scb [write_rx] Add AHB's drive trans into queue
# UVM_INFO ./../regmodel/uart_reg2ahb_adapter.sv(42) @ 24011000: reporter [uart_reg2ahb_adapter] bus2reg: addr = 0x18, data = 0x1a, kind = UVM_WRITE, status = UVM_IS_OK
# UVM_INFO @ 24011000: reporter [RegModel] Wrote register via map regmodel.ahb_map: regmodel.TBR=0x1a
# UVM_INFO ./../regmodel/uart_reg2ahb_adapter.sv(27) @ 24011000: reporter [uart_reg2ahb_adapter] reg2bus: addr = 0x14, data = 0x0, kind = READ
# UVM_INFO ./../vip/ahb_vip/ahb_driver.sv(63) @ 24011000: uvm_test_top.env.ahb_agt.drv [ahb_driver] READ! addr = 14, data = 0
# UVM_INFO ./../vip/ahb_vip/ahb_monitor.sv(45) @ 24011000: uvm_test_top.env.ahb_agt.mnt [ahb_monitor] Observed transaction: 
# ----------------------------------------------
# Name          Type             Size  Value    
# ----------------------------------------------
# trans         ahb_transaction  -     @1899    
#   xact_type   xact_type_enum   1     READ     
#   xfer_size   xfer_size_enum   3     SIZE_8BIT
#   burst_type  burst_type_enum  3     SINGLE   
#   addr        integral         10    'h14     
#   data        integral         32    'ha      
#   prot        integral         4     'h0      
#   lock        integral         1     'h0      
# ----------------------------------------------
# 
# UVM_INFO ./../regmodel/uart_reg2ahb_adapter.sv(42) @ 24011000: reporter [uart_reg2ahb_adapter] bus2reg: addr = 0x14, data = 0xa, kind = UVM_READ, status = UVM_IS_OK
# UVM_INFO /ictc/other/tools/QuestaDVA/questasim/verilog_src/uvm-1.2/src/reg/uvm_reg_predictor.svh(225) @ 24011000: uvm_test_top.env.ahb_predictor [REG_PREDICT] Observed READ transaction to register regmodel.FSR: value='ha
# UVM_INFO ./../regmodel/uart_reg2ahb_adapter.sv(42) @ 24011000: reporter [uart_reg2ahb_adapter] bus2reg: addr = 0x14, data = 0xa, kind = UVM_READ, status = UVM_IS_OK
# UVM_INFO @ 24011000: reporter [RegModel] Read  register via map regmodel.ahb_map: regmodel.FSR=a
# UVM_INFO ./../tb/uart_scoreboard.sv(50) @ 24798000: uvm_test_top.env.scb [write_ahb] UART SIGNAL COMPARATIVE
# ============================================================================================================================
# UVM_INFO ./../tb/uart_scoreboard.sv(53) @ 24798000: uvm_test_top.env.scb [uart_scoreboard] PASSED! Signal is matching. Exp: 00011010, Act: 00011010
# ============================================================================================================================
# UVM_INFO ./../testcases/TX_16x_5bits_data_test.sv(40) @ 26011000: uvm_test_top [run_phase] Configuration randomize is: 
# -----------------------------------------------------
# Name               Type                 Size  Value  
# -----------------------------------------------------
# cfg                uart_configuration   -     @373   
#   parity_mode      parity_mode_config   2     NONE   
#   data_width       integral             32    'd5    
#   num_of_stop_bit  integral             32    'd1    
#   baud_rate        integral             32    'd19200
#   ovsmpl           ovs_config           1     X16    
#   parity_error     parity_error_config  1     NORMAL 
#   uart_mode        mode_config          1     TX     
# -----------------------------------------------------
# 
# UVM_INFO ./../regmodel/uart_reg2ahb_adapter.sv(27) @ 26011000: reporter [uart_reg2ahb_adapter] reg2bus: addr = 0x0, data = 0x0, kind = WRITE
# UVM_INFO ./../vip/ahb_vip/ahb_driver.sv(65) @ 26011000: uvm_test_top.env.ahb_agt.drv [ahb_driver] WRITE! addr = 0, data = 0
# UVM_INFO ./../vip/ahb_vip/ahb_monitor.sv(45) @ 26011000: uvm_test_top.env.ahb_agt.mnt [ahb_monitor] Observed transaction: 
# ----------------------------------------------
# Name          Type             Size  Value    
# ----------------------------------------------
# trans         ahb_transaction  -     @1939    
#   xact_type   xact_type_enum   1     WRITE    
#   xfer_size   xfer_size_enum   3     SIZE_8BIT
#   burst_type  burst_type_enum  3     SINGLE   
#   addr        integral         10    'h0      
#   data        integral         32    'h0      
#   prot        integral         4     'h0      
#   lock        integral         1     'h0      
# ----------------------------------------------
# 
# UVM_INFO ./../regmodel/uart_reg2ahb_adapter.sv(42) @ 26011000: reporter [uart_reg2ahb_adapter] bus2reg: addr = 0x0, data = 0x0, kind = UVM_WRITE, status = UVM_IS_OK
# UVM_INFO /ictc/other/tools/QuestaDVA/questasim/verilog_src/uvm-1.2/src/reg/uvm_reg_predictor.svh(221) @ 26011000: uvm_test_top.env.ahb_predictor [REG_PREDICT] Observed WRITE transaction to register regmodel.MDR: value='h0 : updated value = 'h0
# UVM_INFO ./../regmodel/uart_reg2ahb_adapter.sv(42) @ 26011000: reporter [uart_reg2ahb_adapter] bus2reg: addr = 0x0, data = 0x0, kind = UVM_WRITE, status = UVM_IS_OK
# UVM_INFO @ 26011000: reporter [RegModel] Wrote register via map regmodel.ahb_map: regmodel.MDR=0x0
# UVM_INFO ./../regmodel/uart_reg2ahb_adapter.sv(27) @ 26011000: reporter [uart_reg2ahb_adapter] reg2bus: addr = 0xc, data = 0x0, kind = WRITE
# UVM_INFO ./../vip/ahb_vip/ahb_driver.sv(65) @ 26011000: uvm_test_top.env.ahb_agt.drv [ahb_driver] WRITE! addr = c, data = 0
# UVM_INFO ./../vip/ahb_vip/ahb_monitor.sv(45) @ 26011000: uvm_test_top.env.ahb_agt.mnt [ahb_monitor] Observed transaction: 
# ----------------------------------------------
# Name          Type             Size  Value    
# ----------------------------------------------
# trans         ahb_transaction  -     @1989    
#   xact_type   xact_type_enum   1     WRITE    
#   xfer_size   xfer_size_enum   3     SIZE_8BIT
#   burst_type  burst_type_enum  3     SINGLE   
#   addr        integral         10    'hc      
#   data        integral         32    'h0      
#   prot        integral         4     'h0      
#   lock        integral         1     'h0      
# ----------------------------------------------
# 
# UVM_INFO ./../regmodel/uart_reg2ahb_adapter.sv(42) @ 26011000: reporter [uart_reg2ahb_adapter] bus2reg: addr = 0xc, data = 0x0, kind = UVM_WRITE, status = UVM_IS_OK
# UVM_INFO /ictc/other/tools/QuestaDVA/questasim/verilog_src/uvm-1.2/src/reg/uvm_reg_predictor.svh(221) @ 26011000: uvm_test_top.env.ahb_predictor [REG_PREDICT] Observed WRITE transaction to register regmodel.LCR: value='h0 : updated value = 'h0
# UVM_INFO ./../regmodel/uart_reg2ahb_adapter.sv(42) @ 26011000: reporter [uart_reg2ahb_adapter] bus2reg: addr = 0xc, data = 0x0, kind = UVM_WRITE, status = UVM_IS_OK
# UVM_INFO @ 26011000: reporter [RegModel] Wrote register via map regmodel.ahb_map: regmodel.LCR=0x0
# UVM_INFO ./../regmodel/uart_reg2ahb_adapter.sv(27) @ 26011000: reporter [uart_reg2ahb_adapter] reg2bus: addr = 0x4, data = 0x45, kind = WRITE
# UVM_INFO ./../vip/ahb_vip/ahb_driver.sv(65) @ 26011000: uvm_test_top.env.ahb_agt.drv [ahb_driver] WRITE! addr = 4, data = 45
# UVM_INFO ./../vip/ahb_vip/ahb_monitor.sv(45) @ 26011000: uvm_test_top.env.ahb_agt.mnt [ahb_monitor] Observed transaction: 
# ----------------------------------------------
# Name          Type             Size  Value    
# ----------------------------------------------
# trans         ahb_transaction  -     @2029    
#   xact_type   xact_type_enum   1     WRITE    
#   xfer_size   xfer_size_enum   3     SIZE_8BIT
#   burst_type  burst_type_enum  3     SINGLE   
#   addr        integral         10    'h4      
#   data        integral         32    'h45     
#   prot        integral         4     'h0      
#   lock        integral         1     'h0      
# ----------------------------------------------
# 
# UVM_INFO ./../regmodel/uart_reg2ahb_adapter.sv(42) @ 26011000: reporter [uart_reg2ahb_adapter] bus2reg: addr = 0x4, data = 0x45, kind = UVM_WRITE, status = UVM_IS_OK
# UVM_INFO /ictc/other/tools/QuestaDVA/questasim/verilog_src/uvm-1.2/src/reg/uvm_reg_predictor.svh(221) @ 26011000: uvm_test_top.env.ahb_predictor [REG_PREDICT] Observed WRITE transaction to register regmodel.DLL: value='h45 : updated value = 'h45
# UVM_INFO ./../regmodel/uart_reg2ahb_adapter.sv(42) @ 26011000: reporter [uart_reg2ahb_adapter] bus2reg: addr = 0x4, data = 0x45, kind = UVM_WRITE, status = UVM_IS_OK
# UVM_INFO @ 26011000: reporter [RegModel] Wrote register via map regmodel.ahb_map: regmodel.DLL=0x45
# UVM_INFO ./../regmodel/uart_reg2ahb_adapter.sv(27) @ 26011000: reporter [uart_reg2ahb_adapter] reg2bus: addr = 0x8, data = 0x1, kind = WRITE
# UVM_INFO ./../vip/ahb_vip/ahb_driver.sv(65) @ 26011000: uvm_test_top.env.ahb_agt.drv [ahb_driver] WRITE! addr = 8, data = 1
# UVM_INFO ./../vip/ahb_vip/ahb_monitor.sv(45) @ 26011000: uvm_test_top.env.ahb_agt.mnt [ahb_monitor] Observed transaction: 
# ----------------------------------------------
# Name          Type             Size  Value    
# ----------------------------------------------
# trans         ahb_transaction  -     @2069    
#   xact_type   xact_type_enum   1     WRITE    
#   xfer_size   xfer_size_enum   3     SIZE_8BIT
#   burst_type  burst_type_enum  3     SINGLE   
#   addr        integral         10    'h8      
#   data        integral         32    'h1      
#   prot        integral         4     'h0      
#   lock        integral         1     'h0      
# ----------------------------------------------
# 
# UVM_INFO ./../regmodel/uart_reg2ahb_adapter.sv(42) @ 26011000: reporter [uart_reg2ahb_adapter] bus2reg: addr = 0x8, data = 0x1, kind = UVM_WRITE, status = UVM_IS_OK
# UVM_INFO /ictc/other/tools/QuestaDVA/questasim/verilog_src/uvm-1.2/src/reg/uvm_reg_predictor.svh(221) @ 26011000: uvm_test_top.env.ahb_predictor [REG_PREDICT] Observed WRITE transaction to register regmodel.DLH: value='h1 : updated value = 'h1
# UVM_INFO ./../regmodel/uart_reg2ahb_adapter.sv(42) @ 26011000: reporter [uart_reg2ahb_adapter] bus2reg: addr = 0x8, data = 0x1, kind = UVM_WRITE, status = UVM_IS_OK
# UVM_INFO @ 26011000: reporter [RegModel] Wrote register via map regmodel.ahb_map: regmodel.DLH=0x1
# UVM_INFO ./../regmodel/uart_reg2ahb_adapter.sv(27) @ 26011000: reporter [uart_reg2ahb_adapter] reg2bus: addr = 0xc, data = 0x20, kind = WRITE
# UVM_INFO ./../vip/ahb_vip/ahb_driver.sv(65) @ 26011000: uvm_test_top.env.ahb_agt.drv [ahb_driver] WRITE! addr = c, data = 20
# UVM_INFO ./../vip/ahb_vip/ahb_monitor.sv(45) @ 26011000: uvm_test_top.env.ahb_agt.mnt [ahb_monitor] Observed transaction: 
# ----------------------------------------------
# Name          Type             Size  Value    
# ----------------------------------------------
# trans         ahb_transaction  -     @2109    
#   xact_type   xact_type_enum   1     WRITE    
#   xfer_size   xfer_size_enum   3     SIZE_8BIT
#   burst_type  burst_type_enum  3     SINGLE   
#   addr        integral         10    'hc      
#   data        integral         32    'h20     
#   prot        integral         4     'h0      
#   lock        integral         1     'h0      
# ----------------------------------------------
# 
# UVM_INFO ./../regmodel/uart_reg2ahb_adapter.sv(42) @ 26011000: reporter [uart_reg2ahb_adapter] bus2reg: addr = 0xc, data = 0x20, kind = UVM_WRITE, status = UVM_IS_OK
# UVM_INFO /ictc/other/tools/QuestaDVA/questasim/verilog_src/uvm-1.2/src/reg/uvm_reg_predictor.svh(221) @ 26011000: uvm_test_top.env.ahb_predictor [REG_PREDICT] Observed WRITE transaction to register regmodel.LCR: value='h20 : updated value = 'h20
# UVM_INFO ./../regmodel/uart_reg2ahb_adapter.sv(42) @ 26011000: reporter [uart_reg2ahb_adapter] bus2reg: addr = 0xc, data = 0x20, kind = UVM_WRITE, status = UVM_IS_OK
# UVM_INFO @ 26011000: reporter [RegModel] Wrote register via map regmodel.ahb_map: regmodel.LCR=0x20
# UVM_INFO ./../regmodel/uart_reg2ahb_adapter.sv(27) @ 27011000: reporter [uart_reg2ahb_adapter] reg2bus: addr = 0x18, data = 0x1f, kind = WRITE
# UVM_INFO ./../vip/ahb_vip/ahb_driver.sv(65) @ 27011000: uvm_test_top.env.ahb_agt.drv [ahb_driver] WRITE! addr = 18, data = 1f
# UVM_INFO ./../vip/ahb_vip/ahb_monitor.sv(45) @ 27011000: uvm_test_top.env.ahb_agt.mnt [ahb_monitor] Observed transaction: 
# ----------------------------------------------
# Name          Type             Size  Value    
# ----------------------------------------------
# trans         ahb_transaction  -     @2149    
#   xact_type   xact_type_enum   1     WRITE    
#   xfer_size   xfer_size_enum   3     SIZE_8BIT
#   burst_type  burst_type_enum  3     SINGLE   
#   addr        integral         10    'h18     
#   data        integral         32    'h1f     
#   prot        integral         4     'h0      
#   lock        integral         1     'h0      
# ----------------------------------------------
# 
# UVM_INFO ./../regmodel/uart_reg2ahb_adapter.sv(42) @ 27011000: reporter [uart_reg2ahb_adapter] bus2reg: addr = 0x18, data = 0x1f, kind = UVM_WRITE, status = UVM_IS_OK
# UVM_INFO /ictc/other/tools/QuestaDVA/questasim/verilog_src/uvm-1.2/src/reg/uvm_reg_predictor.svh(221) @ 27011000: uvm_test_top.env.ahb_predictor [REG_PREDICT] Observed WRITE transaction to register regmodel.TBR: value='h1f : updated value = 'h1f
# UVM_INFO ./../tb/uart_scoreboard.sv(70) @ 27011000: uvm_test_top.env.scb [write_rx] Add AHB's drive trans into queue
# UVM_INFO ./../regmodel/uart_reg2ahb_adapter.sv(42) @ 27011000: reporter [uart_reg2ahb_adapter] bus2reg: addr = 0x18, data = 0x1f, kind = UVM_WRITE, status = UVM_IS_OK
# UVM_INFO @ 27011000: reporter [RegModel] Wrote register via map regmodel.ahb_map: regmodel.TBR=0x1f
# UVM_INFO ./../regmodel/uart_reg2ahb_adapter.sv(27) @ 27011000: reporter [uart_reg2ahb_adapter] reg2bus: addr = 0x14, data = 0x0, kind = READ
# UVM_INFO ./../vip/ahb_vip/ahb_driver.sv(63) @ 27011000: uvm_test_top.env.ahb_agt.drv [ahb_driver] READ! addr = 14, data = 0
# UVM_INFO ./../vip/ahb_vip/ahb_monitor.sv(45) @ 27011000: uvm_test_top.env.ahb_agt.mnt [ahb_monitor] Observed transaction: 
# ----------------------------------------------
# Name          Type             Size  Value    
# ----------------------------------------------
# trans         ahb_transaction  -     @2191    
#   xact_type   xact_type_enum   1     READ     
#   xfer_size   xfer_size_enum   3     SIZE_8BIT
#   burst_type  burst_type_enum  3     SINGLE   
#   addr        integral         10    'h14     
#   data        integral         32    'ha      
#   prot        integral         4     'h0      
#   lock        integral         1     'h0      
# ----------------------------------------------
# 
# UVM_INFO ./../regmodel/uart_reg2ahb_adapter.sv(42) @ 27011000: reporter [uart_reg2ahb_adapter] bus2reg: addr = 0x14, data = 0xa, kind = UVM_READ, status = UVM_IS_OK
# UVM_INFO /ictc/other/tools/QuestaDVA/questasim/verilog_src/uvm-1.2/src/reg/uvm_reg_predictor.svh(225) @ 27011000: uvm_test_top.env.ahb_predictor [REG_PREDICT] Observed READ transaction to register regmodel.FSR: value='ha
# UVM_INFO ./../regmodel/uart_reg2ahb_adapter.sv(42) @ 27011000: reporter [uart_reg2ahb_adapter] bus2reg: addr = 0x14, data = 0xa, kind = UVM_READ, status = UVM_IS_OK
# UVM_INFO @ 27011000: reporter [RegModel] Read  register via map regmodel.ahb_map: regmodel.FSR=a
# UVM_INFO ./../tb/uart_scoreboard.sv(50) @ 27404000: uvm_test_top.env.scb [write_ahb] UART SIGNAL COMPARATIVE
# ============================================================================================================================
# UVM_INFO ./../tb/uart_scoreboard.sv(53) @ 27404000: uvm_test_top.env.scb [uart_scoreboard] PASSED! Signal is matching. Exp: 00011111, Act: 00011111
# ============================================================================================================================
# UVM_INFO ./../testcases/TX_16x_5bits_data_test.sv(40) @ 28011000: uvm_test_top [run_phase] Configuration randomize is: 
# -----------------------------------------------------
# Name               Type                 Size  Value  
# -----------------------------------------------------
# cfg                uart_configuration   -     @373   
#   parity_mode      parity_mode_config   2     NONE   
#   data_width       integral             32    'd5    
#   num_of_stop_bit  integral             32    'd1    
#   baud_rate        integral             32    'd38400
#   ovsmpl           ovs_config           1     X16    
#   parity_error     parity_error_config  1     NORMAL 
#   uart_mode        mode_config          1     TX     
# -----------------------------------------------------
# 
# UVM_INFO ./../regmodel/uart_reg2ahb_adapter.sv(27) @ 28011000: reporter [uart_reg2ahb_adapter] reg2bus: addr = 0x0, data = 0x0, kind = WRITE
# UVM_INFO ./../vip/ahb_vip/ahb_driver.sv(65) @ 28011000: uvm_test_top.env.ahb_agt.drv [ahb_driver] WRITE! addr = 0, data = 0
# UVM_INFO ./../vip/ahb_vip/ahb_monitor.sv(45) @ 28011000: uvm_test_top.env.ahb_agt.mnt [ahb_monitor] Observed transaction: 
# ----------------------------------------------
# Name          Type             Size  Value    
# ----------------------------------------------
# trans         ahb_transaction  -     @2231    
#   xact_type   xact_type_enum   1     WRITE    
#   xfer_size   xfer_size_enum   3     SIZE_8BIT
#   burst_type  burst_type_enum  3     SINGLE   
#   addr        integral         10    'h0      
#   data        integral         32    'h0      
#   prot        integral         4     'h0      
#   lock        integral         1     'h0      
# ----------------------------------------------
# 
# UVM_INFO ./../regmodel/uart_reg2ahb_adapter.sv(42) @ 28011000: reporter [uart_reg2ahb_adapter] bus2reg: addr = 0x0, data = 0x0, kind = UVM_WRITE, status = UVM_IS_OK
# UVM_INFO /ictc/other/tools/QuestaDVA/questasim/verilog_src/uvm-1.2/src/reg/uvm_reg_predictor.svh(221) @ 28011000: uvm_test_top.env.ahb_predictor [REG_PREDICT] Observed WRITE transaction to register regmodel.MDR: value='h0 : updated value = 'h0
# UVM_INFO ./../regmodel/uart_reg2ahb_adapter.sv(42) @ 28011000: reporter [uart_reg2ahb_adapter] bus2reg: addr = 0x0, data = 0x0, kind = UVM_WRITE, status = UVM_IS_OK
# UVM_INFO @ 28011000: reporter [RegModel] Wrote register via map regmodel.ahb_map: regmodel.MDR=0x0
# UVM_INFO ./../regmodel/uart_reg2ahb_adapter.sv(27) @ 28011000: reporter [uart_reg2ahb_adapter] reg2bus: addr = 0xc, data = 0x0, kind = WRITE
# UVM_INFO ./../vip/ahb_vip/ahb_driver.sv(65) @ 28012000: uvm_test_top.env.ahb_agt.drv [ahb_driver] WRITE! addr = c, data = 0
# UVM_INFO ./../vip/ahb_vip/ahb_monitor.sv(45) @ 28012000: uvm_test_top.env.ahb_agt.mnt [ahb_monitor] Observed transaction: 
# ----------------------------------------------
# Name          Type             Size  Value    
# ----------------------------------------------
# trans         ahb_transaction  -     @2281    
#   xact_type   xact_type_enum   1     WRITE    
#   xfer_size   xfer_size_enum   3     SIZE_8BIT
#   burst_type  burst_type_enum  3     SINGLE   
#   addr        integral         10    'hc      
#   data        integral         32    'h0      
#   prot        integral         4     'h0      
#   lock        integral         1     'h0      
# ----------------------------------------------
# 
# UVM_INFO ./../regmodel/uart_reg2ahb_adapter.sv(42) @ 28012000: reporter [uart_reg2ahb_adapter] bus2reg: addr = 0xc, data = 0x0, kind = UVM_WRITE, status = UVM_IS_OK
# UVM_INFO /ictc/other/tools/QuestaDVA/questasim/verilog_src/uvm-1.2/src/reg/uvm_reg_predictor.svh(221) @ 28012000: uvm_test_top.env.ahb_predictor [REG_PREDICT] Observed WRITE transaction to register regmodel.LCR: value='h0 : updated value = 'h0
# UVM_INFO ./../regmodel/uart_reg2ahb_adapter.sv(42) @ 28012000: reporter [uart_reg2ahb_adapter] bus2reg: addr = 0xc, data = 0x0, kind = UVM_WRITE, status = UVM_IS_OK
# UVM_INFO @ 28012000: reporter [RegModel] Wrote register via map regmodel.ahb_map: regmodel.LCR=0x0
# UVM_INFO ./../regmodel/uart_reg2ahb_adapter.sv(27) @ 28012000: reporter [uart_reg2ahb_adapter] reg2bus: addr = 0x4, data = 0xa3, kind = WRITE
# UVM_INFO ./../vip/ahb_vip/ahb_driver.sv(65) @ 28012000: uvm_test_top.env.ahb_agt.drv [ahb_driver] WRITE! addr = 4, data = a3
# UVM_INFO ./../vip/ahb_vip/ahb_monitor.sv(45) @ 28012000: uvm_test_top.env.ahb_agt.mnt [ahb_monitor] Observed transaction: 
# ----------------------------------------------
# Name          Type             Size  Value    
# ----------------------------------------------
# trans         ahb_transaction  -     @2321    
#   xact_type   xact_type_enum   1     WRITE    
#   xfer_size   xfer_size_enum   3     SIZE_8BIT
#   burst_type  burst_type_enum  3     SINGLE   
#   addr        integral         10    'h4      
#   data        integral         32    'ha3     
#   prot        integral         4     'h0      
#   lock        integral         1     'h0      
# ----------------------------------------------
# 
# UVM_INFO ./../regmodel/uart_reg2ahb_adapter.sv(42) @ 28012000: reporter [uart_reg2ahb_adapter] bus2reg: addr = 0x4, data = 0xa3, kind = UVM_WRITE, status = UVM_IS_OK
# UVM_INFO /ictc/other/tools/QuestaDVA/questasim/verilog_src/uvm-1.2/src/reg/uvm_reg_predictor.svh(221) @ 28012000: uvm_test_top.env.ahb_predictor [REG_PREDICT] Observed WRITE transaction to register regmodel.DLL: value='ha3 : updated value = 'ha3
# UVM_INFO ./../regmodel/uart_reg2ahb_adapter.sv(42) @ 28012000: reporter [uart_reg2ahb_adapter] bus2reg: addr = 0x4, data = 0xa3, kind = UVM_WRITE, status = UVM_IS_OK
# UVM_INFO @ 28012000: reporter [RegModel] Wrote register via map regmodel.ahb_map: regmodel.DLL=0xa3
# UVM_INFO ./../regmodel/uart_reg2ahb_adapter.sv(27) @ 28012000: reporter [uart_reg2ahb_adapter] reg2bus: addr = 0x8, data = 0x0, kind = WRITE
# UVM_INFO ./../vip/ahb_vip/ahb_driver.sv(65) @ 28012000: uvm_test_top.env.ahb_agt.drv [ahb_driver] WRITE! addr = 8, data = 0
# UVM_INFO ./../vip/ahb_vip/ahb_monitor.sv(45) @ 28012000: uvm_test_top.env.ahb_agt.mnt [ahb_monitor] Observed transaction: 
# ----------------------------------------------
# Name          Type             Size  Value    
# ----------------------------------------------
# trans         ahb_transaction  -     @2361    
#   xact_type   xact_type_enum   1     WRITE    
#   xfer_size   xfer_size_enum   3     SIZE_8BIT
#   burst_type  burst_type_enum  3     SINGLE   
#   addr        integral         10    'h8      
#   data        integral         32    'h0      
#   prot        integral         4     'h0      
#   lock        integral         1     'h0      
# ----------------------------------------------
# 
# UVM_INFO ./../regmodel/uart_reg2ahb_adapter.sv(42) @ 28012000: reporter [uart_reg2ahb_adapter] bus2reg: addr = 0x8, data = 0x0, kind = UVM_WRITE, status = UVM_IS_OK
# UVM_INFO /ictc/other/tools/QuestaDVA/questasim/verilog_src/uvm-1.2/src/reg/uvm_reg_predictor.svh(221) @ 28012000: uvm_test_top.env.ahb_predictor [REG_PREDICT] Observed WRITE transaction to register regmodel.DLH: value='h0 : updated value = 'h0
# UVM_INFO ./../regmodel/uart_reg2ahb_adapter.sv(42) @ 28012000: reporter [uart_reg2ahb_adapter] bus2reg: addr = 0x8, data = 0x0, kind = UVM_WRITE, status = UVM_IS_OK
# UVM_INFO @ 28012000: reporter [RegModel] Wrote register via map regmodel.ahb_map: regmodel.DLH=0x0
# UVM_INFO ./../regmodel/uart_reg2ahb_adapter.sv(27) @ 28012000: reporter [uart_reg2ahb_adapter] reg2bus: addr = 0xc, data = 0x20, kind = WRITE
# UVM_INFO ./../vip/ahb_vip/ahb_driver.sv(65) @ 28012000: uvm_test_top.env.ahb_agt.drv [ahb_driver] WRITE! addr = c, data = 20
# UVM_INFO ./../vip/ahb_vip/ahb_monitor.sv(45) @ 28012000: uvm_test_top.env.ahb_agt.mnt [ahb_monitor] Observed transaction: 
# ----------------------------------------------
# Name          Type             Size  Value    
# ----------------------------------------------
# trans         ahb_transaction  -     @2401    
#   xact_type   xact_type_enum   1     WRITE    
#   xfer_size   xfer_size_enum   3     SIZE_8BIT
#   burst_type  burst_type_enum  3     SINGLE   
#   addr        integral         10    'hc      
#   data        integral         32    'h20     
#   prot        integral         4     'h0      
#   lock        integral         1     'h0      
# ----------------------------------------------
# 
# UVM_INFO ./../regmodel/uart_reg2ahb_adapter.sv(42) @ 28012000: reporter [uart_reg2ahb_adapter] bus2reg: addr = 0xc, data = 0x20, kind = UVM_WRITE, status = UVM_IS_OK
# UVM_INFO /ictc/other/tools/QuestaDVA/questasim/verilog_src/uvm-1.2/src/reg/uvm_reg_predictor.svh(221) @ 28012000: uvm_test_top.env.ahb_predictor [REG_PREDICT] Observed WRITE transaction to register regmodel.LCR: value='h20 : updated value = 'h20
# UVM_INFO ./../regmodel/uart_reg2ahb_adapter.sv(42) @ 28012000: reporter [uart_reg2ahb_adapter] bus2reg: addr = 0xc, data = 0x20, kind = UVM_WRITE, status = UVM_IS_OK
# UVM_INFO @ 28012000: reporter [RegModel] Wrote register via map regmodel.ahb_map: regmodel.LCR=0x20
# UVM_INFO ./../regmodel/uart_reg2ahb_adapter.sv(27) @ 29012000: reporter [uart_reg2ahb_adapter] reg2bus: addr = 0x18, data = 0x2, kind = WRITE
# UVM_INFO ./../vip/ahb_vip/ahb_driver.sv(65) @ 29012000: uvm_test_top.env.ahb_agt.drv [ahb_driver] WRITE! addr = 18, data = 2
# UVM_INFO ./../vip/ahb_vip/ahb_monitor.sv(45) @ 29012000: uvm_test_top.env.ahb_agt.mnt [ahb_monitor] Observed transaction: 
# ----------------------------------------------
# Name          Type             Size  Value    
# ----------------------------------------------
# trans         ahb_transaction  -     @2441    
#   xact_type   xact_type_enum   1     WRITE    
#   xfer_size   xfer_size_enum   3     SIZE_8BIT
#   burst_type  burst_type_enum  3     SINGLE   
#   addr        integral         10    'h18     
#   data        integral         32    'h2      
#   prot        integral         4     'h0      
#   lock        integral         1     'h0      
# ----------------------------------------------
# 
# UVM_INFO ./../regmodel/uart_reg2ahb_adapter.sv(42) @ 29012000: reporter [uart_reg2ahb_adapter] bus2reg: addr = 0x18, data = 0x2, kind = UVM_WRITE, status = UVM_IS_OK
# UVM_INFO /ictc/other/tools/QuestaDVA/questasim/verilog_src/uvm-1.2/src/reg/uvm_reg_predictor.svh(221) @ 29012000: uvm_test_top.env.ahb_predictor [REG_PREDICT] Observed WRITE transaction to register regmodel.TBR: value='h2 : updated value = 'h2
# UVM_INFO ./../tb/uart_scoreboard.sv(70) @ 29012000: uvm_test_top.env.scb [write_rx] Add AHB's drive trans into queue
# UVM_INFO ./../regmodel/uart_reg2ahb_adapter.sv(42) @ 29012000: reporter [uart_reg2ahb_adapter] bus2reg: addr = 0x18, data = 0x2, kind = UVM_WRITE, status = UVM_IS_OK
# UVM_INFO @ 29012000: reporter [RegModel] Wrote register via map regmodel.ahb_map: regmodel.TBR=0x2
# UVM_INFO ./../regmodel/uart_reg2ahb_adapter.sv(27) @ 29012000: reporter [uart_reg2ahb_adapter] reg2bus: addr = 0x14, data = 0x0, kind = READ
# UVM_INFO ./../vip/ahb_vip/ahb_driver.sv(63) @ 29012000: uvm_test_top.env.ahb_agt.drv [ahb_driver] READ! addr = 14, data = 0
# UVM_INFO ./../vip/ahb_vip/ahb_monitor.sv(45) @ 29012000: uvm_test_top.env.ahb_agt.mnt [ahb_monitor] Observed transaction: 
# ----------------------------------------------
# Name          Type             Size  Value    
# ----------------------------------------------
# trans         ahb_transaction  -     @2483    
#   xact_type   xact_type_enum   1     READ     
#   xfer_size   xfer_size_enum   3     SIZE_8BIT
#   burst_type  burst_type_enum  3     SINGLE   
#   addr        integral         10    'h14     
#   data        integral         32    'ha      
#   prot        integral         4     'h0      
#   lock        integral         1     'h0      
# ----------------------------------------------
# 
# UVM_INFO ./../regmodel/uart_reg2ahb_adapter.sv(42) @ 29012000: reporter [uart_reg2ahb_adapter] bus2reg: addr = 0x14, data = 0xa, kind = UVM_READ, status = UVM_IS_OK
# UVM_INFO /ictc/other/tools/QuestaDVA/questasim/verilog_src/uvm-1.2/src/reg/uvm_reg_predictor.svh(225) @ 29012000: uvm_test_top.env.ahb_predictor [REG_PREDICT] Observed READ transaction to register regmodel.FSR: value='ha
# UVM_INFO ./../regmodel/uart_reg2ahb_adapter.sv(42) @ 29012000: reporter [uart_reg2ahb_adapter] bus2reg: addr = 0x14, data = 0xa, kind = UVM_READ, status = UVM_IS_OK
# UVM_INFO @ 29012000: reporter [RegModel] Read  register via map regmodel.ahb_map: regmodel.FSR=a
# UVM_INFO ./../tb/uart_scoreboard.sv(50) @ 29208000: uvm_test_top.env.scb [write_ahb] UART SIGNAL COMPARATIVE
# ============================================================================================================================
# UVM_INFO ./../tb/uart_scoreboard.sv(53) @ 29208000: uvm_test_top.env.scb [uart_scoreboard] PASSED! Signal is matching. Exp: 00000010, Act: 00000010
# ============================================================================================================================
# UVM_INFO ./../testcases/TX_16x_5bits_data_test.sv(40) @ 30012000: uvm_test_top [run_phase] Configuration randomize is: 
# -----------------------------------------------------
# Name               Type                 Size  Value  
# -----------------------------------------------------
# cfg                uart_configuration   -     @373   
#   parity_mode      parity_mode_config   2     NONE   
#   data_width       integral             32    'd5    
#   num_of_stop_bit  integral             32    'd1    
#   baud_rate        integral             32    'd76800
#   ovsmpl           ovs_config           1     X16    
#   parity_error     parity_error_config  1     NORMAL 
#   uart_mode        mode_config          1     TX     
# -----------------------------------------------------
# 
# UVM_INFO ./../regmodel/uart_reg2ahb_adapter.sv(27) @ 30012000: reporter [uart_reg2ahb_adapter] reg2bus: addr = 0x0, data = 0x0, kind = WRITE
# UVM_INFO ./../vip/ahb_vip/ahb_driver.sv(65) @ 30012000: uvm_test_top.env.ahb_agt.drv [ahb_driver] WRITE! addr = 0, data = 0
# UVM_INFO ./../vip/ahb_vip/ahb_monitor.sv(45) @ 30012000: uvm_test_top.env.ahb_agt.mnt [ahb_monitor] Observed transaction: 
# ----------------------------------------------
# Name          Type             Size  Value    
# ----------------------------------------------
# trans         ahb_transaction  -     @2523    
#   xact_type   xact_type_enum   1     WRITE    
#   xfer_size   xfer_size_enum   3     SIZE_8BIT
#   burst_type  burst_type_enum  3     SINGLE   
#   addr        integral         10    'h0      
#   data        integral         32    'h0      
#   prot        integral         4     'h0      
#   lock        integral         1     'h0      
# ----------------------------------------------
# 
# UVM_INFO ./../regmodel/uart_reg2ahb_adapter.sv(42) @ 30012000: reporter [uart_reg2ahb_adapter] bus2reg: addr = 0x0, data = 0x0, kind = UVM_WRITE, status = UVM_IS_OK
# UVM_INFO /ictc/other/tools/QuestaDVA/questasim/verilog_src/uvm-1.2/src/reg/uvm_reg_predictor.svh(221) @ 30012000: uvm_test_top.env.ahb_predictor [REG_PREDICT] Observed WRITE transaction to register regmodel.MDR: value='h0 : updated value = 'h0
# UVM_INFO ./../regmodel/uart_reg2ahb_adapter.sv(42) @ 30012000: reporter [uart_reg2ahb_adapter] bus2reg: addr = 0x0, data = 0x0, kind = UVM_WRITE, status = UVM_IS_OK
# UVM_INFO @ 30012000: reporter [RegModel] Wrote register via map regmodel.ahb_map: regmodel.MDR=0x0
# UVM_INFO ./../regmodel/uart_reg2ahb_adapter.sv(27) @ 30012000: reporter [uart_reg2ahb_adapter] reg2bus: addr = 0xc, data = 0x0, kind = WRITE
# UVM_INFO ./../vip/ahb_vip/ahb_driver.sv(65) @ 30012000: uvm_test_top.env.ahb_agt.drv [ahb_driver] WRITE! addr = c, data = 0
# UVM_INFO ./../vip/ahb_vip/ahb_monitor.sv(45) @ 30012000: uvm_test_top.env.ahb_agt.mnt [ahb_monitor] Observed transaction: 
# ----------------------------------------------
# Name          Type             Size  Value    
# ----------------------------------------------
# trans         ahb_transaction  -     @2573    
#   xact_type   xact_type_enum   1     WRITE    
#   xfer_size   xfer_size_enum   3     SIZE_8BIT
#   burst_type  burst_type_enum  3     SINGLE   
#   addr        integral         10    'hc      
#   data        integral         32    'h0      
#   prot        integral         4     'h0      
#   lock        integral         1     'h0      
# ----------------------------------------------
# 
# UVM_INFO ./../regmodel/uart_reg2ahb_adapter.sv(42) @ 30012000: reporter [uart_reg2ahb_adapter] bus2reg: addr = 0xc, data = 0x0, kind = UVM_WRITE, status = UVM_IS_OK
# UVM_INFO /ictc/other/tools/QuestaDVA/questasim/verilog_src/uvm-1.2/src/reg/uvm_reg_predictor.svh(221) @ 30012000: uvm_test_top.env.ahb_predictor [REG_PREDICT] Observed WRITE transaction to register regmodel.LCR: value='h0 : updated value = 'h0
# UVM_INFO ./../regmodel/uart_reg2ahb_adapter.sv(42) @ 30012000: reporter [uart_reg2ahb_adapter] bus2reg: addr = 0xc, data = 0x0, kind = UVM_WRITE, status = UVM_IS_OK
# UVM_INFO @ 30012000: reporter [RegModel] Wrote register via map regmodel.ahb_map: regmodel.LCR=0x0
# UVM_INFO ./../regmodel/uart_reg2ahb_adapter.sv(27) @ 30012000: reporter [uart_reg2ahb_adapter] reg2bus: addr = 0x4, data = 0x51, kind = WRITE
# UVM_INFO ./../vip/ahb_vip/ahb_driver.sv(65) @ 30012000: uvm_test_top.env.ahb_agt.drv [ahb_driver] WRITE! addr = 4, data = 51
# UVM_INFO ./../vip/ahb_vip/ahb_monitor.sv(45) @ 30012000: uvm_test_top.env.ahb_agt.mnt [ahb_monitor] Observed transaction: 
# ----------------------------------------------
# Name          Type             Size  Value    
# ----------------------------------------------
# trans         ahb_transaction  -     @2613    
#   xact_type   xact_type_enum   1     WRITE    
#   xfer_size   xfer_size_enum   3     SIZE_8BIT
#   burst_type  burst_type_enum  3     SINGLE   
#   addr        integral         10    'h4      
#   data        integral         32    'h51     
#   prot        integral         4     'h0      
#   lock        integral         1     'h0      
# ----------------------------------------------
# 
# UVM_INFO ./../regmodel/uart_reg2ahb_adapter.sv(42) @ 30012000: reporter [uart_reg2ahb_adapter] bus2reg: addr = 0x4, data = 0x51, kind = UVM_WRITE, status = UVM_IS_OK
# UVM_INFO /ictc/other/tools/QuestaDVA/questasim/verilog_src/uvm-1.2/src/reg/uvm_reg_predictor.svh(221) @ 30012000: uvm_test_top.env.ahb_predictor [REG_PREDICT] Observed WRITE transaction to register regmodel.DLL: value='h51 : updated value = 'h51
# UVM_INFO ./../regmodel/uart_reg2ahb_adapter.sv(42) @ 30012000: reporter [uart_reg2ahb_adapter] bus2reg: addr = 0x4, data = 0x51, kind = UVM_WRITE, status = UVM_IS_OK
# UVM_INFO @ 30012000: reporter [RegModel] Wrote register via map regmodel.ahb_map: regmodel.DLL=0x51
# UVM_INFO ./../regmodel/uart_reg2ahb_adapter.sv(27) @ 30012000: reporter [uart_reg2ahb_adapter] reg2bus: addr = 0x8, data = 0x0, kind = WRITE
# UVM_INFO ./../vip/ahb_vip/ahb_driver.sv(65) @ 30012000: uvm_test_top.env.ahb_agt.drv [ahb_driver] WRITE! addr = 8, data = 0
# UVM_INFO ./../vip/ahb_vip/ahb_monitor.sv(45) @ 30012000: uvm_test_top.env.ahb_agt.mnt [ahb_monitor] Observed transaction: 
# ----------------------------------------------
# Name          Type             Size  Value    
# ----------------------------------------------
# trans         ahb_transaction  -     @2653    
#   xact_type   xact_type_enum   1     WRITE    
#   xfer_size   xfer_size_enum   3     SIZE_8BIT
#   burst_type  burst_type_enum  3     SINGLE   
#   addr        integral         10    'h8      
#   data        integral         32    'h0      
#   prot        integral         4     'h0      
#   lock        integral         1     'h0      
# ----------------------------------------------
# 
# UVM_INFO ./../regmodel/uart_reg2ahb_adapter.sv(42) @ 30012000: reporter [uart_reg2ahb_adapter] bus2reg: addr = 0x8, data = 0x0, kind = UVM_WRITE, status = UVM_IS_OK
# UVM_INFO /ictc/other/tools/QuestaDVA/questasim/verilog_src/uvm-1.2/src/reg/uvm_reg_predictor.svh(221) @ 30012000: uvm_test_top.env.ahb_predictor [REG_PREDICT] Observed WRITE transaction to register regmodel.DLH: value='h0 : updated value = 'h0
# UVM_INFO ./../regmodel/uart_reg2ahb_adapter.sv(42) @ 30012000: reporter [uart_reg2ahb_adapter] bus2reg: addr = 0x8, data = 0x0, kind = UVM_WRITE, status = UVM_IS_OK
# UVM_INFO @ 30012000: reporter [RegModel] Wrote register via map regmodel.ahb_map: regmodel.DLH=0x0
# UVM_INFO ./../regmodel/uart_reg2ahb_adapter.sv(27) @ 30012000: reporter [uart_reg2ahb_adapter] reg2bus: addr = 0xc, data = 0x20, kind = WRITE
# UVM_INFO ./../vip/ahb_vip/ahb_driver.sv(65) @ 30012000: uvm_test_top.env.ahb_agt.drv [ahb_driver] WRITE! addr = c, data = 20
# UVM_INFO ./../vip/ahb_vip/ahb_monitor.sv(45) @ 30012000: uvm_test_top.env.ahb_agt.mnt [ahb_monitor] Observed transaction: 
# ----------------------------------------------
# Name          Type             Size  Value    
# ----------------------------------------------
# trans         ahb_transaction  -     @2693    
#   xact_type   xact_type_enum   1     WRITE    
#   xfer_size   xfer_size_enum   3     SIZE_8BIT
#   burst_type  burst_type_enum  3     SINGLE   
#   addr        integral         10    'hc      
#   data        integral         32    'h20     
#   prot        integral         4     'h0      
#   lock        integral         1     'h0      
# ----------------------------------------------
# 
# UVM_INFO ./../regmodel/uart_reg2ahb_adapter.sv(42) @ 30012000: reporter [uart_reg2ahb_adapter] bus2reg: addr = 0xc, data = 0x20, kind = UVM_WRITE, status = UVM_IS_OK
# UVM_INFO /ictc/other/tools/QuestaDVA/questasim/verilog_src/uvm-1.2/src/reg/uvm_reg_predictor.svh(221) @ 30012000: uvm_test_top.env.ahb_predictor [REG_PREDICT] Observed WRITE transaction to register regmodel.LCR: value='h20 : updated value = 'h20
# UVM_INFO ./../regmodel/uart_reg2ahb_adapter.sv(42) @ 30012000: reporter [uart_reg2ahb_adapter] bus2reg: addr = 0xc, data = 0x20, kind = UVM_WRITE, status = UVM_IS_OK
# UVM_INFO @ 30012000: reporter [RegModel] Wrote register via map regmodel.ahb_map: regmodel.LCR=0x20
# UVM_INFO ./../regmodel/uart_reg2ahb_adapter.sv(27) @ 31012000: reporter [uart_reg2ahb_adapter] reg2bus: addr = 0x18, data = 0x17, kind = WRITE
# UVM_INFO ./../vip/ahb_vip/ahb_driver.sv(65) @ 31012000: uvm_test_top.env.ahb_agt.drv [ahb_driver] WRITE! addr = 18, data = 17
# UVM_INFO ./../vip/ahb_vip/ahb_monitor.sv(45) @ 31012000: uvm_test_top.env.ahb_agt.mnt [ahb_monitor] Observed transaction: 
# ----------------------------------------------
# Name          Type             Size  Value    
# ----------------------------------------------
# trans         ahb_transaction  -     @2733    
#   xact_type   xact_type_enum   1     WRITE    
#   xfer_size   xfer_size_enum   3     SIZE_8BIT
#   burst_type  burst_type_enum  3     SINGLE   
#   addr        integral         10    'h18     
#   data        integral         32    'h17     
#   prot        integral         4     'h0      
#   lock        integral         1     'h0      
# ----------------------------------------------
# 
# UVM_INFO ./../regmodel/uart_reg2ahb_adapter.sv(42) @ 31012000: reporter [uart_reg2ahb_adapter] bus2reg: addr = 0x18, data = 0x17, kind = UVM_WRITE, status = UVM_IS_OK
# UVM_INFO /ictc/other/tools/QuestaDVA/questasim/verilog_src/uvm-1.2/src/reg/uvm_reg_predictor.svh(221) @ 31012000: uvm_test_top.env.ahb_predictor [REG_PREDICT] Observed WRITE transaction to register regmodel.TBR: value='h17 : updated value = 'h17
# UVM_INFO ./../tb/uart_scoreboard.sv(70) @ 31012000: uvm_test_top.env.scb [write_rx] Add AHB's drive trans into queue
# UVM_INFO ./../regmodel/uart_reg2ahb_adapter.sv(42) @ 31012000: reporter [uart_reg2ahb_adapter] bus2reg: addr = 0x18, data = 0x17, kind = UVM_WRITE, status = UVM_IS_OK
# UVM_INFO @ 31012000: reporter [RegModel] Wrote register via map regmodel.ahb_map: regmodel.TBR=0x17
# UVM_INFO ./../regmodel/uart_reg2ahb_adapter.sv(27) @ 31012000: reporter [uart_reg2ahb_adapter] reg2bus: addr = 0x14, data = 0x0, kind = READ
# UVM_INFO ./../vip/ahb_vip/ahb_driver.sv(63) @ 31012000: uvm_test_top.env.ahb_agt.drv [ahb_driver] READ! addr = 14, data = 0
# UVM_INFO ./../vip/ahb_vip/ahb_monitor.sv(45) @ 31012000: uvm_test_top.env.ahb_agt.mnt [ahb_monitor] Observed transaction: 
# ----------------------------------------------
# Name          Type             Size  Value    
# ----------------------------------------------
# trans         ahb_transaction  -     @2775    
#   xact_type   xact_type_enum   1     READ     
#   xfer_size   xfer_size_enum   3     SIZE_8BIT
#   burst_type  burst_type_enum  3     SINGLE   
#   addr        integral         10    'h14     
#   data        integral         32    'ha      
#   prot        integral         4     'h0      
#   lock        integral         1     'h0      
# ----------------------------------------------
# 
# UVM_INFO ./../regmodel/uart_reg2ahb_adapter.sv(42) @ 31012000: reporter [uart_reg2ahb_adapter] bus2reg: addr = 0x14, data = 0xa, kind = UVM_READ, status = UVM_IS_OK
# UVM_INFO /ictc/other/tools/QuestaDVA/questasim/verilog_src/uvm-1.2/src/reg/uvm_reg_predictor.svh(225) @ 31012000: uvm_test_top.env.ahb_predictor [REG_PREDICT] Observed READ transaction to register regmodel.FSR: value='ha
# UVM_INFO ./../regmodel/uart_reg2ahb_adapter.sv(42) @ 31012000: reporter [uart_reg2ahb_adapter] bus2reg: addr = 0x14, data = 0xa, kind = UVM_READ, status = UVM_IS_OK
# UVM_INFO @ 31012000: reporter [RegModel] Read  register via map regmodel.ahb_map: regmodel.FSR=a
# UVM_INFO ./../tb/uart_scoreboard.sv(50) @ 31109000: uvm_test_top.env.scb [write_ahb] UART SIGNAL COMPARATIVE
# ============================================================================================================================
# UVM_INFO ./../tb/uart_scoreboard.sv(53) @ 31109000: uvm_test_top.env.scb [uart_scoreboard] PASSED! Signal is matching. Exp: 00010111, Act: 00010111
# ============================================================================================================================
# UVM_INFO ./../testcases/TX_16x_5bits_data_test.sv(40) @ 32012000: uvm_test_top [run_phase] Configuration randomize is: 
# ------------------------------------------------------
# Name               Type                 Size  Value   
# ------------------------------------------------------
# cfg                uart_configuration   -     @373    
#   parity_mode      parity_mode_config   2     NONE    
#   data_width       integral             32    'd5     
#   num_of_stop_bit  integral             32    'd1     
#   baud_rate        integral             32    'd115200
#   ovsmpl           ovs_config           1     X16     
#   parity_error     parity_error_config  1     NORMAL  
#   uart_mode        mode_config          1     TX      
# ------------------------------------------------------
# 
# UVM_INFO ./../regmodel/uart_reg2ahb_adapter.sv(27) @ 32012000: reporter [uart_reg2ahb_adapter] reg2bus: addr = 0x0, data = 0x0, kind = WRITE
# UVM_INFO ./../vip/ahb_vip/ahb_driver.sv(65) @ 32012000: uvm_test_top.env.ahb_agt.drv [ahb_driver] WRITE! addr = 0, data = 0
# UVM_INFO ./../vip/ahb_vip/ahb_monitor.sv(45) @ 32012000: uvm_test_top.env.ahb_agt.mnt [ahb_monitor] Observed transaction: 
# ----------------------------------------------
# Name          Type             Size  Value    
# ----------------------------------------------
# trans         ahb_transaction  -     @2815    
#   xact_type   xact_type_enum   1     WRITE    
#   xfer_size   xfer_size_enum   3     SIZE_8BIT
#   burst_type  burst_type_enum  3     SINGLE   
#   addr        integral         10    'h0      
#   data        integral         32    'h0      
#   prot        integral         4     'h0      
#   lock        integral         1     'h0      
# ----------------------------------------------
# 
# UVM_INFO ./../regmodel/uart_reg2ahb_adapter.sv(42) @ 32012000: reporter [uart_reg2ahb_adapter] bus2reg: addr = 0x0, data = 0x0, kind = UVM_WRITE, status = UVM_IS_OK
# UVM_INFO /ictc/other/tools/QuestaDVA/questasim/verilog_src/uvm-1.2/src/reg/uvm_reg_predictor.svh(221) @ 32012000: uvm_test_top.env.ahb_predictor [REG_PREDICT] Observed WRITE transaction to register regmodel.MDR: value='h0 : updated value = 'h0
# UVM_INFO ./../regmodel/uart_reg2ahb_adapter.sv(42) @ 32012000: reporter [uart_reg2ahb_adapter] bus2reg: addr = 0x0, data = 0x0, kind = UVM_WRITE, status = UVM_IS_OK
# UVM_INFO @ 32012000: reporter [RegModel] Wrote register via map regmodel.ahb_map: regmodel.MDR=0x0
# UVM_INFO ./../regmodel/uart_reg2ahb_adapter.sv(27) @ 32012000: reporter [uart_reg2ahb_adapter] reg2bus: addr = 0xc, data = 0x0, kind = WRITE
# UVM_INFO ./../vip/ahb_vip/ahb_driver.sv(65) @ 32012000: uvm_test_top.env.ahb_agt.drv [ahb_driver] WRITE! addr = c, data = 0
# UVM_INFO ./../vip/ahb_vip/ahb_monitor.sv(45) @ 32012000: uvm_test_top.env.ahb_agt.mnt [ahb_monitor] Observed transaction: 
# ----------------------------------------------
# Name          Type             Size  Value    
# ----------------------------------------------
# trans         ahb_transaction  -     @2865    
#   xact_type   xact_type_enum   1     WRITE    
#   xfer_size   xfer_size_enum   3     SIZE_8BIT
#   burst_type  burst_type_enum  3     SINGLE   
#   addr        integral         10    'hc      
#   data        integral         32    'h0      
#   prot        integral         4     'h0      
#   lock        integral         1     'h0      
# ----------------------------------------------
# 
# UVM_INFO ./../regmodel/uart_reg2ahb_adapter.sv(42) @ 32012000: reporter [uart_reg2ahb_adapter] bus2reg: addr = 0xc, data = 0x0, kind = UVM_WRITE, status = UVM_IS_OK
# UVM_INFO /ictc/other/tools/QuestaDVA/questasim/verilog_src/uvm-1.2/src/reg/uvm_reg_predictor.svh(221) @ 32012000: uvm_test_top.env.ahb_predictor [REG_PREDICT] Observed WRITE transaction to register regmodel.LCR: value='h0 : updated value = 'h0
# UVM_INFO ./../regmodel/uart_reg2ahb_adapter.sv(42) @ 32012000: reporter [uart_reg2ahb_adapter] bus2reg: addr = 0xc, data = 0x0, kind = UVM_WRITE, status = UVM_IS_OK
# UVM_INFO @ 32012000: reporter [RegModel] Wrote register via map regmodel.ahb_map: regmodel.LCR=0x0
# UVM_INFO ./../regmodel/uart_reg2ahb_adapter.sv(27) @ 32012000: reporter [uart_reg2ahb_adapter] reg2bus: addr = 0x4, data = 0x36, kind = WRITE
# UVM_INFO ./../vip/ahb_vip/ahb_driver.sv(65) @ 32012000: uvm_test_top.env.ahb_agt.drv [ahb_driver] WRITE! addr = 4, data = 36
# UVM_INFO ./../vip/ahb_vip/ahb_monitor.sv(45) @ 32012000: uvm_test_top.env.ahb_agt.mnt [ahb_monitor] Observed transaction: 
# ----------------------------------------------
# Name          Type             Size  Value    
# ----------------------------------------------
# trans         ahb_transaction  -     @2905    
#   xact_type   xact_type_enum   1     WRITE    
#   xfer_size   xfer_size_enum   3     SIZE_8BIT
#   burst_type  burst_type_enum  3     SINGLE   
#   addr        integral         10    'h4      
#   data        integral         32    'h36     
#   prot        integral         4     'h0      
#   lock        integral         1     'h0      
# ----------------------------------------------
# 
# UVM_INFO ./../regmodel/uart_reg2ahb_adapter.sv(42) @ 32012000: reporter [uart_reg2ahb_adapter] bus2reg: addr = 0x4, data = 0x36, kind = UVM_WRITE, status = UVM_IS_OK
# UVM_INFO /ictc/other/tools/QuestaDVA/questasim/verilog_src/uvm-1.2/src/reg/uvm_reg_predictor.svh(221) @ 32012000: uvm_test_top.env.ahb_predictor [REG_PREDICT] Observed WRITE transaction to register regmodel.DLL: value='h36 : updated value = 'h36
# UVM_INFO ./../regmodel/uart_reg2ahb_adapter.sv(42) @ 32012000: reporter [uart_reg2ahb_adapter] bus2reg: addr = 0x4, data = 0x36, kind = UVM_WRITE, status = UVM_IS_OK
# UVM_INFO @ 32012000: reporter [RegModel] Wrote register via map regmodel.ahb_map: regmodel.DLL=0x36
# UVM_INFO ./../regmodel/uart_reg2ahb_adapter.sv(27) @ 32012000: reporter [uart_reg2ahb_adapter] reg2bus: addr = 0x8, data = 0x0, kind = WRITE
# UVM_INFO ./../vip/ahb_vip/ahb_driver.sv(65) @ 32012000: uvm_test_top.env.ahb_agt.drv [ahb_driver] WRITE! addr = 8, data = 0
# UVM_INFO ./../vip/ahb_vip/ahb_monitor.sv(45) @ 32012000: uvm_test_top.env.ahb_agt.mnt [ahb_monitor] Observed transaction: 
# ----------------------------------------------
# Name          Type             Size  Value    
# ----------------------------------------------
# trans         ahb_transaction  -     @2945    
#   xact_type   xact_type_enum   1     WRITE    
#   xfer_size   xfer_size_enum   3     SIZE_8BIT
#   burst_type  burst_type_enum  3     SINGLE   
#   addr        integral         10    'h8      
#   data        integral         32    'h0      
#   prot        integral         4     'h0      
#   lock        integral         1     'h0      
# ----------------------------------------------
# 
# UVM_INFO ./../regmodel/uart_reg2ahb_adapter.sv(42) @ 32012000: reporter [uart_reg2ahb_adapter] bus2reg: addr = 0x8, data = 0x0, kind = UVM_WRITE, status = UVM_IS_OK
# UVM_INFO /ictc/other/tools/QuestaDVA/questasim/verilog_src/uvm-1.2/src/reg/uvm_reg_predictor.svh(221) @ 32012000: uvm_test_top.env.ahb_predictor [REG_PREDICT] Observed WRITE transaction to register regmodel.DLH: value='h0 : updated value = 'h0
# UVM_INFO ./../regmodel/uart_reg2ahb_adapter.sv(42) @ 32012000: reporter [uart_reg2ahb_adapter] bus2reg: addr = 0x8, data = 0x0, kind = UVM_WRITE, status = UVM_IS_OK
# UVM_INFO @ 32012000: reporter [RegModel] Wrote register via map regmodel.ahb_map: regmodel.DLH=0x0
# UVM_INFO ./../regmodel/uart_reg2ahb_adapter.sv(27) @ 32012000: reporter [uart_reg2ahb_adapter] reg2bus: addr = 0xc, data = 0x20, kind = WRITE
# UVM_INFO ./../vip/ahb_vip/ahb_driver.sv(65) @ 32012000: uvm_test_top.env.ahb_agt.drv [ahb_driver] WRITE! addr = c, data = 20
# UVM_INFO ./../vip/ahb_vip/ahb_monitor.sv(45) @ 32012000: uvm_test_top.env.ahb_agt.mnt [ahb_monitor] Observed transaction: 
# ----------------------------------------------
# Name          Type             Size  Value    
# ----------------------------------------------
# trans         ahb_transaction  -     @2985    
#   xact_type   xact_type_enum   1     WRITE    
#   xfer_size   xfer_size_enum   3     SIZE_8BIT
#   burst_type  burst_type_enum  3     SINGLE   
#   addr        integral         10    'hc      
#   data        integral         32    'h20     
#   prot        integral         4     'h0      
#   lock        integral         1     'h0      
# ----------------------------------------------
# 
# UVM_INFO ./../regmodel/uart_reg2ahb_adapter.sv(42) @ 32012000: reporter [uart_reg2ahb_adapter] bus2reg: addr = 0xc, data = 0x20, kind = UVM_WRITE, status = UVM_IS_OK
# UVM_INFO /ictc/other/tools/QuestaDVA/questasim/verilog_src/uvm-1.2/src/reg/uvm_reg_predictor.svh(221) @ 32012000: uvm_test_top.env.ahb_predictor [REG_PREDICT] Observed WRITE transaction to register regmodel.LCR: value='h20 : updated value = 'h20
# UVM_INFO ./../regmodel/uart_reg2ahb_adapter.sv(42) @ 32012000: reporter [uart_reg2ahb_adapter] bus2reg: addr = 0xc, data = 0x20, kind = UVM_WRITE, status = UVM_IS_OK
# UVM_INFO @ 32012000: reporter [RegModel] Wrote register via map regmodel.ahb_map: regmodel.LCR=0x20
# UVM_INFO ./../regmodel/uart_reg2ahb_adapter.sv(27) @ 33012000: reporter [uart_reg2ahb_adapter] reg2bus: addr = 0x18, data = 0x2, kind = WRITE
# UVM_INFO ./../vip/ahb_vip/ahb_driver.sv(65) @ 33012000: uvm_test_top.env.ahb_agt.drv [ahb_driver] WRITE! addr = 18, data = 2
# UVM_INFO ./../vip/ahb_vip/ahb_monitor.sv(45) @ 33012000: uvm_test_top.env.ahb_agt.mnt [ahb_monitor] Observed transaction: 
# ----------------------------------------------
# Name          Type             Size  Value    
# ----------------------------------------------
# trans         ahb_transaction  -     @3025    
#   xact_type   xact_type_enum   1     WRITE    
#   xfer_size   xfer_size_enum   3     SIZE_8BIT
#   burst_type  burst_type_enum  3     SINGLE   
#   addr        integral         10    'h18     
#   data        integral         32    'h2      
#   prot        integral         4     'h0      
#   lock        integral         1     'h0      
# ----------------------------------------------
# 
# UVM_INFO ./../regmodel/uart_reg2ahb_adapter.sv(42) @ 33012000: reporter [uart_reg2ahb_adapter] bus2reg: addr = 0x18, data = 0x2, kind = UVM_WRITE, status = UVM_IS_OK
# UVM_INFO /ictc/other/tools/QuestaDVA/questasim/verilog_src/uvm-1.2/src/reg/uvm_reg_predictor.svh(221) @ 33012000: uvm_test_top.env.ahb_predictor [REG_PREDICT] Observed WRITE transaction to register regmodel.TBR: value='h2 : updated value = 'h2
# UVM_INFO ./../tb/uart_scoreboard.sv(70) @ 33012000: uvm_test_top.env.scb [write_rx] Add AHB's drive trans into queue
# UVM_INFO ./../regmodel/uart_reg2ahb_adapter.sv(42) @ 33012000: reporter [uart_reg2ahb_adapter] bus2reg: addr = 0x18, data = 0x2, kind = UVM_WRITE, status = UVM_IS_OK
# UVM_INFO @ 33012000: reporter [RegModel] Wrote register via map regmodel.ahb_map: regmodel.TBR=0x2
# UVM_INFO ./../regmodel/uart_reg2ahb_adapter.sv(27) @ 33012000: reporter [uart_reg2ahb_adapter] reg2bus: addr = 0x14, data = 0x0, kind = READ
# UVM_INFO ./../vip/ahb_vip/ahb_driver.sv(63) @ 33012000: uvm_test_top.env.ahb_agt.drv [ahb_driver] READ! addr = 14, data = 0
# UVM_INFO ./../vip/ahb_vip/ahb_monitor.sv(45) @ 33012000: uvm_test_top.env.ahb_agt.mnt [ahb_monitor] Observed transaction: 
# ----------------------------------------------
# Name          Type             Size  Value    
